!Created with skrf (http://scikit-rf.org).
# GHz S RI R 50.0 
!freq ReS11 ImS11 ReS21 ImS21 ReS12 ImS12 ReS22 ImS22
0.001 1.0016056299209595 -0.0029362738132476807 -6.2193721532821655e-06 -1.4155171811580658e-05 0.0 0.0 0.0 0.0
0.002 1.0008963346481323 -0.0053066834807395935 3.4943222999572754e-06 -1.037493348121643e-06 0.0 0.0 0.0 0.0
0.003 1.0008447170257568 -0.007606609724462032 3.466382622718811e-06 -3.604870289564133e-05 0.0 0.0 0.0 0.0
0.004 1.0004185438156128 -0.01031847856938839 1.7442740499973297e-05 3.1332485377788544e-05 0.0 0.0 0.0 0.0
0.005 1.0003865957260132 -0.012632043100893497 -5.476921796798706e-05 3.181677311658859e-05 0.0 0.0 0.0 0.0
0.006 1.0001059770584106 -0.015045213513076305 7.41519033908844e-06 -9.47713851928711e-06 0.0 0.0 0.0 0.0
0.007 0.999996542930603 -0.017718413844704628 2.2710300981998444e-05 -1.676846295595169e-05 0.0 0.0 0.0 0.0
0.008 1.0002843141555786 -0.020453885197639465 -7.422640919685364e-06 7.2801485657691956e-06 0.0 0.0 0.0 0.0
0.009 1.0001907348632812 -0.02277674712240696 -4.160497337579727e-05 1.6473233699798584e-05 0.0 0.0 0.0 0.0
0.01 0.9992300271987915 -0.025019951164722443 -2.8760172426700592e-05 -1.391582190990448e-05 0.0 0.0 0.0 0.0
0.011 1.0001640319824219 -0.027587490156292915 -5.54695725440979e-05 -2.4949200451374054e-05 0.0 0.0 0.0 0.0
0.012 0.9991313815116882 -0.030042380094528198 -2.3470260202884674e-05 5.647540092468262e-06 0.0 0.0 0.0 0.0
0.013 0.9995401501655579 -0.032375019043684006 1.5000812709331512e-05 6.565172225236893e-05 0.0 0.0 0.0 0.0
0.014 0.9991355538368225 -0.03451700508594513 -5.08427619934082e-05 1.4522112905979156e-05 0.0 0.0 0.0 0.0
0.015 0.9987003803253174 -0.03800732642412186 -3.5744160413742065e-05 -3.85381281375885e-06 0.0 0.0 0.0 0.0
0.016 0.998198926448822 -0.04025308042764664 -1.377146691083908e-05 -2.7720816433429718e-05 0.0 0.0 0.0 0.0
0.017 0.9980700612068176 -0.04211560636758804 4.1387975215911865e-06 1.870281994342804e-05 0.0 0.0 0.0 0.0
0.018 0.9983311295509338 -0.04476001113653183 1.1858530342578888e-05 -9.420327842235565e-06 0.0 0.0 0.0 0.0
0.019 0.9981315732002258 -0.046976398676633835 -1.255422830581665e-06 -3.495067358016968e-05 0.0 0.0 0.0 0.0
0.02 0.9976970553398132 -0.04948081076145172 -1.9602477550506592e-05 6.3944607973098755e-06 0.0 0.0 0.0 0.0
0.021 0.9981145262718201 -0.052023857831954956 -3.8100406527519226e-06 7.94045627117157e-06 0.0 0.0 0.0 0.0
0.022 0.9972168803215027 -0.05551721155643463 4.176609218120575e-05 4.013068974018097e-06 0.0 0.0 0.0 0.0
0.023 0.9968661069869995 -0.05734258145093918 5.969777703285217e-07 9.778887033462524e-07 0.0 0.0 0.0 0.0
0.024 0.9964897036552429 -0.05909576639533043 1.4198943972587585e-05 1.4000572264194489e-05 0.0 0.0 0.0 0.0
0.025 0.9958875775337219 -0.06153642386198044 2.3397617042064667e-05 2.5187619030475616e-05 0.0 0.0 0.0 0.0
0.026 0.9952770471572876 -0.06413564085960388 -1.262221485376358e-05 -5.0729140639305115e-06 0.0 0.0 0.0 0.0
0.027 0.9952564239501953 -0.06613799184560776 7.86222517490387e-06 1.4193356037139893e-06 0.0 0.0 0.0 0.0
0.028 0.9960705041885376 -0.06919492036104202 3.410503268241882e-05 -3.8261525332927704e-05 0.0 0.0 0.0 0.0
0.029 0.9951855540275574 -0.07092899829149246 1.3095326721668243e-05 2.1886080503463745e-06 0.0 0.0 0.0 0.0
0.03 0.995334267616272 -0.07460953295230865 -1.2461096048355103e-05 -2.398155629634857e-06 0.0 0.0 0.0 0.0
0.031 0.9945863485336304 -0.07568265497684479 2.821069210767746e-05 -1.6510486602783203e-05 0.0 0.0 0.0 0.0
0.032 0.9936387538909912 -0.0780525878071785 5.379319190979004e-05 -1.0818243026733398e-05 0.0 0.0 0.0 0.0
0.033 0.993415355682373 -0.08092700690031052 -5.815178155899048e-06 -4.707835614681244e-06 0.0 0.0 0.0 0.0
0.034 0.9929161667823792 -0.08343720436096191 -3.0642375349998474e-05 -4.418008029460907e-05 0.0 0.0 0.0 0.0
0.035 0.9924169778823853 -0.08574856072664261 -2.5999732315540314e-05 -1.5662051737308502e-05 0.0 0.0 0.0 0.0
0.036 0.9919955730438232 -0.08748012036085129 -3.4817494451999664e-05 3.855116665363312e-05 0.0 0.0 0.0 0.0
0.037 0.992419421672821 -0.09094829112291336 -5.204044282436371e-05 1.6522593796253204e-05 0.0 0.0 0.0 0.0
0.038 0.9912742376327515 -0.09275621175765991 1.210719347000122e-07 8.516944944858551e-06 0.0 0.0 0.0 0.0
0.039 0.9910743832588196 -0.09515424072742462 -6.685033440589905e-06 2.2170133888721466e-05 0.0 0.0 0.0 0.0
0.04 0.9911313652992249 -0.09755822271108627 1.7598271369934082e-05 9.376555681228638e-06 0.0 0.0 0.0 0.0
0.041 0.990576446056366 -0.09970241785049438 -3.0839815735816956e-05 1.787859946489334e-05 0.0 0.0 0.0 0.0
0.042 0.9905024170875549 -0.10234354436397552 3.443285822868347e-05 2.9616057872772217e-06 0.0 0.0 0.0 0.0
0.043 0.9890702962875366 -0.10423865914344788 -4.259590059518814e-05 2.020038664340973e-06 0.0 0.0 0.0 0.0
0.044 0.9896267056465149 -0.10769765824079514 6.408430635929108e-06 -4.120916128158569e-05 0.0 0.0 0.0 0.0
0.045 0.9883720278739929 -0.10865824669599533 4.555657505989075e-05 6.495043635368347e-06 0.0 0.0 0.0 0.0
0.046 0.9869754314422607 -0.11128803342580795 -1.645553857088089e-05 5.081295967102051e-06 0.0 0.0 0.0 0.0
0.047 0.9875542521476746 -0.1142907664179802 4.306435585021973e-06 -8.990056812763214e-06 0.0 0.0 0.0 0.0
0.048 0.9874112010002136 -0.11694185435771942 2.2472813725471497e-06 -2.5492161512374878e-05 0.0 0.0 0.0 0.0
0.049 0.9865905046463013 -0.11820636689662933 -1.8540769815444946e-05 1.2753531336784363e-05 0.0 0.0 0.0 0.0
0.05 0.9858325719833374 -0.12106435745954514 4.827044904232025e-05 1.9781291484832764e-06 0.0 0.0 0.0 0.0
0.051 0.9854152798652649 -0.12344523519277573 -5.9837475419044495e-06 1.1224299669265747e-05 0.0 0.0 0.0 0.0
0.052 0.9842863082885742 -0.1251714676618576 6.3516199588775635e-06 -8.014030754566193e-06 0.0 0.0 0.0 0.0
0.053 0.9840906858444214 -0.1276465654373169 -3.0836090445518494e-06 2.2629275918006897e-05 0.0 0.0 0.0 0.0
0.054 0.9837036728858948 -0.12961645424365997 4.035141319036484e-05 1.920107752084732e-05 0.0 0.0 0.0 0.0
0.055 0.9831825494766235 -0.13229799270629883 5.803164094686508e-05 -4.291534423828125e-06 0.0 0.0 0.0 0.0
0.056 0.9822789430618286 -0.1346622109413147 -2.3344531655311584e-05 1.5049241483211517e-05 0.0 0.0 0.0 0.0
0.057 0.9825647473335266 -0.1365898847579956 4.141777753829956e-05 -4.26415354013443e-05 0.0 0.0 0.0 0.0
0.058 0.9811067581176758 -0.1386478990316391 0.00011964328587055206 6.514601409435272e-06 0.0 0.0 0.0 0.0
0.059 0.9800474047660828 -0.14067108929157257 -1.0887160897254944e-05 -2.3427419364452362e-05 0.0 0.0 0.0 0.0
0.06 0.9805427193641663 -0.14410918951034546 -1.556146889925003e-05 1.5369616448879242e-05 0.0 0.0 0.0 0.0
0.061 0.9795039296150208 -0.14490357041358948 -1.1591240763664246e-05 6.621703505516052e-06 0.0 0.0 0.0 0.0
0.062 0.979278564453125 -0.1476309597492218 -1.1805444955825806e-05 4.081055521965027e-06 0.0 0.0 0.0 0.0
0.063 0.978374719619751 -0.1498846560716629 3.14321368932724e-06 1.944601535797119e-05 0.0 0.0 0.0 0.0
0.064 0.976972758769989 -0.1518123745918274 -3.718771040439606e-05 -2.165883779525757e-05 0.0 0.0 0.0 0.0
0.065 0.9775192737579346 -0.15430201590061188 1.1042691767215729e-05 -5.449354648590088e-05 0.0 0.0 0.0 0.0
0.066 0.9761667847633362 -0.1562405526638031 -2.1811574697494507e-06 -1.7696991562843323e-05 0.0 0.0 0.0 0.0
0.067 0.9756335616111755 -0.15855100750923157 1.1013820767402649e-05 -2.5255605578422546e-05 0.0 0.0 0.0 0.0
0.068 0.9756297469139099 -0.1604136973619461 -4.197750240564346e-05 -3.0730850994586945e-05 0.0 0.0 0.0 0.0
0.069 0.9733556509017944 -0.16251608729362488 1.8958933651447296e-05 3.631319850683212e-05 0.0 0.0 0.0 0.0
0.07 0.9742158651351929 -0.16588027775287628 -1.8483959138393402e-05 3.345310688018799e-06 0.0 0.0 0.0 0.0
0.071 0.9734336137771606 -0.16740213334560394 -4.293210804462433e-05 -1.4254823327064514e-05 0.0 0.0 0.0 0.0
0.072 0.9722738862037659 -0.16941119730472565 1.1548399925231934e-07 5.315989255905151e-06 0.0 0.0 0.0 0.0
0.073 0.9716923236846924 -0.17152158915996552 -2.6866793632507324e-05 4.3674372136592865e-05 0.0 0.0 0.0 0.0
0.074 0.9711611270904541 -0.17407116293907166 -3.715790808200836e-05 7.5446441769599915e-06 0.0 0.0 0.0 0.0
0.075 0.9705483317375183 -0.17628636956214905 -1.4957040548324585e-06 -1.4757737517356873e-05 0.0 0.0 0.0 0.0
0.076 0.9684311747550964 -0.17877216637134552 -2.8021633625030518e-05 -2.51084566116333e-06 0.0 0.0 0.0 0.0
0.077 0.9689601063728333 -0.18033531308174133 1.611188054084778e-05 3.639794886112213e-05 0.0 0.0 0.0 0.0
0.078 0.9683766961097717 -0.18256834149360657 1.21239572763443e-05 9.931623935699463e-06 0.0 0.0 0.0 0.0
0.079 0.9673264026641846 -0.1851484626531601 2.984423190355301e-05 1.4857389032840729e-05 0.0 0.0 0.0 0.0
0.08 0.9673025012016296 -0.18791499733924866 -1.9684433937072754e-05 4.929583519697189e-05 0.0 0.0 0.0 0.0
0.081 0.9662065505981445 -0.1885482370853424 -2.2322870790958405e-05 3.5259872674942017e-05 0.0 0.0 0.0 0.0
0.082 0.965211033821106 -0.19028498232364655 4.083942621946335e-05 2.736784517765045e-05 0.0 0.0 0.0 0.0
0.083 0.964288055896759 -0.19333988428115845 -2.184789627790451e-05 3.1560659408569336e-05 0.0 0.0 0.0 0.0
0.084 0.9629802703857422 -0.1955605447292328 -1.247413456439972e-05 -3.617722541093826e-05 0.0 0.0 0.0 0.0
0.085 0.9623544216156006 -0.19685044884681702 8.029770106077194e-05 1.1242926120758057e-05 0.0 0.0 0.0 0.0
0.086 0.9621303081512451 -0.20040331780910492 -4.794448614120483e-06 -1.208484172821045e-05 0.0 0.0 0.0 0.0
0.087 0.9613657593727112 -0.20195062458515167 -1.9213184714317322e-05 -2.8891488909721375e-05 0.0 0.0 0.0 0.0
0.088 0.9614133238792419 -0.204348623752594 3.250688314437866e-05 2.9534101486206055e-05 0.0 0.0 0.0 0.0
0.089 0.9593326449394226 -0.20610833168029785 -4.441943019628525e-05 -3.7143006920814514e-05 0.0 0.0 0.0 0.0
0.09 0.9594602584838867 -0.20769287645816803 -4.10471111536026e-05 1.817941665649414e-06 0.0 0.0 0.0 0.0
0.091 0.9585436582565308 -0.20957306027412415 -2.174079418182373e-05 5.121342837810516e-06 0.0 0.0 0.0 0.0
0.092 0.9572450518608093 -0.21062810719013214 -4.4343993067741394e-05 -4.3686479330062866e-05 0.0 0.0 0.0 0.0
0.093 0.9561758041381836 -0.2129681408405304 8.219853043556213e-06 -4.87547367811203e-06 0.0 0.0 0.0 0.0
0.094 0.9560728669166565 -0.2164391130208969 4.227925091981888e-05 -5.060900002717972e-05 0.0 0.0 0.0 0.0
0.095 0.954304039478302 -0.21721112728118896 -2.5171786546707153e-05 2.465955913066864e-05 0.0 0.0 0.0 0.0
0.096 0.9533012509346008 -0.21971051394939423 1.86823308467865e-05 3.2388605177402496e-05 0.0 0.0 0.0 0.0
0.097 0.953703761100769 -0.22196561098098755 3.0294060707092285e-05 -3.533903509378433e-05 0.0 0.0 0.0 0.0
0.098 0.9522498846054077 -0.22437068819999695 1.1403113603591919e-05 1.2589618563652039e-05 0.0 0.0 0.0 0.0
0.099 0.9518300294876099 -0.22560818493366241 -2.3259781301021576e-05 3.392249345779419e-05 0.0 0.0 0.0 0.0
0.1 0.9518420100212097 -0.22728368639945984 -1.1565163731575012e-05 1.7415732145309448e-07 0.0 0.0 0.0 0.0
0.101 0.9502661228179932 -0.22933150827884674 -6.7837536334991455e-06 -6.062909960746765e-06 0.0 0.0 0.0 0.0
0.102 0.9491128325462341 -0.2312251329421997 -3.1645409762859344e-05 1.7229467630386353e-05 0.0 0.0 0.0 0.0
0.103 0.9484509229660034 -0.233517125248909 -3.6084093153476715e-05 3.763008862733841e-05 0.0 0.0 0.0 0.0
0.104 0.9472819566726685 -0.23506370186805725 -3.304239362478256e-05 1.9278377294540405e-05 0.0 0.0 0.0 0.0
0.105 0.9468156695365906 -0.2374677211046219 -2.1062791347503662e-05 -1.1523254215717316e-05 0.0 0.0 0.0 0.0
0.106 0.9461872577667236 -0.23921102285385132 2.9717572033405304e-05 2.008676528930664e-05 0.0 0.0 0.0 0.0
0.107 0.9453437328338623 -0.24098151922225952 -3.050733357667923e-05 -1.188088208436966e-05 0.0 0.0 0.0 0.0
0.108 0.9452634453773499 -0.24238891899585724 -8.663162589073181e-06 -9.6810981631279e-06 0.0 0.0 0.0 0.0
0.109 0.9427876472473145 -0.24472323060035706 1.8225982785224915e-06 -6.28642737865448e-07 0.0 0.0 0.0 0.0
0.11 0.9425448775291443 -0.2472711205482483 -1.606624573469162e-05 -1.1187046766281128e-05 0.0 0.0 0.0 0.0
0.111 0.9420595765113831 -0.2484496533870697 1.6996636986732483e-05 -7.987022399902344e-06 0.0 0.0 0.0 0.0
0.112 0.9415677189826965 -0.25031810998916626 -1.2959353625774384e-05 -3.936421126127243e-05 0.0 0.0 0.0 0.0
0.113 0.9396205544471741 -0.25218459963798523 1.7412938177585602e-05 9.50787216424942e-06 0.0 0.0 0.0 0.0
0.114 0.9399155378341675 -0.2531619668006897 2.7020461857318878e-05 4.1581690311431885e-05 0.0 0.0 0.0 0.0
0.115 0.9391145706176758 -0.25560715794563293 -5.1157549023628235e-06 -4.591420292854309e-05 0.0 0.0 0.0 0.0
0.116 0.9368372559547424 -0.2575738728046417 5.541369318962097e-06 -3.9581209421157837e-07 0.0 0.0 0.0 0.0
0.117 0.9365846514701843 -0.25923067331314087 -4.464574158191681e-05 4.285573959350586e-05 0.0 0.0 0.0 0.0
0.118 0.9369627833366394 -0.2619551420211792 4.2300671339035034e-05 -7.618218660354614e-07 0.0 0.0 0.0 0.0
0.119 0.9346450567245483 -0.2641579508781433 1.078099012374878e-05 -2.5612302124500275e-05 0.0 0.0 0.0 0.0
0.12 0.9333394169807434 -0.2644694745540619 3.1560659408569336e-05 -4.929490387439728e-06 0.0 0.0 0.0 0.0
0.121 0.9323818683624268 -0.26655012369155884 -5.573965609073639e-06 4.1406601667404175e-06 0.0 0.0 0.0 0.0
0.122 0.933365523815155 -0.2695215344429016 -1.2190081179141998e-05 -2.9520131647586823e-05 0.0 0.0 0.0 0.0
0.123 0.9318023920059204 -0.2705498933792114 -5.786959081888199e-05 -1.5090219676494598e-05 0.0 0.0 0.0 0.0
0.124 0.931148886680603 -0.27250155806541443 -2.2717751562595367e-05 3.6275945603847504e-05 0.0 0.0 0.0 0.0
0.125 0.9298362731933594 -0.27405399084091187 3.0547380447387695e-06 4.1398219764232635e-05 0.0 0.0 0.0 0.0
0.126 0.9299606084823608 -0.276919960975647 -4.181917756795883e-05 -1.6038306057453156e-05 0.0 0.0 0.0 0.0
0.127 0.9286108613014221 -0.2780008614063263 4.596821963787079e-05 1.8300488591194153e-06 0.0 0.0 0.0 0.0
0.128 0.9280967116355896 -0.2798561155796051 -3.3695250749588013e-06 3.818422555923462e-07 0.0 0.0 0.0 0.0
0.129 0.9257261753082275 -0.2822383940219879 9.96515154838562e-07 -3.626476973295212e-05 0.0 0.0 0.0 0.0
0.13 0.9263825416564941 -0.2838938534259796 2.1218322217464447e-05 6.733834743499756e-05 0.0 0.0 0.0 0.0
0.131 0.9236732721328735 -0.28452980518341064 -2.962350845336914e-05 1.9717030227184296e-05 0.0 0.0 0.0 0.0
0.132 0.9242478609085083 -0.2863391935825348 -2.2813677787780762e-05 -3.688223659992218e-05 0.0 0.0 0.0 0.0
0.133 0.9218798279762268 -0.2887674570083618 4.618987441062927e-05 -1.8407590687274933e-05 0.0 0.0 0.0 0.0
0.134 0.9223018288612366 -0.28973588347435 1.5642493963241577e-05 3.777444362640381e-05 0.0 0.0 0.0 0.0
0.135 0.9202742576599121 -0.29233548045158386 -4.032999277114868e-05 -1.3190321624279022e-05 0.0 0.0 0.0 0.0
0.136 0.9214431643486023 -0.29408174753189087 -6.561167538166046e-06 5.143880844116211e-05 0.0 0.0 0.0 0.0
0.137 0.9188152551651001 -0.2951084077358246 1.9643455743789673e-05 6.402842700481415e-06 0.0 0.0 0.0 0.0
0.138 0.9198009371757507 -0.29800450801849365 9.863637387752533e-06 2.7494505047798157e-05 0.0 0.0 0.0 0.0
0.139 0.9167964458465576 -0.2986947298049927 7.572583854198456e-06 -2.7305446565151215e-05 0.0 0.0 0.0 0.0
0.14 0.9176122546195984 -0.3004568815231323 -5.734432488679886e-05 7.818546146154404e-05 0.0 0.0 0.0 0.0
0.141 0.9158941507339478 -0.3119422197341919 -1.375935971736908e-05 3.3266842365264893e-06 0.0 0.0 0.0 0.0
0.142 0.915386974811554 -0.31427261233329773 2.7018599212169647e-05 9.006820619106293e-06 0.0 0.0 0.0 0.0
0.143 0.9141576886177063 -0.31608763337135315 2.0605511963367462e-05 -1.1703930795192719e-05 0.0 0.0 0.0 0.0
0.144 0.913308322429657 -0.31843820214271545 -1.608673483133316e-05 1.3170763850212097e-05 0.0 0.0 0.0 0.0
0.145 0.9121832251548767 -0.3199233412742615 -1.428462564945221e-05 3.080815076828003e-06 0.0 0.0 0.0 0.0
0.146 0.9106602072715759 -0.32138410210609436 -2.4813227355480194e-05 4.606414586305618e-05 0.0 0.0 0.0 0.0
0.147 0.909553050994873 -0.32319700717926025 1.3583339750766754e-05 -4.360917955636978e-05 0.0 0.0 0.0 0.0
0.148 0.9088721871376038 -0.3250088691711426 -1.5688128769397736e-05 2.375524491071701e-05 0.0 0.0 0.0 0.0
0.149 0.9080718755722046 -0.32690054178237915 2.68593430519104e-06 2.1960586309432983e-06 0.0 0.0 0.0 0.0
0.15 0.9069582223892212 -0.32887589931488037 7.086433470249176e-06 1.794658601284027e-06 0.0 0.0 0.0 0.0
0.151 0.9056609272956848 -0.3296944797039032 3.073364496231079e-07 2.0470470190048218e-06 0.0 0.0 0.0 0.0
0.152 0.9050840139389038 -0.33169084787368774 -3.0749477446079254e-05 8.181668817996979e-06 0.0 0.0 0.0 0.0
0.153 0.9035888910293579 -0.33404541015625 -3.9655715227127075e-06 2.437550574541092e-05 0.0 0.0 0.0 0.0
0.154 0.9027097225189209 -0.3354027569293976 8.905306458473206e-06 -9.471550583839417e-06 0.0 0.0 0.0 0.0
0.155 0.9017897844314575 -0.3375154137611389 -2.957601100206375e-05 -1.5152618288993835e-05 0.0 0.0 0.0 0.0
0.156 0.900698721408844 -0.3399949371814728 -6.06197863817215e-06 -3.017392009496689e-05 0.0 0.0 0.0 0.0
0.157 0.8993620872497559 -0.34182125329971313 1.7745420336723328e-05 2.032984048128128e-05 0.0 0.0 0.0 0.0
0.158 0.8987815976142883 -0.34281229972839355 1.459755003452301e-05 3.158673644065857e-05 0.0 0.0 0.0 0.0
0.159 0.8974065184593201 -0.3439238667488098 3.024376928806305e-05 2.6170164346694946e-06 0.0 0.0 0.0 0.0
0.16 0.8958733677864075 -0.3464404344558716 1.9346363842487335e-05 -3.242120146751404e-05 0.0 0.0 0.0 0.0
0.161 0.895217776298523 -0.34864771366119385 -2.04574316740036e-05 2.9589049518108368e-05 0.0 0.0 0.0 0.0
0.162 0.8948386311531067 -0.3501749336719513 -1.5517696738243103e-05 -1.3848766684532166e-06 0.0 0.0 0.0 0.0
0.163 0.8929733633995056 -0.35110175609588623 1.1042691767215729e-05 -2.2164545953273773e-05 0.0 0.0 0.0 0.0
0.164 0.8918697834014893 -0.35295575857162476 1.817755401134491e-05 7.017515599727631e-06 0.0 0.0 0.0 0.0
0.165 0.8913451433181763 -0.3540213406085968 3.4887343645095825e-06 1.9222497940063477e-06 0.0 0.0 0.0 0.0
0.166 0.8902838826179504 -0.35648488998413086 -4.646647721529007e-05 1.9039958715438843e-05 0.0 0.0 0.0 0.0
0.167 0.8884639143943787 -0.3578750491142273 -3.343448042869568e-06 -6.860122084617615e-06 0.0 0.0 0.0 0.0
0.168 0.8878167271614075 -0.35940292477607727 1.7208978533744812e-05 -1.2063421308994293e-05 0.0 0.0 0.0 0.0
0.169 0.886946976184845 -0.36234861612319946 1.01504847407341e-05 -5.650334060192108e-06 0.0 0.0 0.0 0.0
0.17 0.8851071000099182 -0.3643593490123749 -1.0953284800052643e-05 1.5526078641414642e-05 0.0 0.0 0.0 0.0
0.171 0.8845525979995728 -0.36507636308670044 1.5032477676868439e-05 4.1583552956581116e-06 0.0 0.0 0.0 0.0
0.172 0.883047342300415 -0.3660493493080139 1.1539086699485779e-05 -2.6710331439971924e-05 0.0 0.0 0.0 0.0
0.173 0.8823572993278503 -0.36891019344329834 -3.435742110013962e-05 -1.0989606380462646e-07 0.0 0.0 0.0 0.0
0.174 0.8819797039031982 -0.3697676956653595 2.7710571885108948e-05 1.0389834642410278e-05 0.0 0.0 0.0 0.0
0.175 0.8801278471946716 -0.3712359368801117 1.6825273633003235e-05 -4.3120235204696655e-07 0.0 0.0 0.0 0.0
0.176 0.8792529702186584 -0.3728594481945038 2.2714026272296906e-05 1.0105781257152557e-05 0.0 0.0 0.0 0.0
0.177 0.8783381581306458 -0.37444114685058594 2.1721236407756805e-05 1.4089047908782959e-05 0.0 0.0 0.0 0.0
0.178 0.8766617178916931 -0.37736767530441284 -3.246217966079712e-05 8.437782526016235e-07 0.0 0.0 0.0 0.0
0.179 0.8759962320327759 -0.377524733543396 2.2481195628643036e-05 1.6806647181510925e-05 0.0 0.0 0.0 0.0
0.18 0.8747836351394653 -0.37955328822135925 3.160256892442703e-05 -4.6193599700927734e-07 0.0 0.0 0.0 0.0
0.181 0.8733310103416443 -0.3811192214488983 -1.1026859283447266e-06 -2.3513101041316986e-05 0.0 0.0 0.0 0.0
0.182 0.872477650642395 -0.3824802339076996 4.544854164123535e-05 -9.17632132768631e-06 0.0 0.0 0.0 0.0
0.183 0.8715152740478516 -0.3852103650569916 5.122274160385132e-08 1.602526754140854e-05 0.0 0.0 0.0 0.0
0.184 0.8699217438697815 -0.38587963581085205 1.4017336070537567e-05 2.4617649614810944e-05 0.0 0.0 0.0 0.0
0.185 0.8695134520530701 -0.3879784047603607 -1.7988495528697968e-05 -3.703031688928604e-05 0.0 0.0 0.0 0.0
