!Created with skrf (http://scikit-rf.org).
# GHz S RI R 50.0 
!freq ReS11 ImS11 ReS21 ImS21 ReS12 ImS12 ReS22 ImS22
0.001 -0.6811908483505249 -0.002709517255425453 1.1529773473739624e-05 -5.40073961019516e-05 0.0 0.0 0.0 0.0
0.002 -0.6827641129493713 -0.0019024191424250603 -3.2121315598487854e-05 2.304092049598694e-06 0.0 0.0 0.0 0.0
0.003 -0.683272123336792 -0.0021243933588266373 6.695277988910675e-06 1.1770986020565033e-05 0.0 0.0 0.0 0.0
0.004 -0.6841800212860107 -0.0011083083227276802 3.75453382730484e-05 -1.1630356311798096e-05 0.0 0.0 0.0 0.0
0.005 -0.684455931186676 -0.0012482861056923866 -7.418636232614517e-05 2.2063031792640686e-05 0.0 0.0 0.0 0.0
0.006 -0.6843549609184265 -0.00039222557097673416 2.9567629098892212e-05 1.657940447330475e-05 0.0 0.0 0.0 0.0
0.007 -0.6847853064537048 3.87849286198616e-05 -3.9548613131046295e-05 2.1020881831645966e-05 0.0 0.0 0.0 0.0
0.008 -0.6846603155136108 -5.2138231694698334e-05 -2.423767000436783e-05 -8.5439532995224e-06 0.0 0.0 0.0 0.0
0.009 -0.6848227977752686 0.0002937614917755127 2.6090070605278015e-05 4.286877810955048e-06 0.0 0.0 0.0 0.0
0.01 -0.6860470175743103 0.00196079071611166 -2.6458874344825745e-06 3.1589530408382416e-05 0.0 0.0 0.0 0.0
0.011 -0.6861333250999451 0.0020740358158946037 -2.4706125259399414e-05 -4.556030035018921e-06 0.0 0.0 0.0 0.0
0.012 -0.6861588954925537 0.0028174100443720818 -2.1358951926231384e-05 -2.843327820301056e-06 0.0 0.0 0.0 0.0
0.013 -0.686227560043335 0.0028373990207910538 2.4596229195594788e-06 2.457480877637863e-05 0.0 0.0 0.0 0.0
0.014 -0.6870276927947998 0.003366103395819664 2.201460301876068e-05 -2.6249326765537262e-05 0.0 0.0 0.0 0.0
0.015 -0.6865915060043335 0.003952833823859692 -1.5247613191604614e-05 3.840867429971695e-05 0.0 0.0 0.0 0.0
0.016 -0.6873906254768372 0.004724028520286083 -1.0720454156398773e-05 -3.8035213947296143e-06 0.0 0.0 0.0 0.0
0.017 -0.687455415725708 0.004916843958199024 4.612840712070465e-06 -5.418434739112854e-06 0.0 0.0 0.0 0.0
0.018 -0.687425971031189 0.005362434312701225 4.320405423641205e-06 -1.566670835018158e-05 0.0 0.0 0.0 0.0
0.019 -0.6876726150512695 0.0054970309138298035 3.155972808599472e-05 1.1617317795753479e-05 0.0 0.0 0.0 0.0
0.02 -0.6878575086593628 0.006340129300951958 -1.4500692486763e-05 2.5763176381587982e-05 0.0 0.0 0.0 0.0
0.021 -0.6873303055763245 0.0069684553891420364 -2.67690047621727e-05 -3.3248215913772583e-07 0.0 0.0 0.0 0.0
0.022 -0.6886083483695984 0.007237249054014683 -1.177377998828888e-05 4.452001303434372e-05 0.0 0.0 0.0 0.0
0.023 -0.6883073449134827 0.007601599209010601 6.604939699172974e-06 2.8325244784355164e-05 0.0 0.0 0.0 0.0
0.024 -0.6886131167411804 0.007923128083348274 3.8195401430130005e-05 1.765415072441101e-05 0.0 0.0 0.0 0.0
0.025 -0.689032256603241 0.008966317400336266 -2.3200176656246185e-05 -3.70759516954422e-06 0.0 0.0 0.0 0.0
0.026 -0.6888611316680908 0.008965980261564255 1.2052245438098907e-05 6.291083991527557e-06 0.0 0.0 0.0 0.0
0.027 -0.6894547939300537 0.009624417871236801 -1.0658986866474152e-05 -2.6328489184379578e-05 0.0 0.0 0.0 0.0
0.028 -0.6890785694122314 0.010182780213654041 1.2194737792015076e-05 6.682798266410828e-05 0.0 0.0 0.0 0.0
0.029 -0.6901800036430359 0.010659380815923214 9.94466245174408e-06 -2.7049332857131958e-05 0.0 0.0 0.0 0.0
0.03 -0.6904786825180054 0.010940361768007278 2.148933708667755e-05 6.916932761669159e-06 0.0 0.0 0.0 0.0
0.031 -0.6908544301986694 0.011726311407983303 -1.73887237906456e-05 -4.106946289539337e-05 0.0 0.0 0.0 0.0
0.032 -0.6911219358444214 0.011970112100243568 1.4817342162132263e-05 2.5299377739429474e-05 0.0 0.0 0.0 0.0
0.033 -0.6905349493026733 0.012639430351555347 8.097849786281586e-06 2.3595057427883148e-05 0.0 0.0 0.0 0.0
0.034 -0.6917005181312561 0.013435267843306065 -5.857087671756744e-06 -7.889233529567719e-06 0.0 0.0 0.0 0.0
0.035 -0.6925123929977417 0.013943057507276535 -2.7203932404518127e-05 -5.778297781944275e-05 0.0 0.0 0.0 0.0
0.036 -0.6923118233680725 0.014261158183217049 -5.168840289115906e-06 -4.678033292293549e-06 0.0 0.0 0.0 0.0
0.037 -0.6929656267166138 0.014914238825440407 4.855915904045105e-05 -6.7148357629776e-07 0.0 0.0 0.0 0.0
0.038 -0.6930397748947144 0.014963829889893532 6.8088993430137634e-06 -5.3532421588897705e-06 0.0 0.0 0.0 0.0
0.039 -0.6930007934570312 0.015430842526257038 2.741161733865738e-05 -4.16487455368042e-06 0.0 0.0 0.0 0.0
0.04 -0.6942509412765503 0.016502097249031067 3.3223070204257965e-05 -7.528811693191528e-06 0.0 0.0 0.0 0.0
0.041 -0.6944014430046082 0.017051083967089653 1.767929643392563e-05 3.401096910238266e-05 0.0 0.0 0.0 0.0
0.042 -0.6950723528862 0.017401155084371567 2.0983628928661346e-05 4.114583134651184e-05 0.0 0.0 0.0 0.0
0.043 -0.6949970126152039 0.018213169649243355 2.460833638906479e-05 7.6089054346084595e-06 0.0 0.0 0.0 0.0
0.044 -0.6952916979789734 0.019210845232009888 3.97954136133194e-06 1.1387281119823456e-05 0.0 0.0 0.0 0.0
0.045 -0.6953962445259094 0.019058043137192726 -9.764917194843292e-06 3.6444514989852905e-05 0.0 0.0 0.0 0.0
0.046 -0.6965503096580505 0.01914561167359352 -2.0305626094341278e-05 2.471078187227249e-05 0.0 0.0 0.0 0.0
0.047 -0.6969655156135559 0.01996964029967785 -2.5472603738307953e-05 1.0915100574493408e-06 0.0 0.0 0.0 0.0
0.048 -0.6975302696228027 0.020732836797833443 3.7923455238342285e-06 1.7452985048294067e-06 0.0 0.0 0.0 0.0
0.049 -0.6971595287322998 0.021433962509036064 2.5362707674503326e-05 1.157168298959732e-05 0.0 0.0 0.0 0.0
0.05 -0.6984447836875916 0.022560104727745056 -2.129003405570984e-06 -1.7478130757808685e-05 0.0 0.0 0.0 0.0
0.051 -0.6990137696266174 0.022093379870057106 8.958391845226288e-06 1.2160278856754303e-05 0.0 0.0 0.0 0.0
0.052 -0.6989457011222839 0.02246718667447567 5.774199962615967e-06 1.7610378563404083e-05 0.0 0.0 0.0 0.0
0.053 -0.6998422741889954 0.0239644106477499 -3.0186958611011505e-05 3.0081719160079956e-07 0.0 0.0 0.0 0.0
0.054 -0.7006375193595886 0.024362362921237946 2.5743618607521057e-05 -4.005245864391327e-05 0.0 0.0 0.0 0.0
0.055 -0.70046466588974 0.025043383240699768 2.1550804376602173e-06 -1.668184995651245e-05 0.0 0.0 0.0 0.0
0.056 -0.7017170786857605 0.02504323050379753 -5.283672362565994e-05 -1.2626871466636658e-05 0.0 0.0 0.0 0.0
0.057 -0.7012895345687866 0.026100225746631622 -1.2684613466262817e-05 -1.547951251268387e-05 0.0 0.0 0.0 0.0
0.058 -0.7019128203392029 0.026762569323182106 8.31354409456253e-05 -7.409323006868362e-05 0.0 0.0 0.0 0.0
0.059 -0.7030165791511536 0.027346232905983925 1.4494173228740692e-05 5.302019417285919e-06 0.0 0.0 0.0 0.0
0.06 -0.7035264372825623 0.027909355238080025 2.8463080525398254e-05 -3.193877637386322e-05 0.0 0.0 0.0 0.0
0.061 -0.7039589881896973 0.028213657438755035 -2.6986002922058105e-05 -2.0839273929595947e-05 0.0 0.0 0.0 0.0
0.062 -0.7044728398323059 0.02955605462193489 -1.4886260032653809e-05 -4.45730984210968e-06 0.0 0.0 0.0 0.0
0.063 -0.7049937844276428 0.030015550553798676 -6.337277591228485e-05 -1.6942620277404785e-05 0.0 0.0 0.0 0.0
0.064 -0.7054927945137024 0.030796866863965988 1.6281381249427795e-05 3.514811396598816e-06 0.0 0.0 0.0 0.0
0.065 -0.7059927582740784 0.03186025470495224 -2.788100391626358e-05 -4.2943283915519714e-06 0.0 0.0 0.0 0.0
0.066 -0.707037091255188 0.03245452046394348 -2.3521482944488525e-05 1.77798792719841e-05 0.0 0.0 0.0 0.0
0.067 -0.7069838047027588 0.032536424696445465 -4.6201981604099274e-05 5.7462602853775024e-06 0.0 0.0 0.0 0.0
0.068 -0.7081148624420166 0.03381615877151489 -3.778841346502304e-05 -1.014024019241333e-05 0.0 0.0 0.0 0.0
0.069 -0.7085863351821899 0.03363519534468651 -2.34358012676239e-05 1.6788020730018616e-05 0.0 0.0 0.0 0.0
0.07 -0.7088389992713928 0.034967876970767975 -2.2044405341148376e-06 5.676969885826111e-05 0.0 0.0 0.0 0.0
0.071 -0.7103896737098694 0.0365586131811142 2.5724060833454132e-05 -2.9832124710083008e-05 0.0 0.0 0.0 0.0
0.072 -0.7111703157424927 0.036392904818058014 1.170765608549118e-05 4.353467375040054e-05 0.0 0.0 0.0 0.0
0.073 -0.7110738754272461 0.03679922968149185 -1.3899989426136017e-05 4.886649549007416e-05 0.0 0.0 0.0 0.0
0.074 -0.7119073271751404 0.037168342620134354 1.5187077224254608e-05 -1.5350058674812317e-05 0.0 0.0 0.0 0.0
0.075 -0.7120728492736816 0.03842800483107567 -1.614633947610855e-05 5.903095006942749e-05 0.0 0.0 0.0 0.0
0.076 -0.7132371068000793 0.039920657873153687 1.0721385478973389e-05 2.2508203983306885e-05 0.0 0.0 0.0 0.0
0.077 -0.7135165929794312 0.0400746613740921 4.856754094362259e-05 -1.77677720785141e-05 0.0 0.0 0.0 0.0
0.078 -0.7140552997589111 0.04079313576221466 1.7206184566020966e-05 -3.121327608823776e-05 0.0 0.0 0.0 0.0
0.079 -0.7147819995880127 0.0418274812400341 -6.349477916955948e-05 2.1163374185562134e-05 0.0 0.0 0.0 0.0
0.08 -0.7154969573020935 0.04287683218717575 1.0943040251731873e-06 7.20098614692688e-06 0.0 0.0 0.0 0.0
0.081 -0.716645359992981 0.04301867261528969 -5.12879341840744e-06 1.1589378118515015e-05 0.0 0.0 0.0 0.0
0.082 -0.7180794477462769 0.04490099474787712 5.0817616283893585e-05 2.096220850944519e-05 0.0 0.0 0.0 0.0
0.083 -0.7172988057136536 0.04505987465381622 3.6580488085746765e-05 -3.958866000175476e-05 0.0 0.0 0.0 0.0
0.084 -0.718756914138794 0.046709343791007996 -4.592444747686386e-05 1.3192184269428253e-05 0.0 0.0 0.0 0.0
0.085 -0.719577968120575 0.04714032635092735 5.5060721933841705e-05 1.2396834790706635e-05 0.0 0.0 0.0 0.0
0.086 -0.7201128602027893 0.04835335537791252 -5.541369318962097e-06 1.2055039405822754e-05 0.0 0.0 0.0 0.0
0.087 -0.7205830216407776 0.048582326620817184 4.9591995775699615e-05 -6.7196786403656e-05 0.0 0.0 0.0 0.0
0.088 -0.722011148929596 0.04963214695453644 2.786051481962204e-05 -2.869684249162674e-05 0.0 0.0 0.0 0.0
0.089 -0.722419261932373 0.05089088901877403 -1.6734935343265533e-05 -1.0720454156398773e-05 0.0 0.0 0.0 0.0
0.09 -0.7233372926712036 0.051246367394924164 -2.571847289800644e-05 1.5254132449626923e-05 0.0 0.0 0.0 0.0
0.091 -0.7241531014442444 0.052739955484867096 -2.1453015506267548e-05 -2.760067582130432e-05 0.0 0.0 0.0 0.0
0.092 -0.7243853211402893 0.05336436256766319 7.545575499534607e-06 1.332256942987442e-05 0.0 0.0 0.0 0.0
0.093 -0.7255852222442627 0.05411423742771149 -4.096422344446182e-05 -3.077089786529541e-06 0.0 0.0 0.0 0.0
0.094 -0.7268020510673523 0.05542116239666939 -6.311014294624329e-05 -1.6507692635059357e-05 0.0 0.0 0.0 0.0
0.095 -0.7274792790412903 0.05654600262641907 2.2288411855697632e-05 -2.880580723285675e-05 0.0 0.0 0.0 0.0
0.096 -0.7272075414657593 0.05758519843220711 -2.504885196685791e-05 -5.262531340122223e-05 0.0 0.0 0.0 0.0
0.097 -0.7287684679031372 0.0586191862821579 -3.144238144159317e-05 -3.6207959055900574e-05 0.0 0.0 0.0 0.0
0.098 -0.729019820690155 0.05951537564396858 3.471970558166504e-05 5.6412070989608765e-05 0.0 0.0 0.0 0.0
0.099 -0.7296343445777893 0.06013841554522514 -2.634432166814804e-05 -4.867091774940491e-06 0.0 0.0 0.0 0.0
0.1 -0.7314543724060059 0.062737837433815 -5.5944547057151794e-06 1.0540708899497986e-05 0.0 0.0 0.0 0.0
0.101 -0.7315276861190796 0.06239715591073036 -2.5478191673755646e-05 1.5227124094963074e-06 0.0 0.0 0.0 0.0
0.102 -0.731747031211853 0.06354878097772598 2.2897496819496155e-05 -2.5955960154533386e-05 0.0 0.0 0.0 0.0
0.103 -0.7328803539276123 0.06432737410068512 1.2194737792015076e-05 1.686345785856247e-05 0.0 0.0 0.0 0.0
0.104 -0.7332842350006104 0.06560201197862625 5.9271231293678284e-05 6.7427754402160645e-06 0.0 0.0 0.0 0.0
0.105 -0.7348526120185852 0.06618721783161163 -4.2941421270370483e-05 -2.7599744498729706e-05 0.0 0.0 0.0 0.0
0.106 -0.7358494997024536 0.06731174141168594 -5.1196664571762085e-05 3.605615347623825e-05 0.0 0.0 0.0 0.0
0.107 -0.7369011640548706 0.06900998204946518 -1.7379410564899445e-05 -6.990507245063782e-06 0.0 0.0 0.0 0.0
0.108 -0.7376815676689148 0.06935787945985794 -3.2092444598674774e-05 1.108366996049881e-05 0.0 0.0 0.0 0.0
0.109 -0.7386384606361389 0.07113444805145264 -3.445520997047424e-05 5.912035703659058e-06 0.0 0.0 0.0 0.0
0.11 -0.7388999462127686 0.07220003008842468 -7.731840014457703e-06 8.244626224040985e-05 0.0 0.0 0.0 0.0
0.111 -0.7407266497612 0.07355125993490219 9.71369445323944e-07 1.6662292182445526e-05 0.0 0.0 0.0 0.0
0.112 -0.7413159608840942 0.07492078095674515 3.3173710107803345e-06 5.516223609447479e-06 0.0 0.0 0.0 0.0
0.113 -0.7413188219070435 0.07594241946935654 2.6530586183071136e-05 1.796707510948181e-05 0.0 0.0 0.0 0.0
0.114 -0.7432422637939453 0.07724182307720184 -9.249895811080933e-06 2.7762725949287415e-05 0.0 0.0 0.0 0.0
0.115 -0.7440277338027954 0.0771946907043457 9.301118552684784e-06 7.0156529545784e-06 0.0 0.0 0.0 0.0
0.116 -0.7444424033164978 0.07910017669200897 4.4284388422966e-06 5.132518708705902e-06 0.0 0.0 0.0 0.0
0.117 -0.7455083727836609 0.0796891301870346 -5.339272320270538e-06 2.969987690448761e-05 0.0 0.0 0.0 0.0
0.118 -0.7458316087722778 0.0817546546459198 -1.8914230167865753e-05 1.4831312000751495e-05 0.0 0.0 0.0 0.0
0.119 -0.7469924092292786 0.08340489119291306 3.2170675694942474e-05 -2.1498650312423706e-05 0.0 0.0 0.0 0.0
0.12 -0.7480363845825195 0.08376066386699677 7.442478090524673e-05 3.17208468914032e-06 0.0 0.0 0.0 0.0
0.121 -0.7482324838638306 0.08542302250862122 2.73045152425766e-05 -5.675479769706726e-06 0.0 0.0 0.0 0.0
0.122 -0.7485783100128174 0.08661066740751266 -4.661455750465393e-05 -4.049111157655716e-05 0.0 0.0 0.0 0.0
0.123 -0.7496667504310608 0.08799414336681366 -8.978880941867828e-06 3.0115246772766113e-05 0.0 0.0 0.0 0.0
0.124 -0.7507340312004089 0.08858797699213028 -8.851289749145508e-06 2.6063062250614166e-05 0.0 0.0 0.0 0.0
0.125 -0.7520003914833069 0.08991151303052902 2.519693225622177e-05 -3.2461248338222504e-05 0.0 0.0 0.0 0.0
0.126 -0.7523072361946106 0.09140805900096893 9.364448487758636e-06 3.4300610423088074e-06 0.0 0.0 0.0 0.0
0.127 -0.7538074254989624 0.09345468133687973 1.5256926417350769e-05 3.9608217775821686e-05 0.0 0.0 0.0 0.0
0.128 -0.7547047138214111 0.09494547545909882 7.346551865339279e-05 2.5645829737186432e-05 0.0 0.0 0.0 0.0
0.129 -0.7560279369354248 0.09631407260894775 2.6263296604156494e-06 1.622922718524933e-05 0.0 0.0 0.0 0.0
0.13 -0.7559697031974792 0.09771087765693665 -4.2040832340717316e-05 1.3289973139762878e-06 0.0 0.0 0.0 0.0
0.131 -0.7572699189186096 0.09911690652370453 -5.168840289115906e-06 -5.2442774176597595e-06 0.0 0.0 0.0 0.0
0.132 -0.7574496269226074 0.09959575533866882 2.4539418518543243e-05 -9.950250387191772e-06 0.0 0.0 0.0 0.0
0.133 -0.757803201675415 0.10124558210372925 -9.135343134403229e-06 -9.393319487571716e-06 0.0 0.0 0.0 0.0
0.134 -0.7593686580657959 0.10252673923969269 -9.227171540260315e-05 -1.4440156519412994e-05 0.0 0.0 0.0 0.0
0.135 -0.7601416707038879 0.10444705933332443 -2.0489096641540527e-06 -1.397542655467987e-05 0.0 0.0 0.0 0.0
0.136 -0.761296808719635 0.10600925236940384 -1.6345642507076263e-05 2.2994354367256165e-06 0.0 0.0 0.0 0.0
0.137 -0.7620859146118164 0.10739896446466446 1.0885298252105713e-05 -1.917220652103424e-05 0.0 0.0 0.0 0.0
0.138 -0.7633100748062134 0.1095006987452507 1.743808388710022e-05 2.1083280444145203e-05 0.0 0.0 0.0 0.0
0.139 -0.763766348361969 0.11020047217607498 -1.2293457984924316e-07 -1.2976117432117462e-05 0.0 0.0 0.0 0.0
0.14 -0.7656808495521545 0.11255122721195221 3.521610051393509e-05 2.2592023015022278e-05 0.0 0.0 0.0 0.0
0.141 -0.7219953536987305 0.13971054553985596 -5.8300793170928955e-06 2.3727305233478546e-05 0.0 0.0 0.0 0.0
0.142 -0.722205400466919 0.14128905534744263 -2.156198024749756e-05 2.8697773814201355e-05 0.0 0.0 0.0 0.0
0.143 -0.7225430607795715 0.14277154207229614 8.497387170791626e-06 -1.3634562492370605e-06 0.0 0.0 0.0 0.0
0.144 -0.7230857610702515 0.14373177289962769 2.88989394903183e-06 1.9468367099761963e-05 0.0 0.0 0.0 0.0
0.145 -0.7239064574241638 0.14505331218242645 -1.3075768947601318e-06 -9.134411811828613e-06 0.0 0.0 0.0 0.0
0.146 -0.7241162657737732 0.14656813442707062 -6.16069883108139e-06 -3.70098277926445e-05 0.0 0.0 0.0 0.0
0.147 -0.724298357963562 0.14741387963294983 -1.9556842744350433e-05 4.0549784898757935e-06 0.0 0.0 0.0 0.0
0.148 -0.7250890731811523 0.14913253486156464 2.573244273662567e-06 5.229376256465912e-06 0.0 0.0 0.0 0.0
0.149 -0.7255045175552368 0.14970166981220245 -1.76895409822464e-05 -1.7396174371242523e-05 0.0 0.0 0.0 0.0
0.15 -0.7257480621337891 0.15127137303352356 1.862272620201111e-05 -1.1324882507324219e-06 0.0 0.0 0.0 0.0
0.151 -0.7260557413101196 0.1521352082490921 -2.059154212474823e-05 1.826602965593338e-05 0.0 0.0 0.0 0.0
0.152 -0.7263922095298767 0.15391351282596588 -1.918058842420578e-05 -3.201887011528015e-06 0.0 0.0 0.0 0.0
0.153 -0.7267330884933472 0.15479570627212524 2.8534792363643646e-05 1.30385160446167e-08 0.0 0.0 0.0 0.0
0.154 -0.727209746837616 0.1566828191280365 -1.375935971736908e-05 -2.891290932893753e-05 0.0 0.0 0.0 0.0
0.155 -0.727632462978363 0.15756773948669434 -8.291564881801605e-06 -8.575618267059326e-06 0.0 0.0 0.0 0.0
0.156 -0.7281993627548218 0.15905031561851501 1.6205012798309326e-05 2.9596500098705292e-05 0.0 0.0 0.0 0.0
0.157 -0.7283961772918701 0.15952104330062866 1.3590790331363678e-05 -1.692119985818863e-05 0.0 0.0 0.0 0.0
0.158 -0.728710412979126 0.16113132238388062 -1.996755599975586e-06 -2.7070753276348114e-05 0.0 0.0 0.0 0.0
0.159 -0.7291064858436584 0.16223368048667908 5.520880222320557e-06 4.9835070967674255e-06 0.0 0.0 0.0 0.0
0.16 -0.7291843295097351 0.16377457976341248 -4.37907874584198e-05 -2.5223009288311005e-05 0.0 0.0 0.0 0.0
0.161 -0.7298479676246643 0.16553127765655518 -1.3238750398159027e-05 -2.6360154151916504e-05 0.0 0.0 0.0 0.0
0.162 -0.7307395339012146 0.1669885367155075 3.8010068237781525e-05 2.3145228624343872e-05 0.0 0.0 0.0 0.0
0.163 -0.7305280566215515 0.1683688759803772 -1.4553777873516083e-05 -4.314258694648743e-05 0.0 0.0 0.0 0.0
0.164 -0.730996310710907 0.1690661460161209 -1.1019408702850342e-05 -1.27498060464859e-06 0.0 0.0 0.0 0.0
0.165 -0.7314791083335876 0.17061777412891388 4.5513734221458435e-06 4.040636122226715e-05 0.0 0.0 0.0 0.0
0.166 -0.7321651577949524 0.17241716384887695 -3.986060619354248e-07 4.601478576660156e-05 0.0 0.0 0.0 0.0
0.167 -0.7320350408554077 0.1730639934539795 -6.627291440963745e-06 3.1338073313236237e-05 0.0 0.0 0.0 0.0
0.168 -0.7327433228492737 0.17481347918510437 5.410052835941315e-06 -7.4729323387146e-06 0.0 0.0 0.0 0.0
0.169 -0.7332622408866882 0.17655326426029205 2.4633482098579407e-05 -8.121132850646973e-06 0.0 0.0 0.0 0.0
0.17 -0.7335165739059448 0.17706000804901123 2.1920539438724518e-05 -1.2896023690700531e-05 0.0 0.0 0.0 0.0
0.171 -0.7343236207962036 0.17868095636367798 9.530223906040192e-06 2.070050686597824e-05 0.0 0.0 0.0 0.0
0.172 -0.7342929840087891 0.18060970306396484 1.0334886610507965e-05 3.947503864765167e-05 0.0 0.0 0.0 0.0
0.173 -0.734732985496521 0.1814214289188385 2.6829540729522705e-05 -2.5124289095401764e-05 0.0 0.0 0.0 0.0
0.174 -0.7352104187011719 0.18344521522521973 1.0592862963676453e-05 4.4638291001319885e-06 0.0 0.0 0.0 0.0
0.175 -0.7355484366416931 0.18501733243465424 3.688037395477295e-06 1.2170523405075073e-05 0.0 0.0 0.0 0.0
0.176 -0.7361271977424622 0.1861584633588791 -2.4641864001750946e-05 -9.397976100444794e-06 0.0 0.0 0.0 0.0
0.177 -0.7364051938056946 0.18764108419418335 -6.62580132484436e-05 -6.780028343200684e-07 0.0 0.0 0.0 0.0
0.178 -0.7370567917823792 0.18894162774085999 3.3484771847724915e-05 1.1235475540161133e-05 0.0 0.0 0.0 0.0
0.179 -0.7370641827583313 0.19060513377189636 1.0496005415916443e-06 -5.064345896244049e-05 0.0 0.0 0.0 0.0
0.18 -0.737817645072937 0.1923150271177292 1.0190531611442566e-05 3.9303675293922424e-05 0.0 0.0 0.0 0.0
0.181 -0.7381331324577332 0.1937292367219925 -1.5767291188240051e-06 1.1686235666275024e-05 0.0 0.0 0.0 0.0
0.182 -0.7381139397621155 0.194922536611557 -8.66968184709549e-06 2.3245811462402344e-06 0.0 0.0 0.0 0.0
0.183 -0.7391669154167175 0.1968410313129425 1.2595206499099731e-05 -1.3979151844978333e-06 0.0 0.0 0.0 0.0
0.184 -0.73919677734375 0.19729730486869812 2.852547913789749e-05 3.644917160272598e-05 0.0 0.0 0.0 0.0
