!Created with skrf (http://scikit-rf.org).
# GHz S RI R 50.0 
!freq ReS11 ImS11 ReS21 ImS21 ReS12 ImS12 ReS22 ImS22
0.001 0.0422406867146492 0.0010827071964740753 4.109833389520645e-05 -3.9011240005493164e-05 0.0 0.0 0.0 0.0
0.002 0.04171687737107277 2.04574316740036e-05 3.866385668516159e-05 9.10833477973938e-06 0.0 0.0 0.0 0.0
0.003 0.04135504364967346 0.00023576710373163223 1.5988945960998535e-05 -2.4745240807533264e-06 0.0 0.0 0.0 0.0
0.004 0.04100022464990616 1.5576370060443878e-05 -1.737195998430252e-05 -1.3353303074836731e-05 0.0 0.0 0.0 0.0
0.005 0.04107020050287247 0.00011480972170829773 -2.8694048523902893e-06 -1.9064173102378845e-06 0.0 0.0 0.0 0.0
0.006 0.040990784764289856 0.00010146014392375946 -5.538575351238251e-06 -4.7869980335235596e-05 0.0 0.0 0.0 0.0
0.007 0.04065905138850212 0.0004035048186779022 2.6076100766658783e-05 -1.0964460670948029e-05 0.0 0.0 0.0 0.0
0.008 0.04074281081557274 -0.00014324486255645752 9.348616003990173e-06 -2.2456981241703033e-05 0.0 0.0 0.0 0.0
0.009 0.04069823399186134 0.00038963742554187775 -4.767347127199173e-05 -7.937662303447723e-06 0.0 0.0 0.0 0.0
0.01 0.04066460207104683 0.0005283821374177933 -3.1196512281894684e-05 -6.088055670261383e-06 0.0 0.0 0.0 0.0
0.011 0.040789682418107986 0.00010195653885602951 1.1779367923736572e-05 -1.789350062608719e-05 0.0 0.0 0.0 0.0
0.012 0.0408814437687397 0.0004585161805152893 -2.595316618680954e-05 -2.3340806365013123e-05 0.0 0.0 0.0 0.0
0.013 0.0408460795879364 0.0007513100281357765 -4.223082214593887e-05 -1.693982630968094e-05 0.0 0.0 0.0 0.0
0.014 0.040684331208467484 0.0005323756486177444 -3.749225288629532e-05 -4.289485514163971e-05 0.0 0.0 0.0 0.0
0.015 0.041153911501169205 0.0005044145509600639 -1.1873431503772736e-05 7.936730980873108e-06 0.0 0.0 0.0 0.0
0.016 0.040926311165094376 0.0005703959614038467 8.119270205497742e-06 5.48921525478363e-06 0.0 0.0 0.0 0.0
0.017 0.04089183360338211 0.0011068005114793777 1.588277518749237e-05 4.9933791160583496e-05 0.0 0.0 0.0 0.0
0.018 0.04107510671019554 0.0010552899911999702 2.0322389900684357e-05 -1.1511147022247314e-06 0.0 0.0 0.0 0.0
0.019 0.04086114466190338 0.0006526792421936989 3.6088749766349792e-06 -4.7159381210803986e-05 0.0 0.0 0.0 0.0
0.02 0.041013821959495544 0.0007645804435014725 -3.1910836696624756e-05 2.3334287106990814e-05 0.0 0.0 0.0 0.0
0.021 0.0411376953125 0.000972316600382328 4.123616963624954e-05 8.847564458847046e-08 0.0 0.0 0.0 0.0
0.022 0.04115462303161621 0.0009179944172501564 -6.5462663769721985e-06 7.14324414730072e-06 0.0 0.0 0.0 0.0
0.023 0.040961649268865585 0.000733562745153904 -1.9819475710391998e-05 -4.3179839849472046e-05 0.0 0.0 0.0 0.0
0.024 0.04109100624918938 0.0011903010308742523 -1.0575167834758759e-05 -1.2957490980625153e-05 0.0 0.0 0.0 0.0
0.025 0.04088287800550461 0.0015121176838874817 -1.0477378964424133e-06 -1.385807991027832e-05 0.0 0.0 0.0 0.0
0.026 0.04090110957622528 0.001568763516843319 1.3630837202072144e-05 2.6015564799308777e-05 0.0 0.0 0.0 0.0
0.027 0.04099537804722786 0.0012772129848599434 4.604458808898926e-06 -1.08303502202034e-05 0.0 0.0 0.0 0.0
0.028 0.041275281459093094 0.0011439714580774307 -1.7490237951278687e-06 1.4618970453739166e-05 0.0 0.0 0.0 0.0
0.029 0.04093657433986664 0.0014423169195652008 3.313086926937103e-05 -4.081800580024719e-05 0.0 0.0 0.0 0.0
0.03 0.041159529238939285 0.0012331856414675713 8.327886462211609e-06 3.598164767026901e-05 0.0 0.0 0.0 0.0
0.031 0.04125618562102318 0.0014342861250042915 -1.0569579899311066e-05 1.8398277461528778e-05 0.0 0.0 0.0 0.0
0.032 0.04080504551529884 0.001572687178850174 -2.3533590137958527e-05 -1.9771046936511993e-05 0.0 0.0 0.0 0.0
0.033 0.04085337743163109 0.0018175998702645302 9.641051292419434e-06 2.451520413160324e-05 0.0 0.0 0.0 0.0
0.034 0.04120933264493942 0.0017419541254639626 1.5534460544586182e-06 -3.786478191614151e-05 0.0 0.0 0.0 0.0
0.035 0.04092392325401306 0.0018567144870758057 1.885741949081421e-05 7.382594048976898e-06 0.0 0.0 0.0 0.0
0.036 0.040858812630176544 0.0020241420716047287 -5.62518835067749e-06 1.7235055565834045e-05 0.0 0.0 0.0 0.0
0.037 0.041227709501981735 0.00181589275598526 -3.00481915473938e-05 2.684071660041809e-06 0.0 0.0 0.0 0.0
0.038 0.04131484031677246 0.0016679596155881882 -3.066565841436386e-05 6.477348506450653e-06 0.0 0.0 0.0 0.0
0.039 0.04130033403635025 0.002137100324034691 -1.2720003724098206e-05 -3.792624920606613e-05 0.0 0.0 0.0 0.0
0.04 0.041390787810087204 0.0019328678026795387 6.2175095081329346e-06 -4.025362432003021e-05 0.0 0.0 0.0 0.0
0.041 0.0415002778172493 0.002342584542930126 1.6407109797000885e-05 -1.1315569281578064e-06 0.0 0.0 0.0 0.0
0.042 0.04133215546607971 0.002108466811478138 4.650093615055084e-06 -1.6133300960063934e-05 0.0 0.0 0.0 0.0
0.043 0.041399579495191574 0.0021431902423501015 2.9942020773887634e-06 4.172325134277344e-06 0.0 0.0 0.0 0.0
0.044 0.041385047137737274 0.0022075967863202095 -2.113915979862213e-05 1.7912127077579498e-05 0.0 0.0 0.0 0.0
0.045 0.04116230458021164 0.0022069839760661125 -1.7476268112659454e-05 7.780268788337708e-06 0.0 0.0 0.0 0.0
0.046 0.041153136640787125 0.002321065403521061 -1.0649673640727997e-05 -1.4152377843856812e-05 0.0 0.0 0.0 0.0
0.047 0.04169784113764763 0.0023587532341480255 -3.781169652938843e-05 -4.9035996198654175e-05 0.0 0.0 0.0 0.0
0.048 0.04143156111240387 0.0027592461556196213 -2.7688220143318176e-06 2.4563632905483246e-05 0.0 0.0 0.0 0.0
0.049 0.04159243032336235 0.0024510035291314125 2.637505531311035e-05 5.055684596300125e-05 0.0 0.0 0.0 0.0
0.05 0.0414600744843483 0.0024577053263783455 -2.9807910323143005e-05 3.447290509939194e-05 0.0 0.0 0.0 0.0
0.051 0.041351791471242905 0.00266431737691164 3.0547380447387695e-06 -5.077570676803589e-06 0.0 0.0 0.0 0.0
0.052 0.041518498212099075 0.0029804911464452744 8.429400622844696e-06 3.0176714062690735e-05 0.0 0.0 0.0 0.0
0.053 0.04152960330247879 0.0027892300859093666 -6.991717964410782e-05 2.439972013235092e-05 0.0 0.0 0.0 0.0
0.054 0.04158245027065277 0.0028182053938508034 -2.414267510175705e-05 -3.497861325740814e-05 0.0 0.0 0.0 0.0
0.055 0.041435953229665756 0.003087458200752735 -1.1511147022247314e-05 -8.35862010717392e-06 0.0 0.0 0.0 0.0
0.056 0.041683729737997055 0.003031703643500805 5.997251719236374e-05 3.0448660254478455e-05 0.0 0.0 0.0 0.0
0.057 0.04151592403650284 0.002921091392636299 -1.8212012946605682e-05 2.3339875042438507e-05 0.0 0.0 0.0 0.0
0.058 0.04149381443858147 0.0032095899805426598 -6.70282170176506e-05 6.600003689527512e-05 0.0 0.0 0.0 0.0
0.059 0.041712936013936996 0.003121788613498211 -7.3714181780815125e-06 -5.056150257587433e-06 0.0 0.0 0.0 0.0
0.06 0.041707929223775864 0.0032968400046229362 -1.7276033759117126e-05 -2.117641270160675e-05 0.0 0.0 0.0 0.0
0.061 0.041639722883701324 0.0031791366636753082 -1.1175870895385742e-06 -1.4812685549259186e-05 0.0 0.0 0.0 0.0
0.062 0.041634656488895416 0.003187740221619606 -1.736357808113098e-05 6.234925240278244e-05 0.0 0.0 0.0 0.0
0.063 0.041874051094055176 0.0034255972132086754 2.5792047381401062e-05 2.622697502374649e-05 0.0 0.0 0.0 0.0
0.064 0.041717778891325 0.003399522975087166 1.77919864654541e-05 -1.401454210281372e-05 0.0 0.0 0.0 0.0
0.065 0.041871484369039536 0.003627295605838299 -1.4804303646087646e-05 1.183338463306427e-05 0.0 0.0 0.0 0.0
0.066 0.04208223521709442 0.003594658337533474 5.963258445262909e-06 -7.133930921554565e-07 0.0 0.0 0.0 0.0
0.067 0.041769687086343765 0.0034594079479575157 2.46390700340271e-05 2.000853419303894e-05 0.0 0.0 0.0 0.0
0.068 0.04174051806330681 0.003429630771279335 4.601292312145233e-05 4.500150680541992e-06 0.0 0.0 0.0 0.0
0.069 0.04199794679880142 0.003625323995947838 1.4248304069042206e-05 4.283152520656586e-05 0.0 0.0 0.0 0.0
0.07 0.0420500673353672 0.0037043429911136627 -1.8064863979816437e-05 1.859571784734726e-05 0.0 0.0 0.0 0.0
0.071 0.04194461926817894 0.0036124037578701973 -3.779679536819458e-05 -3.4766271710395813e-06 0.0 0.0 0.0 0.0
0.072 0.0419100858271122 0.0038122646510601044 -1.5594996511936188e-05 -8.950009942054749e-07 0.0 0.0 0.0 0.0
0.073 0.042140133678913116 0.003742670640349388 1.373235136270523e-05 1.7194077372550964e-05 0.0 0.0 0.0 0.0
0.074 0.04202002286911011 0.003793872892856598 9.130686521530151e-06 -1.0200776159763336e-05 0.0 0.0 0.0 0.0
0.075 0.04219194874167442 0.003836072050035 -3.7352554500103e-05 -6.925594061613083e-05 0.0 0.0 0.0 0.0
0.076 0.042404141277074814 0.0035945987328886986 7.394701242446899e-06 -1.8159858882427216e-05 0.0 0.0 0.0 0.0
0.077 0.042336951941251755 0.004047183319926262 -3.221910446882248e-05 4.562549293041229e-06 0.0 0.0 0.0 0.0
0.078 0.04225632920861244 0.0037679271772503853 3.876350820064545e-05 7.1553513407707214e-06 0.0 0.0 0.0 0.0
0.079 0.04253159463405609 0.004003345035016537 -2.3744069039821625e-05 -6.018206477165222e-06 0.0 0.0 0.0 0.0
0.08 0.04245330020785332 0.004065206274390221 -3.314763307571411e-05 -2.1979212760925293e-07 0.0 0.0 0.0 0.0
0.081 0.04242807626724243 0.003999446518719196 2.698320895433426e-05 1.605786383152008e-05 0.0 0.0 0.0 0.0
0.082 0.042485810816287994 0.004160354845225811 -6.225239485502243e-05 2.4102628231048584e-05 0.0 0.0 0.0 0.0
0.083 0.04238029196858406 0.004283522255718708 -3.13781201839447e-05 -4.190579056739807e-05 0.0 0.0 0.0 0.0
0.084 0.04226943105459213 0.004050360061228275 -3.1346455216407776e-05 -2.1857209503650665e-05 0.0 0.0 0.0 0.0
0.085 0.04257062077522278 0.004397965036332607 -1.1635944247245789e-05 -9.143725037574768e-06 0.0 0.0 0.0 0.0
0.086 0.042374204844236374 0.004365839064121246 8.76840204000473e-06 -4.0689483284950256e-05 0.0 0.0 0.0 0.0
0.087 0.042501844465732574 0.004077664576470852 2.0532868802547455e-05 -3.0345283448696136e-05 0.0 0.0 0.0 0.0
0.088 0.04235314950346947 0.004283899441361427 3.4634023904800415e-05 1.6259029507637024e-05 0.0 0.0 0.0 0.0
0.089 0.04285974055528641 0.004242404364049435 -1.4156103134155273e-07 -6.378814578056335e-05 0.0 0.0 0.0 0.0
0.09 0.04258763790130615 0.0045306263491511345 1.9701197743415833e-05 -8.616596460342407e-06 0.0 0.0 0.0 0.0
0.091 0.04289456456899643 0.004439947195351124 -3.7472695112228394e-05 -2.4850480258464813e-05 0.0 0.0 0.0 0.0
0.092 0.042856015264987946 0.004193178378045559 3.591179847717285e-05 -4.391465336084366e-05 0.0 0.0 0.0 0.0
0.093 0.04279259219765663 0.004695371724665165 -6.3907355070114136e-06 -1.5087425708770752e-07 0.0 0.0 0.0 0.0
0.094 0.04278508946299553 0.004683485254645348 3.9519742131233215e-05 -1.5041790902614594e-05 0.0 0.0 0.0 0.0
0.095 0.04273403435945511 0.004684885032474995 1.914333552122116e-05 -9.238719940185547e-07 0.0 0.0 0.0 0.0
0.096 0.04302831366658211 0.004823625087738037 5.978439003229141e-05 -1.7257407307624817e-06 0.0 0.0 0.0 0.0
0.097 0.043241940438747406 0.004603937268257141 -4.052184522151947e-06 -9.519048035144806e-06 0.0 0.0 0.0 0.0
0.098 0.04319857060909271 0.0046996185556054115 -6.0150399804115295e-05 1.5603378415107727e-05 0.0 0.0 0.0 0.0
0.099 0.0428927019238472 0.005138108506798744 7.995404303073883e-06 -5.2181072533130646e-05 0.0 0.0 0.0 0.0
0.1 0.043235499411821365 0.005049664527177811 2.341531217098236e-05 -2.9537826776504517e-05 0.0 0.0 0.0 0.0
0.101 0.04307054355740547 0.005001121200621128 6.949529051780701e-06 2.2205524146556854e-05 0.0 0.0 0.0 0.0
0.102 0.043117720633745193 0.005032467655837536 4.007667303085327e-05 -5.03193587064743e-06 0.0 0.0 0.0 0.0
0.103 0.043414004147052765 0.0048628905788064 7.380731403827667e-06 -4.780292510986328e-05 0.0 0.0 0.0 0.0
0.104 0.04315720871090889 0.005109958350658417 5.066394805908203e-06 -1.9173137843608856e-05 0.0 0.0 0.0 0.0
0.105 0.04345427080988884 0.004909589886665344 2.579018473625183e-05 -3.7299469113349915e-06 0.0 0.0 0.0 0.0
0.106 0.04346398264169693 0.005299503915011883 1.1865980923175812e-05 -2.8731301426887512e-05 0.0 0.0 0.0 0.0
0.107 0.04371121898293495 0.005085259675979614 7.797032594680786e-06 -8.604489266872406e-06 0.0 0.0 0.0 0.0
0.108 0.0433792769908905 0.0051513612270355225 4.1301362216472626e-05 2.1960586309432983e-05 0.0 0.0 0.0 0.0
0.109 0.04330141097307205 0.005374292843043804 9.253621101379395e-06 -5.227699875831604e-05 0.0 0.0 0.0 0.0
0.11 0.04362354427576065 0.005071375519037247 3.216322511434555e-05 2.8617680072784424e-05 0.0 0.0 0.0 0.0
0.111 0.04358270391821861 0.0053068650886416435 7.994752377271652e-05 6.019324064254761e-05 0.0 0.0 0.0 0.0
0.112 0.043838974088430405 0.005450396798551083 -3.186613321304321e-05 6.249826401472092e-05 0.0 0.0 0.0 0.0
0.113 0.04378725215792656 0.005365570075809956 -5.6512653827667236e-05 3.1245872378349304e-05 0.0 0.0 0.0 0.0
0.114 0.04373758286237717 0.0054461779072880745 1.8738210201263428e-05 5.017407238483429e-05 0.0 0.0 0.0 0.0
0.115 0.04358253255486488 0.005568847991526127 -1.24368816614151e-05 -1.110229641199112e-05 0.0 0.0 0.0 0.0
0.116 0.04384855926036835 0.005306225270032883 -3.130175173282623e-05 -9.506940841674805e-06 0.0 0.0 0.0 0.0
0.117 0.04405646398663521 0.00531797856092453 3.4994445741176605e-05 5.2318908274173737e-05 0.0 0.0 0.0 0.0
0.118 0.04421006143093109 0.005592025816440582 1.867394894361496e-05 2.8119422495365143e-05 0.0 0.0 0.0 0.0
0.119 0.04384489357471466 0.005410060286521912 -2.2901222109794617e-06 -2.8759241104125977e-05 0.0 0.0 0.0 0.0
0.12 0.043654922395944595 0.005526077933609486 -3.931019455194473e-05 -4.684552550315857e-07 0.0 0.0 0.0 0.0
0.121 0.04399273172020912 0.005598435178399086 -2.7624890208244324e-05 1.3723038136959076e-05 0.0 0.0 0.0 0.0
0.122 0.044035304337739944 0.00580111239105463 1.1557713150978088e-06 -1.8513761460781097e-05 0.0 0.0 0.0 0.0
0.123 0.044043440371751785 0.005850405432283878 4.2011961340904236e-05 1.7010606825351715e-05 0.0 0.0 0.0 0.0
0.124 0.043783705681562424 0.0057976702228188515 -3.361143171787262e-05 3.570597618818283e-05 0.0 0.0 0.0 0.0
0.125 0.044270094484090805 0.005913238972425461 -2.9183924198150635e-05 1.1402182281017303e-05 0.0 0.0 0.0 0.0
0.126 0.04430503398180008 0.0059452177956700325 2.7259811758995056e-06 -4.551932215690613e-05 0.0 0.0 0.0 0.0
0.127 0.044314149767160416 0.005928967148065567 1.0345131158828735e-05 7.353723049163818e-05 0.0 0.0 0.0 0.0
0.128 0.04415156692266464 0.005832509137690067 -2.843700349330902e-05 4.304572939872742e-05 0.0 0.0 0.0 0.0
0.129 0.04443880543112755 0.005940087139606476 -1.2820586562156677e-05 1.516193151473999e-06 0.0 0.0 0.0 0.0
0.13 0.04450707510113716 0.005823154002428055 -5.357060581445694e-05 -4.9211084842681885e-06 0.0 0.0 0.0 0.0
0.131 0.04432259500026703 0.006014101207256317 -4.47053462266922e-05 1.4821067452430725e-05 0.0 0.0 0.0 0.0
0.132 0.04462115839123726 0.005967521108686924 2.1549873054027557e-05 4.005618393421173e-05 0.0 0.0 0.0 0.0
0.133 0.04471270367503166 0.005872797220945358 2.3725442588329315e-05 -7.338821887969971e-07 0.0 0.0 0.0 0.0
0.134 0.044375885277986526 0.0057265423238277435 1.0532326996326447e-05 6.014760583639145e-05 0.0 0.0 0.0 0.0
0.135 0.04468260705471039 0.005763513036072254 1.629069447517395e-05 -1.9390136003494263e-06 0.0 0.0 0.0 0.0
0.136 0.044326700270175934 0.00609943550080061 -2.074986696243286e-05 3.4812837839126587e-06 0.0 0.0 0.0 0.0
0.137 0.04458383098244667 0.006281686015427113 -2.3723579943180084e-05 -9.624287486076355e-06 0.0 0.0 0.0 0.0
0.138 0.04483266919851303 0.006329966709017754 -2.7740374207496643e-05 5.083158612251282e-06 0.0 0.0 0.0 0.0
0.139 0.044470153748989105 0.006142852827906609 -2.9614195227622986e-05 -2.8264708817005157e-05 0.0 0.0 0.0 0.0
0.14 0.044901758432388306 0.006406430155038834 6.708689033985138e-05 -4.4706277549266815e-05 0.0 0.0 0.0 0.0
0.141 0.04383945092558861 0.005772562697529793 3.7187710404396057e-06 -1.1743977665901184e-06 0.0 0.0 0.0 0.0
0.142 0.04399646446108818 0.006096000783145428 1.4670193195343018e-05 2.31890007853508e-05 0.0 0.0 0.0 0.0
0.143 0.04407145082950592 0.0057076262310147285 2.395734190940857e-05 -9.723007678985596e-06 0.0 0.0 0.0 0.0
0.144 0.0439150296151638 0.005742664448916912 4.556216299533844e-05 1.734122633934021e-06 0.0 0.0 0.0 0.0
0.145 0.044244103133678436 0.005855154246091843 1.510418951511383e-05 -2.4650245904922485e-05 0.0 0.0 0.0 0.0
0.146 0.04404441639780998 0.005860982462763786 -3.400258719921112e-06 2.107582986354828e-05 0.0 0.0 0.0 0.0
0.147 0.044342901557683945 0.006167874671518803 -2.6008114218711853e-05 6.249174475669861e-06 0.0 0.0 0.0 0.0
0.148 0.04410790652036667 0.006016490049660206 1.2176111340522766e-05 2.0555220544338226e-05 0.0 0.0 0.0 0.0
0.149 0.04422193020582199 0.006190395914018154 -3.6547891795635223e-05 -2.562999725341797e-06 0.0 0.0 0.0 0.0
0.15 0.04434165731072426 0.006280984729528427 4.9192458391189575e-06 -1.9877217710018158e-05 0.0 0.0 0.0 0.0
0.151 0.044256873428821564 0.006223244592547417 -2.752058207988739e-05 -4.740431904792786e-06 0.0 0.0 0.0 0.0
0.152 0.04420669004321098 0.006273510865867138 -1.446995884180069e-05 1.130625605583191e-06 0.0 0.0 0.0 0.0
0.153 0.044207654893398285 0.006037207320332527 -2.3293308913707733e-05 -1.639965921640396e-05 0.0 0.0 0.0 0.0
0.154 0.04426940158009529 0.006300000473856926 3.507360816001892e-06 -1.9313767552375793e-05 0.0 0.0 0.0 0.0
0.155 0.044329430907964706 0.006059728562831879 -1.4278106391429901e-05 -2.5062821805477142e-05 0.0 0.0 0.0 0.0
0.156 0.044566843658685684 0.006299249827861786 8.900649845600128e-06 1.9633211195468903e-05 0.0 0.0 0.0 0.0
0.157 0.044384926557540894 0.006298447027802467 5.407258868217468e-06 -2.2077001631259918e-05 0.0 0.0 0.0 0.0
0.158 0.044294919818639755 0.006191182881593704 4.770234227180481e-06 1.8064863979816437e-05 0.0 0.0 0.0 0.0
0.159 0.044610396027565 0.006270778365433216 3.628898411989212e-05 -3.945082426071167e-06 0.0 0.0 0.0 0.0
0.16 0.04447624459862709 0.006301244720816612 -1.8416903913021088e-05 -1.8613412976264954e-05 0.0 0.0 0.0 0.0
0.161 0.04461056739091873 0.006728349253535271 -1.0598450899124146e-06 -3.441236913204193e-06 0.0 0.0 0.0 0.0
0.162 0.04458876699209213 0.0066243307664990425 2.43261456489563e-05 -2.272985875606537e-05 0.0 0.0 0.0 0.0
0.163 0.04449346661567688 0.006571386940777302 1.2609176337718964e-05 3.891065716743469e-06 0.0 0.0 0.0 0.0
0.164 0.044512685388326645 0.006416681222617626 7.226038724184036e-05 1.449882984161377e-05 0.0 0.0 0.0 0.0
0.165 0.04451287165284157 0.006529328413307667 1.3167038559913635e-05 -7.255002856254578e-06 0.0 0.0 0.0 0.0
0.166 0.04476045444607735 0.006389792077243328 1.4974735677242279e-05 -3.3052638173103333e-06 0.0 0.0 0.0 0.0
0.167 0.04458966478705406 0.006577143445611 1.3580545783042908e-05 -1.2528151273727417e-05 0.0 0.0 0.0 0.0
0.168 0.04461205378174782 0.0065394919365644455 3.420934081077576e-05 -1.5029683709144592e-05 0.0 0.0 0.0 0.0
0.169 0.04490639269351959 0.006622501648962498 1.2658536434173584e-05 -3.568176180124283e-05 0.0 0.0 0.0 0.0
0.17 0.044748783111572266 0.006918733008205891 -1.9259750843048096e-05 1.0715797543525696e-05 0.0 0.0 0.0 0.0
0.171 0.04471771791577339 0.006620324216783047 -3.6541372537612915e-05 -7.902272045612335e-06 0.0 0.0 0.0 0.0
0.172 0.04479513689875603 0.006744500249624252 5.161389708518982e-05 1.7162412405014038e-05 0.0 0.0 0.0 0.0
0.173 0.04484866186976433 0.006836406886577606 1.359451562166214e-05 8.864328265190125e-06 0.0 0.0 0.0 0.0
0.174 0.04500805214047432 0.007000172510743141 3.228895366191864e-06 -5.7620927691459656e-06 0.0 0.0 0.0 0.0
0.175 0.0450766496360302 0.0068336790427565575 -8.718110620975494e-06 -3.678910434246063e-05 0.0 0.0 0.0 0.0
0.176 0.044941626489162445 0.006747748702764511 -1.6788020730018616e-05 1.1045485734939575e-05 0.0 0.0 0.0 0.0
0.177 0.045219700783491135 0.006541951559484005 -2.5199726223945618e-05 4.9192458391189575e-06 0.0 0.0 0.0 0.0
0.178 0.04534977674484253 0.006671115756034851 9.028241038322449e-06 -2.1923333406448364e-06 0.0 0.0 0.0 0.0
0.179 0.04517118260264397 0.006992604583501816 4.855915904045105e-06 -2.698320895433426e-05 0.0 0.0 0.0 0.0
0.18 0.04506387189030647 0.007353772409260273 -8.297152817249298e-06 1.7344020307064056e-05 0.0 0.0 0.0 0.0
0.181 0.045432597398757935 0.007256218232214451 -2.1739862859249115e-05 -1.628044992685318e-05 0.0 0.0 0.0 0.0
