!Created with skrf (http://scikit-rf.org).
# GHz S RI R 50.0 
!freq ReS11 ImS11 ReS21 ImS21 ReS12 ImS12 ReS22 ImS22
0.001 1.0014994144439697 -0.0024606408551335335 -2.582743763923645e-05 4.862155765295029e-05 0.0 0.0 0.0 0.0
0.002 1.0005873441696167 -0.005186940543353558 3.337673842906952e-05 -3.7336722016334534e-06 0.0 0.0 0.0 0.0
0.003 1.0001871585845947 -0.007366020232439041 -8.705072104930878e-06 2.1041370928287506e-05 0.0 0.0 0.0 0.0
0.004 1.0008618831634521 -0.010477266274392605 -1.0020099580287933e-05 4.998408257961273e-06 0.0 0.0 0.0 0.0
0.005 1.000190258026123 -0.012274142354726791 3.440584987401962e-05 5.330890417098999e-06 0.0 0.0 0.0 0.0
0.006 1.000281810760498 -0.014976109378039837 6.699003279209137e-06 2.3506581783294678e-05 0.0 0.0 0.0 0.0
0.007 1.0000706911087036 -0.017970532178878784 -6.74854964017868e-05 -7.434748113155365e-06 0.0 0.0 0.0 0.0
0.008 0.9999561905860901 -0.020231928676366806 1.1193566024303436e-05 8.01868736743927e-06 0.0 0.0 0.0 0.0
0.009 0.9996398687362671 -0.02283829264342785 -7.027760148048401e-06 -1.5329569578170776e-06 0.0 0.0 0.0 0.0
0.01 0.9996968507766724 -0.024752827361226082 2.707354724407196e-05 3.332644701004028e-05 0.0 0.0 0.0 0.0
0.011 0.9993211627006531 -0.027572784572839737 -2.277269959449768e-05 2.2931024432182312e-05 0.0 0.0 0.0 0.0
0.012 0.9996505975723267 -0.030386200174689293 -1.888163387775421e-05 1.9941478967666626e-05 0.0 0.0 0.0 0.0
0.013 0.9992518424987793 -0.03217720985412598 3.547593951225281e-05 -2.532266080379486e-06 0.0 0.0 0.0 0.0
0.014 0.9989846348762512 -0.03495965898036957 2.246350049972534e-06 -1.07642263174057e-05 0.0 0.0 0.0 0.0
0.015 0.9986885786056519 -0.037989284843206406 -1.4621764421463013e-07 2.1960586309432983e-06 0.0 0.0 0.0 0.0
0.016 0.9984331727027893 -0.040712736546993256 -2.6405788958072662e-05 -4.2866915464401245e-05 0.0 0.0 0.0 0.0
0.017 0.9983454346656799 -0.042479824274778366 7.893890142440796e-06 4.81167808175087e-05 0.0 0.0 0.0 0.0
0.018 0.9976761937141418 -0.04472317174077034 4.460848867893219e-05 -4.766508936882019e-06 0.0 0.0 0.0 0.0
0.019 0.9975191950798035 -0.047257982194423676 1.3755634427070618e-06 3.751832991838455e-05 0.0 0.0 0.0 0.0
0.02 0.9976916313171387 -0.04883619770407677 1.0535120964050293e-05 -7.594935595989227e-06 0.0 0.0 0.0 0.0
0.021 0.9971182942390442 -0.05150345712900162 2.5902874767780304e-05 1.2507662177085876e-05 0.0 0.0 0.0 0.0
0.022 0.996658444404602 -0.05416037514805794 -4.175305366516113e-05 7.481314241886139e-06 0.0 0.0 0.0 0.0
0.023 0.996529757976532 -0.056989144533872604 7.167458534240723e-06 3.0593015253543854e-05 0.0 0.0 0.0 0.0
0.024 0.9967719912528992 -0.05986648425459862 -2.57883220911026e-06 1.9498169422149658e-05 0.0 0.0 0.0 0.0
0.025 0.9961554408073425 -0.06148343160748482 4.157423973083496e-06 1.2712553143501282e-06 0.0 0.0 0.0 0.0
0.026 0.9956777691841125 -0.06432700902223587 -2.4597160518169403e-05 -1.847837120294571e-05 0.0 0.0 0.0 0.0
0.027 0.9953043460845947 -0.06558208167552948 -8.500181138515472e-06 1.5832483768463135e-06 0.0 0.0 0.0 0.0
0.028 0.9948394894599915 -0.06848952919244766 -3.992579877376556e-06 -3.601517528295517e-05 0.0 0.0 0.0 0.0
0.029 0.9945160150527954 -0.07098013162612915 2.964399755001068e-06 2.196989953517914e-06 0.0 0.0 0.0 0.0
0.03 0.9942523241043091 -0.0736178606748581 -1.2757256627082825e-05 -1.0091811418533325e-05 0.0 0.0 0.0 0.0
0.031 0.9946893453598022 -0.07608567923307419 -4.818569868803024e-05 -1.918897032737732e-05 0.0 0.0 0.0 0.0
0.032 0.9940525889396667 -0.07842174172401428 2.4916604161262512e-05 2.7477741241455078e-05 0.0 0.0 0.0 0.0
0.033 0.9935203194618225 -0.08033391088247299 -3.055296838283539e-05 -7.299799472093582e-05 0.0 0.0 0.0 0.0
0.034 0.992976725101471 -0.08389738202095032 -8.977018296718597e-06 2.820044755935669e-06 0.0 0.0 0.0 0.0
0.035 0.9924802184104919 -0.08526880294084549 3.318022936582565e-05 1.0050833225250244e-05 0.0 0.0 0.0 0.0
0.036 0.9918423295021057 -0.08782830834388733 -4.429556429386139e-05 1.1712312698364258e-05 0.0 0.0 0.0 0.0
0.037 0.9922634959220886 -0.09068329632282257 3.311317414045334e-05 1.9961968064308167e-05 0.0 0.0 0.0 0.0
0.038 0.9923649430274963 -0.09317653626203537 -5.511566996574402e-06 2.321600914001465e-05 0.0 0.0 0.0 0.0
0.039 0.9906525611877441 -0.09458072483539581 -4.8141926527023315e-05 2.3161061108112335e-05 0.0 0.0 0.0 0.0
0.04 0.9906286597251892 -0.09722946584224701 -1.3658776879310608e-05 1.7414800822734833e-05 0.0 0.0 0.0 0.0
0.041 0.9903342723846436 -0.09978901594877243 -1.159869134426117e-05 4.317425191402435e-05 0.0 0.0 0.0 0.0
0.042 0.9901074171066284 -0.10261712223291397 -3.096833825111389e-05 -6.581656634807587e-06 0.0 0.0 0.0 0.0
0.043 0.9888826608657837 -0.10438836365938187 3.6642886698246e-05 6.584450602531433e-06 0.0 0.0 0.0 0.0
0.044 0.9889549016952515 -0.10620806366205215 3.2532960176467896e-05 4.526693373918533e-05 0.0 0.0 0.0 0.0
0.045 0.9882125854492188 -0.10920565575361252 4.7674402594566345e-06 4.975125193595886e-05 0.0 0.0 0.0 0.0
0.046 0.9875223636627197 -0.11128739267587662 -3.5800039768218994e-06 3.8584694266319275e-06 0.0 0.0 0.0 0.0
0.047 0.9876449108123779 -0.11276808381080627 2.2219493985176086e-05 -4.204828292131424e-05 0.0 0.0 0.0 0.0
0.048 0.9874199032783508 -0.11634249240159988 1.931656152009964e-05 -1.532863825559616e-05 0.0 0.0 0.0 0.0
0.049 0.9866372346878052 -0.11874308437108994 -2.7108006179332733e-05 4.103407263755798e-06 0.0 0.0 0.0 0.0
0.05 0.9860955476760864 -0.1205933466553688 2.3826956748962402e-05 -1.9920989871025085e-06 0.0 0.0 0.0 0.0
0.051 0.985895574092865 -0.1227397620677948 2.2518448531627655e-05 1.0726973414421082e-05 0.0 0.0 0.0 0.0
0.052 0.9849303364753723 -0.12498178333044052 -7.67875462770462e-06 -1.0436400771141052e-05 0.0 0.0 0.0 0.0
0.053 0.9842042326927185 -0.1274976283311844 3.14079225063324e-05 7.469207048416138e-06 0.0 0.0 0.0 0.0
0.054 0.9841340780258179 -0.1299734264612198 -9.631738066673279e-06 4.392210394144058e-05 0.0 0.0 0.0 0.0
0.055 0.9826750159263611 -0.13177776336669922 -5.23589551448822e-06 -4.889443516731262e-06 0.0 0.0 0.0 0.0
0.056 0.9820458292961121 -0.13405722379684448 -1.7103739082813263e-05 3.3396296203136444e-05 0.0 0.0 0.0 0.0
0.057 0.982100248336792 -0.13652513921260834 -4.566367715597153e-05 -7.81286507844925e-06 0.0 0.0 0.0 0.0
0.058 0.9807700514793396 -0.13808724284172058 0.00010859034955501556 -9.043142199516296e-05 0.0 0.0 0.0 0.0
0.059 0.9807788133621216 -0.14053960144519806 -3.600213676691055e-05 2.3767352104187012e-05 0.0 0.0 0.0 0.0
0.06 0.9800670742988586 -0.14318718016147614 4.610978066921234e-06 -5.3365714848041534e-05 0.0 0.0 0.0 0.0
0.061 0.9800697565078735 -0.14506998658180237 6.922520697116852e-06 -9.912997484207153e-06 0.0 0.0 0.0 0.0
0.062 0.9789050221443176 -0.14777033030986786 -4.394911229610443e-06 5.159527063369751e-06 0.0 0.0 0.0 0.0
0.063 0.9783073663711548 -0.14946958422660828 -1.3865530490875244e-05 2.3175962269306183e-05 0.0 0.0 0.0 0.0
0.064 0.9779025316238403 -0.15168993175029755 1.4632008969783783e-05 -2.5898218154907227e-05 0.0 0.0 0.0 0.0
0.065 0.9775606393814087 -0.1538672298192978 -4.173256456851959e-05 3.723800182342529e-05 0.0 0.0 0.0 0.0
0.066 0.9764462113380432 -0.15669235587120056 -1.1227093636989594e-05 2.18050554394722e-05 0.0 0.0 0.0 0.0
0.067 0.974862277507782 -0.15783339738845825 6.491318345069885e-06 2.1023675799369812e-05 0.0 0.0 0.0 0.0
0.068 0.9747311472892761 -0.1602650284767151 -3.580283373594284e-05 -3.264285624027252e-05 0.0 0.0 0.0 0.0
0.069 0.9747240543365479 -0.1630195826292038 -3.223586827516556e-05 -1.028459519147873e-05 0.0 0.0 0.0 0.0
0.07 0.9743296504020691 -0.1655084490776062 5.450192838907242e-05 4.2129307985305786e-05 0.0 0.0 0.0 0.0
0.071 0.9727356433868408 -0.1667276918888092 -2.2250227630138397e-05 -1.0029412806034088e-05 0.0 0.0 0.0 0.0
0.072 0.9716877937316895 -0.16918641328811646 -2.346932888031006e-06 -2.737436443567276e-05 0.0 0.0 0.0 0.0
0.073 0.9716007113456726 -0.17157842218875885 -5.013495683670044e-05 -4.87789511680603e-05 0.0 0.0 0.0 0.0
0.074 0.9710395932197571 -0.17410150170326233 6.726011633872986e-06 9.307637810707092e-06 0.0 0.0 0.0 0.0
0.075 0.9703540802001953 -0.1761290580034256 4.641246050596237e-05 -9.593553841114044e-06 0.0 0.0 0.0 0.0
0.076 0.9700427055358887 -0.17748360335826874 -5.577597767114639e-05 6.906688213348389e-06 0.0 0.0 0.0 0.0
0.077 0.967873752117157 -0.1800384372472763 -1.96211040019989e-05 2.192240208387375e-05 0.0 0.0 0.0 0.0
0.078 0.9677767157554626 -0.18101400136947632 -3.533996641635895e-05 1.512095332145691e-05 0.0 0.0 0.0 0.0
0.079 0.9666572213172913 -0.18429207801818848 -3.794115036725998e-05 1.318473368883133e-05 0.0 0.0 0.0 0.0
0.08 0.9668816328048706 -0.1865806132555008 -3.475695848464966e-05 1.785997301340103e-05 0.0 0.0 0.0 0.0
0.081 0.9659286737442017 -0.18910427391529083 -2.3745931684970856e-05 -2.6809051632881165e-05 0.0 0.0 0.0 0.0
0.082 0.9653283357620239 -0.19052810966968536 -8.014030754566193e-06 2.2440217435359955e-05 0.0 0.0 0.0 0.0
0.083 0.9639751315116882 -0.19232283532619476 5.083717405796051e-05 -8.775852620601654e-06 0.0 0.0 0.0 0.0
0.084 0.9641405940055847 -0.19431449472904205 -1.700315624475479e-05 -8.443370461463928e-06 0.0 0.0 0.0 0.0
0.085 0.9627919793128967 -0.19686976075172424 7.235445082187653e-06 1.9984319806098938e-05 0.0 0.0 0.0 0.0
0.086 0.9620797634124756 -0.1987299919128418 -1.4794990420341492e-05 7.627531886100769e-07 0.0 0.0 0.0 0.0
0.087 0.9620630145072937 -0.20074130594730377 2.8219074010849e-07 1.5527009963989258e-05 0.0 0.0 0.0 0.0
0.088 0.9599962830543518 -0.203196719288826 -8.082017302513123e-06 2.674013376235962e-05 0.0 0.0 0.0 0.0
0.089 0.960286021232605 -0.20433476567268372 2.9727816581726074e-06 -8.324719965457916e-05 0.0 0.0 0.0 0.0
0.09 0.9591764807701111 -0.2073008269071579 -1.7238780856132507e-06 1.0991469025611877e-05 0.0 0.0 0.0 0.0
0.091 0.958511471748352 -0.2083723545074463 -1.7185695469379425e-05 3.175530582666397e-05 0.0 0.0 0.0 0.0
0.092 0.9572372436523438 -0.21073491871356964 -6.462447345256805e-06 -1.7284415662288666e-05 0.0 0.0 0.0 0.0
0.093 0.9568033814430237 -0.21344450116157532 -2.5385990738868713e-05 2.050679177045822e-05 0.0 0.0 0.0 0.0
0.094 0.9554641842842102 -0.21543727815151215 1.942738890647888e-06 5.275942385196686e-06 0.0 0.0 0.0 0.0
0.095 0.9550663232803345 -0.2170945405960083 3.2745301723480225e-06 -1.537613570690155e-05 0.0 0.0 0.0 0.0
0.096 0.9538645148277283 -0.21980945765972137 5.782581865787506e-06 5.8162957429885864e-05 0.0 0.0 0.0 0.0
0.097 0.9530407786369324 -0.22095894813537598 3.1441450119018555e-06 3.213435411453247e-05 0.0 0.0 0.0 0.0
0.098 0.9522672295570374 -0.22289738059043884 -8.056871592998505e-06 -2.4359673261642456e-05 0.0 0.0 0.0 0.0
0.099 0.9523023366928101 -0.2253090739250183 -1.0249204933643341e-05 3.417301923036575e-05 0.0 0.0 0.0 0.0
0.1 0.9515567421913147 -0.22723543643951416 -1.952424645423889e-05 6.0809776186943054e-05 0.0 0.0 0.0 0.0
0.101 0.9503896832466125 -0.22918365895748138 -2.5338493287563324e-05 -9.621493518352509e-06 0.0 0.0 0.0 0.0
0.102 0.9497013688087463 -0.2308855503797531 1.9516795873641968e-05 -6.029382348060608e-06 0.0 0.0 0.0 0.0
0.103 0.9490640759468079 -0.2332611382007599 2.1641142666339874e-05 1.4789402484893799e-06 0.0 0.0 0.0 0.0
0.104 0.9474985003471375 -0.234689861536026 -2.2231601178646088e-05 4.580710083246231e-05 0.0 0.0 0.0 0.0
0.105 0.946870744228363 -0.23730866611003876 2.188887447118759e-05 6.13303855061531e-05 0.0 0.0 0.0 0.0
0.106 0.9460543990135193 -0.23882636427879333 -9.48924571275711e-06 -6.9784000515937805e-06 0.0 0.0 0.0 0.0
0.107 0.9454004764556885 -0.2403227835893631 -4.9843452870845795e-05 -1.9684433937072754e-05 0.0 0.0 0.0 0.0
0.108 0.9444103240966797 -0.2423531711101532 -1.9698403775691986e-05 1.695007085800171e-06 0.0 0.0 0.0 0.0
0.109 0.9438609480857849 -0.2444392442703247 -2.1958723664283752e-05 -6.9765374064445496e-06 0.0 0.0 0.0 0.0
0.11 0.9422518610954285 -0.2458767592906952 -3.238115459680557e-05 -1.7986632883548737e-05 0.0 0.0 0.0 0.0
0.111 0.9419946670532227 -0.24781958758831024 4.813075065612793e-06 -2.527143806219101e-05 0.0 0.0 0.0 0.0
0.112 0.9412263631820679 -0.24972234666347504 -2.398155629634857e-06 -3.1657516956329346e-05 0.0 0.0 0.0 0.0
0.113 0.9403892159461975 -0.2516874670982361 3.252830356359482e-05 -3.547128289937973e-05 0.0 0.0 0.0 0.0
0.114 0.9385514855384827 -0.2540034353733063 1.8600374460220337e-05 -6.606802344322205e-06 0.0 0.0 0.0 0.0
0.115 0.9382382035255432 -0.2558504641056061 1.0877847671508789e-05 -6.634648889303207e-05 0.0 0.0 0.0 0.0
0.116 0.93766188621521 -0.2575335204601288 -2.625398337841034e-06 4.5818276703357697e-05 0.0 0.0 0.0 0.0
0.117 0.9356228709220886 -0.2592178285121918 -4.600733518600464e-06 7.026828825473785e-06 0.0 0.0 0.0 0.0
0.118 0.9350629448890686 -0.2607921361923218 2.4520792067050934e-05 1.2272968888282776e-05 0.0 0.0 0.0 0.0
0.119 0.9356304407119751 -0.2635855972766876 1.6561709344387054e-05 3.5142526030540466e-05 0.0 0.0 0.0 0.0
0.12 0.9346568584442139 -0.26639997959136963 1.6724690794944763e-05 1.93743035197258e-05 0.0 0.0 0.0 0.0
0.121 0.9340769052505493 -0.2668611705303192 1.3880431652069092e-05 -1.3046897947788239e-05 0.0 0.0 0.0 0.0
0.122 0.9332526326179504 -0.2686721384525299 2.8730370104312897e-05 -3.25031578540802e-06 0.0 0.0 0.0 0.0
0.123 0.9312431216239929 -0.27091947197914124 -2.8376467525959015e-05 -3.028661012649536e-05 0.0 0.0 0.0 0.0
0.124 0.9309821128845215 -0.2726605534553528 1.6605481505393982e-06 -1.733284443616867e-05 0.0 0.0 0.0 0.0
0.125 0.9308196306228638 -0.27355802059173584 -2.483464777469635e-05 1.7045065760612488e-05 0.0 0.0 0.0 0.0
0.126 0.9303300380706787 -0.2760368585586548 2.7458183467388153e-05 2.8922222554683685e-05 0.0 0.0 0.0 0.0
0.127 0.928350031375885 -0.27724534273147583 -4.822760820388794e-05 2.7836300432682037e-05 0.0 0.0 0.0 0.0
0.128 0.9271041750907898 -0.2793177366256714 -1.1933036148548126e-05 1.928769052028656e-05 0.0 0.0 0.0 0.0
0.129 0.9263125658035278 -0.28181007504463196 1.830700784921646e-05 -9.776093065738678e-06 0.0 0.0 0.0 0.0
0.13 0.9271672368049622 -0.2837248742580414 -3.213807940483093e-05 -7.234513759613037e-06 0.0 0.0 0.0 0.0
0.131 0.9254685044288635 -0.2854292094707489 5.0877220928668976e-05 1.8295831978321075e-05 0.0 0.0 0.0 0.0
0.132 0.9252767562866211 -0.28624263405799866 -1.8081627786159515e-05 8.225440979003906e-06 0.0 0.0 0.0 0.0
0.133 0.9226011037826538 -0.2876908481121063 -1.912936568260193e-06 -3.428943455219269e-05 0.0 0.0 0.0 0.0
0.134 0.9218451976776123 -0.28963902592658997 1.0146759450435638e-05 -7.729977369308472e-07 0.0 0.0 0.0 0.0
0.135 0.9212186336517334 -0.29156163334846497 -2.5554560124874115e-05 1.0453164577484131e-05 0.0 0.0 0.0 0.0
0.136 0.9203428030014038 -0.2926522493362427 6.927177309989929e-06 -2.1793879568576813e-05 0.0 0.0 0.0 0.0
0.137 0.9195566773414612 -0.29638591408729553 2.4376437067985535e-05 -2.8753653168678284e-05 0.0 0.0 0.0 0.0
0.138 0.9187064170837402 -0.2967252731323242 -2.680998295545578e-05 2.394244074821472e-05 0.0 0.0 0.0 0.0
0.139 0.9169182181358337 -0.29938048124313354 -5.3726136684417725e-05 4.50480729341507e-06 0.0 0.0 0.0 0.0
0.14 0.9172747135162354 -0.29939815402030945 -8.638948202133179e-06 -3.557372838258743e-05 0.0 0.0 0.0 0.0
0.141 0.9172492027282715 -0.3121609389781952 -2.5107525289058685e-05 1.3687647879123688e-05 0.0 0.0 0.0 0.0
0.142 0.9148328304290771 -0.3131316304206848 5.256384611129761e-06 1.9038096070289612e-05 0.0 0.0 0.0 0.0
0.143 0.91456139087677 -0.31600579619407654 2.7206726372241974e-05 8.476898074150085e-06 0.0 0.0 0.0 0.0
0.144 0.9139561653137207 -0.3178432583808899 1.4882534742355347e-06 2.184603363275528e-05 0.0 0.0 0.0 0.0
0.145 0.9124627113342285 -0.31945565342903137 -4.041939973831177e-06 3.884546458721161e-06 0.0 0.0 0.0 0.0
0.146 0.9118005037307739 -0.32130756974220276 2.8721056878566742e-05 1.4870427548885345e-05 0.0 0.0 0.0 0.0
0.147 0.9105127453804016 -0.3226689398288727 -9.474344551563263e-06 -2.543628215789795e-05 0.0 0.0 0.0 0.0
0.148 0.9095766544342041 -0.3245861530303955 2.760067582130432e-05 1.5288591384887695e-05 0.0 0.0 0.0 0.0
0.149 0.9085201025009155 -0.32674041390419006 -5.435198545455933e-06 -3.134086728096008e-05 0.0 0.0 0.0 0.0
0.15 0.9072265028953552 -0.32897815108299255 1.8916092813014984e-05 1.4426186680793762e-06 0.0 0.0 0.0 0.0
0.151 0.9062941670417786 -0.32977017760276794 1.784414052963257e-05 1.0796822607517242e-05 0.0 0.0 0.0 0.0
0.152 0.9053377509117126 -0.3310518264770508 -2.7134083211421967e-05 -5.1800161600112915e-06 0.0 0.0 0.0 0.0
0.153 0.9041709303855896 -0.3330921232700348 3.370363265275955e-05 1.0275281965732574e-05 0.0 0.0 0.0 0.0
0.154 0.9031521081924438 -0.33558037877082825 -4.073977470397949e-05 1.7803162336349487e-05 0.0 0.0 0.0 0.0
0.155 0.9018664360046387 -0.33674609661102295 3.82671132683754e-05 -2.4259090423583984e-05 0.0 0.0 0.0 0.0
0.156 0.9007330536842346 -0.3382813334465027 1.0700896382331848e-06 2.0684674382209778e-06 0.0 0.0 0.0 0.0
0.157 0.8997679948806763 -0.33982935547828674 -2.481602132320404e-05 3.811623901128769e-05 0.0 0.0 0.0 0.0
0.158 0.8984749913215637 -0.3423333168029785 -1.1889263987541199e-05 5.1472336053848267e-05 0.0 0.0 0.0 0.0
0.159 0.8983358144760132 -0.3431417942047119 4.932191222906113e-05 9.388662874698639e-06 0.0 0.0 0.0 0.0
0.16 0.8968622088432312 -0.34586504101753235 -6.154179573059082e-06 -1.3568438589572906e-05 0.0 0.0 0.0 0.0
0.161 0.895136833190918 -0.3474798798561096 -4.578009247779846e-05 -1.0534189641475677e-05 0.0 0.0 0.0 0.0
0.162 0.8946404457092285 -0.3487061858177185 1.4584511518478394e-05 2.8155744075775146e-05 0.0 0.0 0.0 0.0
0.163 0.8939172029495239 -0.3515469431877136 -1.0905787348747253e-06 -1.1392869055271149e-05 0.0 0.0 0.0 0.0
0.164 0.8926798105239868 -0.35212740302085876 -2.6893801987171173e-05 1.5385448932647705e-05 0.0 0.0 0.0 0.0
0.165 0.8917150497436523 -0.3542385399341583 -2.3070722818374634e-05 -2.2965483367443085e-05 0.0 0.0 0.0 0.0
0.166 0.8906781077384949 -0.3559242784976959 -8.307397365570068e-07 4.563480615615845e-08 0.0 0.0 0.0 0.0
0.167 0.8894758820533752 -0.35744765400886536 -3.427919000387192e-05 1.4298595488071442e-05 0.0 0.0 0.0 0.0
0.168 0.8884626030921936 -0.35904666781425476 -3.0213966965675354e-05 3.4281983971595764e-06 0.0 0.0 0.0 0.0
0.169 0.8866264224052429 -0.3606078028678894 -1.966487616300583e-05 -1.6065314412117004e-06 0.0 0.0 0.0 0.0
0.17 0.8857393264770508 -0.3629910349845886 3.665965050458908e-05 -2.1051615476608276e-05 0.0 0.0 0.0 0.0
0.171 0.8849392533302307 -0.3644016683101654 -1.016072928905487e-05 1.4818273484706879e-05 0.0 0.0 0.0 0.0
0.172 0.8838366866111755 -0.3651106655597687 2.4548731744289398e-05 -1.4331191778182983e-05 0.0 0.0 0.0 0.0
0.173 0.8825377821922302 -0.36688533425331116 1.1081807315349579e-05 -1.260172575712204e-05 0.0 0.0 0.0 0.0
0.174 0.8815569281578064 -0.37027859687805176 -1.041404902935028e-05 2.7303583920001984e-05 0.0 0.0 0.0 0.0
0.175 0.880585253238678 -0.3716053366661072 9.125098586082458e-06 2.4332664906978607e-05 0.0 0.0 0.0 0.0
0.176 0.8794648051261902 -0.37303054332733154 -3.2085925340652466e-05 1.0680407285690308e-05 0.0 0.0 0.0 0.0
0.177 0.8789651989936829 -0.3730774223804474 -2.1836720407009125e-05 6.686896085739136e-07 0.0 0.0 0.0 0.0
0.178 0.877348780632019 -0.37593039870262146 -7.82310962677002e-08 -1.2652948498725891e-05 0.0 0.0 0.0 0.0
0.179 0.8763402700424194 -0.37712976336479187 -5.867332220077515e-07 -1.8384307622909546e-06 0.0 0.0 0.0 0.0
0.18 0.8753399848937988 -0.3792992830276489 2.90554016828537e-05 4.781130701303482e-05 0.0 0.0 0.0 0.0
0.181 0.8741066455841064 -0.380451500415802 -1.6541220247745514e-05 4.448462277650833e-05 0.0 0.0 0.0 0.0
0.182 0.8730337619781494 -0.3824520707130432 -7.788650691509247e-06 2.012774348258972e-05 0.0 0.0 0.0 0.0
0.183 0.8716568946838379 -0.383488267660141 8.260831236839294e-06 2.464279532432556e-05 0.0 0.0 0.0 0.0
0.184 0.8705878853797913 -0.3852546215057373 3.4895725548267365e-05 7.856637239456177e-06 0.0 0.0 0.0 0.0
0.185 0.8693197965621948 -0.38726717233657837 7.043592631816864e-06 -4.434026777744293e-06 0.0 0.0 0.0 0.0
