!Created with skrf (http://scikit-rf.org).
# GHz S RI R 50.0 
!freq ReS11 ImS11 ReS21 ImS21 ReS12 ImS12 ReS22 ImS22
0.001 0.05129082873463631 0.010474572889506817 -3.4263357520103455e-06 -3.809109330177307e-06 0.0 0.0 0.0 0.0
0.002 0.055793795734643936 0.016860978677868843 -2.347491681575775e-05 1.4988705515861511e-05 0.0 0.0 0.0 0.0
0.003 0.061919182538986206 0.020589426159858704 -1.3639219105243683e-05 -1.2453645467758179e-05 0.0 0.0 0.0 0.0
0.004 0.06769393384456635 0.023249367251992226 6.149522960186005e-06 -2.987682819366455e-06 0.0 0.0 0.0 0.0
0.005 0.07466354966163635 0.024321619421243668 4.051718860864639e-05 2.982374280691147e-05 0.0 0.0 0.0 0.0
0.006 0.08003617078065872 0.023751715198159218 -1.4613382518291473e-05 2.7550384402275085e-05 0.0 0.0 0.0 0.0
0.007 0.08581520617008209 0.0220903679728508 3.2835640013217926e-05 2.3962929844856262e-06 0.0 0.0 0.0 0.0
0.008 0.09066644310951233 0.019781311973929405 -2.6746653020381927e-05 -1.0102987289428711e-05 0.0 0.0 0.0 0.0
0.009 0.09518271684646606 0.01589253917336464 -6.970949470996857e-06 6.575416773557663e-05 0.0 0.0 0.0 0.0
0.01 0.09905210882425308 0.011706933379173279 8.464790880680084e-06 -2.758856862783432e-05 0.0 0.0 0.0 0.0
0.011 0.10201366245746613 0.00700976699590683 4.624947905540466e-05 4.4517219066619873e-07 0.0 0.0 0.0 0.0
0.012 0.10350260883569717 0.001562848687171936 3.170128911733627e-05 2.996157854795456e-05 0.0 0.0 0.0 0.0
0.013 0.10423904657363892 -0.00394995603710413 -1.9749626517295837e-05 -2.8461217880249023e-05 0.0 0.0 0.0 0.0
0.014 0.1043584868311882 -0.0095225153490901 -3.965850919485092e-05 1.061800867319107e-05 0.0 0.0 0.0 0.0
0.015 0.10297399759292603 -0.015129214152693748 3.1585805118083954e-05 -0.00010345503687858582 0.0 0.0 0.0 0.0
0.016 0.10034860670566559 -0.01991502195596695 -3.909878432750702e-05 1.0596588253974915e-05 0.0 0.0 0.0 0.0
0.017 0.09785497188568115 -0.024721603840589523 -4.933588206768036e-05 2.2827647626399994e-05 0.0 0.0 0.0 0.0
0.018 0.09361579269170761 -0.02909991890192032 -2.9012560844421387e-05 5.736202001571655e-05 0.0 0.0 0.0 0.0
0.019 0.08907604217529297 -0.03224225714802742 -1.1693686246871948e-05 -2.765655517578125e-05 0.0 0.0 0.0 0.0
0.02 0.0838790163397789 -0.03491464629769325 3.0963681638240814e-05 1.2650154531002045e-05 0.0 0.0 0.0 0.0
0.021 0.07837614417076111 -0.03645211085677147 3.586895763874054e-05 1.1314637959003448e-05 0.0 0.0 0.0 0.0
0.022 0.07296276837587357 -0.03699352964758873 3.2366253435611725e-05 2.3826956748962402e-05 0.0 0.0 0.0 0.0
0.023 0.06653200089931488 -0.036778900772333145 6.718561053276062e-06 -3.513321280479431e-05 0.0 0.0 0.0 0.0
0.024 0.06128516048192978 -0.03538188338279724 -1.959875226020813e-05 -7.793307304382324e-06 0.0 0.0 0.0 0.0
0.025 0.05629456415772438 -0.03320186957716942 3.2881274819374084e-05 -3.911368548870087e-05 0.0 0.0 0.0 0.0
0.026 0.051730118691921234 -0.03026987798511982 6.3497573137283325e-06 -1.2048520147800446e-05 0.0 0.0 0.0 0.0
0.027 0.047778524458408356 -0.026086091995239258 2.1717511117458344e-05 4.181545227766037e-05 0.0 0.0 0.0 0.0
0.028 0.045036401599645615 -0.021932994946837425 3.621075302362442e-05 -1.0096468031406403e-05 0.0 0.0 0.0 0.0
0.029 0.04293873906135559 -0.017012976109981537 -1.7074868083000183e-05 5.705282092094421e-06 0.0 0.0 0.0 0.0
0.03 0.041195228695869446 -0.012101348489522934 3.3542513847351074e-05 -9.26293432712555e-06 0.0 0.0 0.0 0.0
0.031 0.040852196514606476 -0.006663555279374123 -1.6964972019195557e-05 -2.3404136300086975e-06 0.0 0.0 0.0 0.0
0.032 0.041043464094400406 -0.0020347116515040398 5.1536597311496735e-05 2.934783697128296e-05 0.0 0.0 0.0 0.0
0.033 0.04292789846658707 0.0032366346567869186 5.4504722356796265e-05 1.99098140001297e-05 0.0 0.0 0.0 0.0
0.034 0.04504888132214546 0.007584364153444767 3.3039599657058716e-05 3.666803240776062e-05 0.0 0.0 0.0 0.0
0.035 0.048366446048021317 0.011493617668747902 -5.076639354228973e-06 1.4631077647209167e-05 0.0 0.0 0.0 0.0
0.036 0.05201200023293495 0.014709928072988987 4.598870873451233e-06 3.0346214771270752e-05 0.0 0.0 0.0 0.0
0.037 0.05623336136341095 0.017166882753372192 -3.863777965307236e-05 4.277098923921585e-05 0.0 0.0 0.0 0.0
0.038 0.06053358316421509 0.018326615914702415 1.4414079487323761e-05 8.036382496356964e-06 0.0 0.0 0.0 0.0
0.039 0.06504791229963303 0.019207272678613663 -1.1374242603778839e-05 -4.7256238758563995e-05 0.0 0.0 0.0 0.0
0.04 0.06995882093906403 0.019030774012207985 2.3264437913894653e-06 1.9729137420654297e-05 0.0 0.0 0.0 0.0
0.041 0.0742579996585846 0.018370676785707474 -3.1460076570510864e-06 1.8172897398471832e-05 0.0 0.0 0.0 0.0
0.042 0.07881282269954681 0.016150735318660736 -2.6712194085121155e-05 -1.234840601682663e-05 0.0 0.0 0.0 0.0
0.043 0.08215118944644928 0.01339177880436182 -3.1395815312862396e-05 4.2469240725040436e-05 0.0 0.0 0.0 0.0
0.044 0.08575642853975296 0.01068148110061884 -4.3909065425395966e-05 6.9483183324337e-05 0.0 0.0 0.0 0.0
0.045 0.08774909377098083 0.006785063073039055 -6.128568202257156e-05 3.8300640881061554e-05 0.0 0.0 0.0 0.0
0.046 0.08943358063697815 0.0027049314230680466 -4.196818917989731e-05 3.0401162803173065e-05 0.0 0.0 0.0 0.0
0.047 0.08999202400445938 -0.001886439509689808 2.7009285986423492e-05 3.232620656490326e-05 0.0 0.0 0.0 0.0
0.048 0.08995489031076431 -0.006063949316740036 -6.126239895820618e-06 -1.481175422668457e-05 0.0 0.0 0.0 0.0
0.049 0.08932910859584808 -0.010017520748078823 -4.379637539386749e-05 -9.146519005298615e-06 0.0 0.0 0.0 0.0
0.05 0.08779662102460861 -0.014466389082372189 2.1548941731452942e-05 3.9664097130298615e-05 0.0 0.0 0.0 0.0
0.051 0.08525014668703079 -0.018078647553920746 -3.891531378030777e-05 2.195127308368683e-06 0.0 0.0 0.0 0.0
0.052 0.08132679760456085 -0.021473463624715805 2.055428922176361e-06 4.537217319011688e-05 0.0 0.0 0.0 0.0
0.053 0.07770174741744995 -0.023647919297218323 1.0980293154716492e-05 2.699345350265503e-05 0.0 0.0 0.0 0.0
0.054 0.07366720587015152 -0.025479253381490707 -4.91458922624588e-06 4.950258880853653e-05 0.0 0.0 0.0 0.0
0.055 0.06919214129447937 -0.02615717053413391 3.93744558095932e-05 -1.4719553291797638e-05 0.0 0.0 0.0 0.0
0.056 0.06533335894346237 -0.02625281549990177 1.2246891856193542e-05 2.5093555450439453e-05 0.0 0.0 0.0 0.0
0.057 0.06116834282875061 -0.0255784522742033 4.220660775899887e-05 4.284083843231201e-05 0.0 0.0 0.0 0.0
0.058 0.05709802359342575 -0.023987816646695137 0.00016769301146268845 1.5215016901493073e-05 0.0 0.0 0.0 0.0
0.059 0.05366692692041397 -0.021757973358035088 2.820044755935669e-05 -9.364448487758636e-06 0.0 0.0 0.0 0.0
0.06 0.05047556385397911 -0.01886044628918171 5.252473056316376e-05 -4.977919161319733e-05 0.0 0.0 0.0 0.0
0.061 0.04764888808131218 -0.015541445463895798 -4.470348358154297e-07 -0.00012611597776412964 0.0 0.0 0.0 0.0
0.062 0.04598909616470337 -0.012131810188293457 -0.00019021611660718918 -1.9657425582408905e-05 0.0 0.0 0.0 0.0
0.063 0.044956024736166 -0.008127017877995968 -0.00010318122804164886 1.6949139535427094e-05 0.0 0.0 0.0 0.0
0.064 0.044698428362607956 -0.0042274268344044685 -8.394569158554077e-05 7.812026888132095e-05 0.0 0.0 0.0 0.0
0.065 0.04499807581305504 -0.0005353707820177078 -4.793517291545868e-06 8.641369640827179e-05 0.0 0.0 0.0 0.0
0.066 0.04633502662181854 0.00341146532446146 3.391876816749573e-05 0.00015015248209238052 0.0 0.0 0.0 0.0
0.067 0.048139262944459915 0.0065885279327631 1.4462508261203766e-05 0.00016147270798683167 0.0 0.0 0.0 0.0
0.068 0.05076606571674347 0.009796259924769402 0.0001669740304350853 0.0001298021525144577 0.0 0.0 0.0 0.0
0.069 0.05354063957929611 0.012089420109987259 0.0003009829670190811 -6.649643182754517e-06 0.0 0.0 0.0 0.0
0.07 0.056887537240982056 0.013868654146790504 0.0001723235473036766 -0.00020596198737621307 0.0 0.0 0.0 0.0
0.071 0.06047224625945091 0.014838646166026592 1.737847924232483e-05 -0.00018069986253976822 0.0 0.0 0.0 0.0
0.072 0.06438156962394714 0.014882159419357777 -3.0162744224071503e-05 -0.00014408864080905914 0.0 0.0 0.0 0.0
0.073 0.06788312643766403 0.014782422222197056 -9.752996265888214e-05 -0.0001537613570690155 0.0 0.0 0.0 0.0
0.074 0.07135279476642609 0.013790659606456757 -0.00012441910803318024 -5.094893276691437e-05 0.0 0.0 0.0 0.0
0.075 0.07446277141571045 0.011457061395049095 -0.00013824645429849625 -7.773563265800476e-05 0.0 0.0 0.0 0.0
0.076 0.07662520557641983 0.009316358715295792 -0.00019089505076408386 -3.69558110833168e-05 0.0 0.0 0.0 0.0
0.077 0.07899636030197144 0.006314024329185486 -0.0001628650352358818 3.2320618629455566e-05 0.0 0.0 0.0 0.0
0.078 0.08031307905912399 0.0033113993704319 -0.00018516555428504944 3.41339036822319e-05 0.0 0.0 0.0 0.0
0.079 0.08099786937236786 -0.00040683522820472717 -0.000119771808385849 0.000164019875228405 0.0 0.0 0.0 0.0
0.08 0.08086645603179932 -0.0038963528349995613 -0.00010166410356760025 0.00020706839859485626 0.0 0.0 0.0 0.0
0.081 0.08054962754249573 -0.007635845802724361 4.417262971401215e-06 0.00028222333639860153 0.0 0.0 0.0 0.0
0.082 0.07879228889942169 -0.010675285942852497 0.00020476151257753372 0.0002740621566772461 0.0 0.0 0.0 0.0
0.083 0.07697093486785889 -0.01367007102817297 0.00034972745925188065 2.917461097240448e-05 0.0 0.0 0.0 0.0
0.084 0.07411903142929077 -0.0162335354834795 0.00021146610379219055 -0.00022371578961610794 0.0 0.0 0.0 0.0
0.085 0.07100597769021988 -0.018378356471657753 -1.62394717335701e-05 -0.00021831970661878586 0.0 0.0 0.0 0.0
0.086 0.06713420897722244 -0.019729359075427055 -0.0001147780567407608 -0.00019150320440530777 0.0 0.0 0.0 0.0
0.087 0.06345409154891968 -0.020463457331061363 -0.00016669463366270065 -0.0001591034233570099 0.0 0.0 0.0 0.0
0.088 0.060121551156044006 -0.02024209499359131 -0.0005906345322728157 -2.3115426301956177e-05 0.0 0.0 0.0 0.0
0.089 0.05573276802897453 -0.019096236675977707 -0.000279412604868412 -9.514205157756805e-05 0.0 0.0 0.0 0.0
0.09 0.05239613726735115 -0.01746218465268612 -0.00023790262639522552 0.00013464130461215973 0.0 0.0 0.0 0.0
0.091 0.04893789440393448 -0.015496011823415756 -0.00020019058138132095 0.00013555213809013367 0.0 0.0 0.0 0.0
0.092 0.045836303383111954 -0.012734102085232735 -9.530875831842422e-05 0.00027075503021478653 0.0 0.0 0.0 0.0
0.093 0.043781064450740814 -0.009824936278164387 -2.5078654289245605e-05 0.00036804284900426865 0.0 0.0 0.0 0.0
0.094 0.04154514893889427 -0.005561482161283493 0.00017750635743141174 0.0003859475255012512 0.0 0.0 0.0 0.0
0.095 0.040450289845466614 -0.0013664057478308678 0.0003759991377592087 0.0001754583790898323 0.0 0.0 0.0 0.0
0.096 0.04010897874832153 0.0029507800936698914 0.00033871643245220184 4.220660775899887e-05 0.0 0.0 0.0 0.0
0.097 0.040685832500457764 0.007190221920609474 0.00021453294903039932 -0.00017410703003406525 0.0 0.0 0.0 0.0
0.098 0.042358335107564926 0.01117959525436163 9.12100076675415e-05 -0.00016523152589797974 0.0 0.0 0.0 0.0
0.099 0.044223301112651825 0.014675932005047798 0.0001356564462184906 -0.00020868610590696335 0.0 0.0 0.0 0.0
0.1 0.04707781597971916 0.017654500901699066 8.428189903497696e-05 -0.00014348234981298447 0.0 0.0 0.0 0.0
0.101 0.0501227043569088 0.02074328064918518 2.457108348608017e-05 -0.0001233210787177086 0.0 0.0 0.0 0.0
0.102 0.053815245628356934 0.022589435800909996 -5.344301462173462e-05 -0.00013210996985435486 0.0 0.0 0.0 0.0
0.103 0.05778787285089493 0.023858392611145973 -4.949420690536499e-05 -4.21842560172081e-05 0.0 0.0 0.0 0.0
0.104 0.061398185789585114 0.024432793259620667 -4.5192427933216095e-05 -3.325659781694412e-05 0.0 0.0 0.0 0.0
0.105 0.06531710922718048 0.02466430328786373 -6.30812719464302e-05 -9.17511060833931e-05 0.0 0.0 0.0 0.0
0.106 0.06910475343465805 0.023896286264061928 -5.541183054447174e-05 -9.172502905130386e-05 0.0 0.0 0.0 0.0
0.107 0.07250503450632095 0.02245258539915085 -5.919020622968674e-05 -3.687571734189987e-05 0.0 0.0 0.0 0.0
0.108 0.07599301636219025 0.020074397325515747 -8.056871592998505e-06 -6.616115570068359e-06 0.0 0.0 0.0 0.0
0.109 0.07816363126039505 0.017533404752612114 -2.8576701879501343e-05 -7.026828825473785e-06 0.0 0.0 0.0 0.0
0.11 0.08044444769620895 0.014550977386534214 -5.0088390707969666e-05 6.404705345630646e-06 0.0 0.0 0.0 0.0
0.111 0.08199232071638107 0.01113792136311531 -0.00012088846415281296 2.58004292845726e-05 0.0 0.0 0.0 0.0
0.112 0.0827397033572197 0.007573398761451244 -1.875031739473343e-05 -1.0164454579353333e-05 0.0 0.0 0.0 0.0
0.113 0.08248471468687057 0.004451557993888855 -1.9280239939689636e-05 3.054831176996231e-05 0.0 0.0 0.0 0.0
0.114 0.08169262856245041 0.0007858965545892715 -1.9992701709270477e-05 4.120543599128723e-05 0.0 0.0 0.0 0.0
0.115 0.08046658337116241 -0.0019456855952739716 -8.925888687372208e-05 3.688782453536987e-05 0.0 0.0 0.0 0.0
0.116 0.0782630518078804 -0.004464605823159218 -3.067217767238617e-05 5.2694231271743774e-06 0.0 0.0 0.0 0.0
0.117 0.0758344903588295 -0.006928053684532642 -1.4154240489006042e-05 4.6737492084503174e-05 0.0 0.0 0.0 0.0
0.118 0.0731414407491684 -0.008268331177532673 -1.4176592230796814e-05 7.357168942689896e-05 0.0 0.0 0.0 0.0
0.119 0.070036381483078 -0.009323403239250183 2.398993819952011e-05 0.00010828021913766861 0.0 0.0 0.0 0.0
0.12 0.06726553291082382 -0.009821892715990543 -2.60770320892334e-06 0.00027335435152053833 0.0 0.0 0.0 0.0
0.121 0.06377928704023361 -0.009485247544944286 0.0001912340521812439 0.00015591178089380264 0.0 0.0 0.0 0.0
0.122 0.06055082753300667 -0.008320895954966545 0.00032964907586574554 -2.5019049644470215e-05 0.0 0.0 0.0 0.0
0.123 0.05805697664618492 -0.00673627108335495 0.0004930580034852028 -0.00023820623755455017 0.0 0.0 0.0 0.0
0.124 0.054914675652980804 -0.004362441599369049 0.00029223132878541946 -0.0005849804729223251 0.0 0.0 0.0 0.0
0.125 0.053033169358968735 -0.0015813400968909264 -0.00019966717809438705 -0.0006969133391976357 0.0 0.0 0.0 0.0
0.126 0.051099006086587906 0.002113121561706066 -0.0006214911118149757 -0.00043368060141801834 0.0 0.0 0.0 0.0
0.127 0.05009477585554123 0.005516299977898598 -0.0006469124928116798 -8.895061910152435e-05 0.0 0.0 0.0 0.0
0.128 0.05067472904920578 0.009340097196400166 -0.0005585737526416779 0.00020320992916822433 0.0 0.0 0.0 0.0
0.129 0.05181557312607765 0.012849478051066399 -0.0003043282777070999 0.0003069872036576271 0.0 0.0 0.0 0.0
0.13 0.05353477969765663 0.016481341794133186 -0.00021375622600317 0.0003494592383503914 0.0 0.0 0.0 0.0
0.131 0.05555875226855278 0.019640352576971054 -0.00012040697038173676 0.00043416209518909454 0.0 0.0 0.0 0.0
0.132 0.058681972324848175 0.022206543013453484 2.8776004910469055e-05 0.0004689916968345642 0.0 0.0 0.0 0.0
0.133 0.062087662518024445 0.024446561932563782 0.00015064049512147903 0.00046153832226991653 0.0 0.0 0.0 0.0
0.134 0.06609120965003967 0.025989260524511337 0.00023142248392105103 0.00038928259164094925 0.0 0.0 0.0 0.0
0.135 0.06996672600507736 0.026429587975144386 0.0003974493592977524 0.000386284664273262 0.0 0.0 0.0 0.0
0.136 0.07405553013086319 0.026554003357887268 0.0006466498598456383 0.0001842072233557701 0.0 0.0 0.0 0.0
0.137 0.07862669229507446 0.02560587227344513 0.0007028412073850632 -2.6133842766284943e-05 0.0 0.0 0.0 0.0
0.138 0.08250567317008972 0.0240771621465683 0.0005922755226492882 -0.00040647387504577637 0.0 0.0 0.0 0.0
0.139 0.08626633137464523 0.021795745939016342 0.00031502917408943176 -0.0005461936816573143 0.0 0.0 0.0 0.0
0.14 0.08947473019361496 0.018406013026833534 -7.934868335723877e-07 -0.00048558227717876434 0.0 0.0 0.0 0.0
0.141 0.0900467112660408 0.013693075627088547 -0.00013219565153121948 -0.0003089196979999542 0.0 0.0 0.0 0.0
0.142 0.09184957295656204 0.009655526839196682 -0.00017175544053316116 -0.00025189854204654694 0.0 0.0 0.0 0.0
0.143 0.09294525533914566 0.005837797187268734 -0.00023914314806461334 -0.0001744283363223076 0.0 0.0 0.0 0.0
0.144 0.09333910048007965 0.0010855672881007195 -6.037857383489609e-05 -2.5542452931404114e-05 0.0 0.0 0.0 0.0
0.145 0.09240446239709854 -0.0034606391564011574 -0.0001724138855934143 4.947185516357422e-06 0.0 0.0 0.0 0.0
0.146 0.09064587950706482 -0.007635698653757572 -0.0002235332503914833 4.6351924538612366e-05 0.0 0.0 0.0 0.0
0.147 0.08850225806236267 -0.011502189561724663 -0.0001653013750910759 6.508734077215195e-05 0.0 0.0 0.0 0.0
0.148 0.08551657944917679 -0.015020069666206837 -0.00013940222561359406 7.474981248378754e-05 0.0 0.0 0.0 0.0
0.149 0.08222646266222 -0.017593475058674812 -0.00012088194489479065 8.936971426010132e-05 0.0 0.0 0.0 0.0
0.15 0.0779004842042923 -0.01993796043097973 -0.0001024976372718811 0.00010148715227842331 0.0 0.0 0.0 0.0
0.151 0.07356828451156616 -0.021288665011525154 -8.105114102363586e-05 0.00011088419705629349 0.0 0.0 0.0 0.0
0.152 0.06897767633199692 -0.02173013985157013 -4.1943974792957306e-05 0.00018199719488620758 0.0 0.0 0.0 0.0
0.153 0.06440117955207825 -0.02144080214202404 -3.413669764995575e-05 0.00011496059596538544 0.0 0.0 0.0 0.0
0.154 0.05953262001276016 -0.020350860431790352 -5.038455128669739e-06 0.00014517363160848618 0.0 0.0 0.0 0.0
0.155 0.05562898516654968 -0.018535951152443886 3.384426236152649e-05 0.00012042652815580368 0.0 0.0 0.0 0.0
0.156 0.051636308431625366 -0.015764378011226654 2.711452543735504e-05 6.103143095970154e-05 0.0 0.0 0.0 0.0
0.157 0.04841509088873863 -0.012425602413713932 6.886012852191925e-05 0.00012868177145719528 0.0 0.0 0.0 0.0
0.158 0.04609819874167442 -0.008422942832112312 6.124190986156464e-05 8.05780291557312e-05 0.0 0.0 0.0 0.0
0.159 0.044438526034355164 -0.0039027072489261627 0.00011237617582082748 0.00012419186532497406 0.0 0.0 0.0 0.0
0.16 0.043293166905641556 0.0008295187726616859 0.0001488393172621727 7.21421092748642e-05 0.0 0.0 0.0 0.0
0.161 0.04318142309784889 0.005681886337697506 0.0002130027860403061 0.0001302417367696762 0.0 0.0 0.0 0.0
0.162 0.043944891542196274 0.010172046720981598 0.00024547986686229706 -4.331115633249283e-05 0.0 0.0 0.0 0.0
0.163 0.04582705348730087 0.014428548514842987 0.00024637486785650253 -8.461717516183853e-05 0.0 0.0 0.0 0.0
0.164 0.048424188047647476 0.018558481708168983 0.00026772357523441315 -0.00018762052059173584 0.0 0.0 0.0 0.0
0.165 0.051591113209724426 0.02246469259262085 0.00021992530673742294 -0.00030266866087913513 0.0 0.0 0.0 0.0
0.166 0.05550135299563408 0.02538944222033024 7.588602602481842e-05 -0.0004090992733836174 0.0 0.0 0.0 0.0
0.167 0.05970141664147377 0.027940496802330017 -0.0001381654292345047 -0.0004441458731889725 0.0 0.0 0.0 0.0
0.168 0.06444228440523148 0.02934638038277626 -0.00020464323461055756 -0.00034501682966947556 0.0 0.0 0.0 0.0
0.169 0.06928442418575287 0.030168455094099045 -0.0003555072471499443 -0.00013499241322278976 0.0 0.0 0.0 0.0
0.17 0.07393686473369598 0.030002573505043983 -0.0002975407987833023 -5.338340997695923e-05 0.0 0.0 0.0 0.0
0.171 0.07890839874744415 0.02890840917825699 -0.000309712253510952 6.530154496431351e-05 0.0 0.0 0.0 0.0
0.172 0.08322601020336151 0.026430020108819008 -0.00028669554740190506 0.00011651404201984406 0.0 0.0 0.0 0.0
0.173 0.0869106724858284 0.024004222825169563 -0.0002836305648088455 0.00016760174185037613 0.0 0.0 0.0 0.0
0.174 0.09015168994665146 0.020447982475161552 -0.00018294807523488998 0.0002127205953001976 0.0 0.0 0.0 0.0
0.175 0.09273803979158401 0.01647488959133625 -0.00010001007467508316 0.0002603549510240555 0.0 0.0 0.0 0.0
0.176 0.09494581073522568 0.01213547307997942 -7.317308336496353e-05 0.00024625007063150406 0.0 0.0 0.0 0.0
0.177 0.09605114907026291 0.007319368422031403 -8.89534130692482e-05 0.000326753593981266 0.0 0.0 0.0 0.0
0.178 0.09573842585086823 0.002256198786199093 1.524854451417923e-05 0.00035396963357925415 0.0 0.0 0.0 0.0
0.179 0.09506499022245407 -0.002213185653090477 0.00011516083031892776 0.00030751992017030716 0.0 0.0 0.0 0.0
0.18 0.09356880187988281 -0.005936772562563419 0.0002141408622264862 0.0002995627000927925 0.0 0.0 0.0 0.0
0.181 0.09105856716632843 -0.010142384096980095 0.000270327553153038 0.0003146221861243248 0.0 0.0 0.0 0.0
0.182 0.08819066733121872 -0.013603025116026402 0.00034543126821517944 0.00026815105229616165 0.0 0.0 0.0 0.0
