!Created with skrf (http://scikit-rf.org).
# GHz S RI R 50.0 
!freq ReS11 ImS11 ReS21 ImS21 ReS12 ImS12 ReS22 ImS22
0.001 -0.6442164182662964 0.1416187882423401 -4.8968009650707245e-05 2.9509887099266052e-05 0.0 0.0 0.0 0.0
0.002 -0.6022272706031799 0.2699902355670929 -1.6713514924049377e-05 -4.0298327803611755e-06 0.0 0.0 0.0 0.0
0.003 -0.5417413711547852 0.389862984418869 -4.746578633785248e-05 -1.896638423204422e-05 0.0 0.0 0.0 0.0
0.004 -0.4618859887123108 0.4972015917301178 1.0468997061252594e-05 -3.232620656490326e-06 0.0 0.0 0.0 0.0
0.005 -0.3652663826942444 0.5913633704185486 3.724079579114914e-05 5.58607280254364e-06 0.0 0.0 0.0 0.0
0.006 -0.25111469626426697 0.6690900325775146 1.987908035516739e-05 1.1492520570755005e-05 0.0 0.0 0.0 0.0
0.007 -0.12295663356781006 0.7273988723754883 4.6156346797943115e-06 -1.4126300811767578e-05 0.0 0.0 0.0 0.0
0.008 0.01854395866394043 0.7631309032440186 -4.1872262954711914e-05 -1.1222437024116516e-05 0.0 0.0 0.0 0.0
0.009 0.16831250488758087 0.7717674970626831 -2.3976899683475494e-05 -9.582377970218658e-06 0.0 0.0 0.0 0.0
0.01 0.3237537443637848 0.7509365081787109 -8.502975106239319e-07 -5.4426491260528564e-06 0.0 0.0 0.0 0.0
0.011 0.4754323363304138 0.6958356499671936 -1.8670223653316498e-05 6.56861811876297e-06 0.0 0.0 0.0 0.0
0.012 0.6175865530967712 0.6080964207649231 4.2086467146873474e-05 -6.758887320756912e-05 0.0 0.0 0.0 0.0
0.013 0.7398653626441956 0.48761463165283203 -3.487337380647659e-05 -5.6510791182518005e-05 0.0 0.0 0.0 0.0
0.014 0.834162712097168 0.33973419666290283 -1.0342337191104889e-05 4.5112334191799164e-05 0.0 0.0 0.0 0.0
0.015 0.8930330872535706 0.17122782766819 -5.645677447319031e-05 -2.4517998099327087e-05 0.0 0.0 0.0 0.0
0.016 0.9117613434791565 -0.00871370080858469 -4.40794974565506e-05 1.518242061138153e-05 0.0 0.0 0.0 0.0
0.017 0.886955738067627 -0.1860884577035904 -3.091245889663696e-05 1.7753802239894867e-05 0.0 0.0 0.0 0.0
0.018 0.8225039839744568 -0.35013267397880554 -3.200862556695938e-05 6.193574517965317e-05 0.0 0.0 0.0 0.0
0.019 0.7252078056335449 -0.4917997121810913 7.4552372097969055e-06 -9.027309715747833e-06 0.0 0.0 0.0 0.0
0.02 0.6023240089416504 -0.6056867241859436 -2.455897629261017e-06 1.5740282833576202e-05 0.0 0.0 0.0 0.0
0.021 0.4628991186618805 -0.6875671744346619 3.254413604736328e-05 -3.4117139875888824e-05 0.0 0.0 0.0 0.0
0.022 0.3157440423965454 -0.7362241148948669 5.088746547698975e-06 -4.159659147262573e-05 0.0 0.0 0.0 0.0
0.023 0.16805195808410645 -0.7532646656036377 -7.034651935100555e-05 -1.117028295993805e-05 0.0 0.0 0.0 0.0
0.024 0.026384370401501656 -0.7429621815681458 4.881061613559723e-06 -1.020822674036026e-05 0.0 0.0 0.0 0.0
0.025 -0.1050637736916542 -0.7077534198760986 7.167458534240723e-05 4.689861088991165e-05 0.0 0.0 0.0 0.0
0.026 -0.22540712356567383 -0.652019739151001 -9.474344551563263e-06 -4.7645531594753265e-05 0.0 0.0 0.0 0.0
0.027 -0.3309510350227356 -0.5794471502304077 2.3543834686279297e-05 8.707866072654724e-06 0.0 0.0 0.0 0.0
0.028 -0.41835418343544006 -0.49295520782470703 4.213303327560425e-06 -4.527997225522995e-05 0.0 0.0 0.0 0.0
0.029 -0.4905300736427307 -0.3956177532672882 1.928955316543579e-05 -1.5719793736934662e-05 0.0 0.0 0.0 0.0
0.03 -0.5448011159896851 -0.2906166911125183 -4.4893473386764526e-05 4.4230371713638306e-05 0.0 0.0 0.0 0.0
0.031 -0.581599235534668 -0.17823204398155212 -8.959323167800903e-07 1.1758878827095032e-05 0.0 0.0 0.0 0.0
0.032 -0.6003414392471313 -0.06397465616464615 -1.5672296285629272e-05 -3.187451511621475e-05 0.0 0.0 0.0 0.0
0.033 -0.6012707948684692 0.05208299681544304 4.3465755879879e-05 1.0851770639419556e-05 0.0 0.0 0.0 0.0
0.034 -0.5841267108917236 0.16920249164104462 -2.781953662633896e-05 2.1870248019695282e-05 0.0 0.0 0.0 0.0
0.035 -0.5482675433158875 0.28340932726860046 2.2110529243946075e-05 3.097113221883774e-05 0.0 0.0 0.0 0.0
0.036 -0.4926803410053253 0.39188307523727417 3.812648355960846e-05 3.31047922372818e-05 0.0 0.0 0.0 0.0
0.037 -0.41827109456062317 0.4919648766517639 7.648952305316925e-06 -4.4745393097400665e-05 0.0 0.0 0.0 0.0
0.038 -0.32376232743263245 0.5810383558273315 5.308818072080612e-05 -4.383735358715057e-06 0.0 0.0 0.0 0.0
0.039 -0.21338096261024475 0.6537898182868958 7.89295881986618e-06 3.998167812824249e-06 0.0 0.0 0.0 0.0
0.04 -0.08623291552066803 0.7064852714538574 -1.4001503586769104e-05 6.670132279396057e-06 0.0 0.0 0.0 0.0
0.041 0.053459133952856064 0.7350082993507385 -3.849156200885773e-06 2.392195165157318e-05 0.0 0.0 0.0 0.0
0.042 0.20148517191410065 0.7342544794082642 -1.5614554286003113e-05 3.889948129653931e-05 0.0 0.0 0.0 0.0
0.043 0.3513537645339966 0.7023104429244995 2.249050885438919e-05 -2.000480890274048e-05 0.0 0.0 0.0 0.0
0.044 0.4944055378437042 0.6379461288452148 2.0178966224193573e-05 -8.838251233100891e-06 0.0 0.0 0.0 0.0
0.045 0.6225035190582275 0.5406539440155029 -1.368299126625061e-05 2.3154541850090027e-05 0.0 0.0 0.0 0.0
0.046 0.7284117341041565 0.41442808508872986 9.043142199516296e-06 -2.159643918275833e-05 0.0 0.0 0.0 0.0
0.047 0.8027763366699219 0.26626428961753845 -1.3491138815879822e-05 5.81890344619751e-06 0.0 0.0 0.0 0.0
0.048 0.8420360088348389 0.10331793129444122 -5.7726167142391205e-05 9.75094735622406e-07 0.0 0.0 0.0 0.0
0.049 0.8408975601196289 -0.061270345002412796 1.6738660633563995e-05 3.2084062695503235e-05 0.0 0.0 0.0 0.0
0.05 0.8050981163978577 -0.2193714827299118 -1.5752390027046204e-05 -1.2408941984176636e-05 0.0 0.0 0.0 0.0
0.051 0.7354228496551514 -0.360443651676178 1.9050203263759613e-05 -6.45313411951065e-05 0.0 0.0 0.0 0.0
0.052 0.6397571563720703 -0.47970083355903625 -2.8703361749649048e-05 2.862885594367981e-05 0.0 0.0 0.0 0.0
0.053 0.5251030325889587 -0.57402104139328 3.358814865350723e-05 -1.8398277461528778e-05 0.0 0.0 0.0 0.0
0.054 0.39954674243927 -0.639961302280426 -3.171060234308243e-05 -1.429487019777298e-05 0.0 0.0 0.0 0.0
0.055 0.2679938077926636 -0.6788469552993774 -2.3745931684970856e-05 -1.2884847819805145e-05 0.0 0.0 0.0 0.0
0.056 0.13741658627986908 -0.6902947425842285 -2.2919848561286926e-05 -1.6070902347564697e-05 0.0 0.0 0.0 0.0
0.057 0.010159818455576897 -0.6794058084487915 3.650598227977753e-05 4.189740866422653e-05 0.0 0.0 0.0 0.0
0.058 -0.10795226693153381 -0.6478672027587891 6.955023854970932e-05 0.00014786329120397568 0.0 0.0 0.0 0.0
0.059 -0.2158246785402298 -0.5987672805786133 3.504287451505661e-05 5.66430389881134e-05 0.0 0.0 0.0 0.0
0.06 -0.3130881190299988 -0.5333161950111389 6.205402314662933e-05 1.5393830835819244e-05 0.0 0.0 0.0 0.0
0.061 -0.39537113904953003 -0.4551856815814972 0.00012248102575540543 -9.930506348609924e-05 0.0 0.0 0.0 0.0
0.062 -0.46482208371162415 -0.3660781681537628 -5.4370611906051636e-06 -0.00020224973559379578 0.0 0.0 0.0 0.0
0.063 -0.5175577402114868 -0.26770713925361633 -0.00011525582522153854 -8.090585470199585e-05 0.0 0.0 0.0 0.0
0.064 -0.5549563765525818 -0.1636580377817154 -0.00012789946049451828 -4.3334439396858215e-06 0.0 0.0 0.0 0.0
0.065 -0.5760995149612427 -0.0534774512052536 -0.00011990126222372055 4.3025240302085876e-05 0.0 0.0 0.0 0.0
0.066 -0.5778082609176636 0.06008274853229523 -0.0001204097643494606 6.315670907497406e-05 0.0 0.0 0.0 0.0
0.067 -0.5625615119934082 0.1740502268075943 -0.0001380573958158493 0.0002491539344191551 0.0 0.0 0.0 0.0
0.068 -0.5268495678901672 0.2866609990596771 -5.228444933891296e-06 0.00037611275911331177 0.0 0.0 0.0 0.0
0.069 -0.4717918634414673 0.3947337567806244 0.0004316316917538643 0.0002918653190135956 0.0 0.0 0.0 0.0
0.07 -0.3964073359966278 0.49290743470191956 0.0004423130303621292 -7.249508053064346e-05 0.0 0.0 0.0 0.0
0.071 -0.3016262352466583 0.5797666907310486 0.0002760123461484909 -0.0002897735685110092 0.0 0.0 0.0 0.0
0.072 -0.18784160912036896 0.6499404907226562 0.00012178067117929459 -0.0002739978954195976 0.0 0.0 0.0 0.0
0.073 -0.05861251801252365 0.6970616579055786 1.8958933651447296e-05 -0.0002974672242999077 0.0 0.0 0.0 0.0
0.074 0.08307217806577682 0.7181747555732727 -7.227621972560883e-05 -0.00030596740543842316 0.0 0.0 0.0 0.0
0.075 0.22987185418605804 0.710411548614502 -0.00014238804578781128 -0.00024077855050563812 0.0 0.0 0.0 0.0
0.076 0.37586018443107605 0.6680581569671631 -0.00023655220866203308 -0.00024117622524499893 0.0 0.0 0.0 0.0
0.077 0.511700451374054 0.5940316915512085 -0.00032867491245269775 -0.00019860733300447464 0.0 0.0 0.0 0.0
0.078 0.6291545629501343 0.48924779891967773 -0.00037155114114284515 -3.6563724279403687e-05 0.0 0.0 0.0 0.0
0.079 0.7205339074134827 0.35953542590141296 -0.0004363143816590309 3.6893412470817566e-05 0.0 0.0 0.0 0.0
0.08 0.7787759304046631 0.21198610961437225 -0.0004628133028745651 0.00022179819643497467 0.0 0.0 0.0 0.0
0.081 0.8020122647285461 0.05622762069106102 -0.0004977257922291756 0.0005160020664334297 0.0 0.0 0.0 0.0
0.082 0.7903526425361633 -0.09635520726442337 -0.00013486016541719437 0.000661817379295826 0.0 0.0 0.0 0.0
0.083 0.7457270622253418 -0.23947642743587494 0.0004236958920955658 0.0005445433780550957 0.0 0.0 0.0 0.0
0.084 0.6753987669944763 -0.366252601146698 0.0005240608006715775 4.2321160435676575e-05 0.0 0.0 0.0 0.0
0.085 0.5815395712852478 -0.4727063775062561 0.0002751471474766731 -3.030337393283844e-05 0.0 0.0 0.0 0.0
0.086 0.473227322101593 -0.5532495379447937 0.00021956488490104675 -0.00010946206748485565 0.0 0.0 0.0 0.0
0.087 0.35480251908302307 -0.6105082631111145 9.323656558990479e-05 -0.00015815626829862595 0.0 0.0 0.0 0.0
0.088 0.2323026806116104 -0.6431911587715149 1.4115124940872192e-05 -9.056925773620605e-05 0.0 0.0 0.0 0.0
0.089 0.11042341589927673 -0.6524824500083923 -2.1148473024368286e-05 7.662083953619003e-05 0.0 0.0 0.0 0.0
0.09 -0.007404071278870106 -0.6415411829948425 -2.794060856103897e-05 -3.546103835105896e-05 0.0 0.0 0.0 0.0
0.091 -0.11865440011024475 -0.6110692024230957 -3.6055222153663635e-05 -7.245410233736038e-05 0.0 0.0 0.0 0.0
0.092 -0.22063970565795898 -0.5636205673217773 -4.634913057088852e-05 -2.392008900642395e-05 0.0 0.0 0.0 0.0
0.093 -0.31315848231315613 -0.5019694566726685 -8.74977558851242e-05 -6.072875112295151e-05 0.0 0.0 0.0 0.0
0.094 -0.3911803662776947 -0.42628535628318787 -0.00013277772814035416 -4.005618393421173e-06 0.0 0.0 0.0 0.0
0.095 -0.45818495750427246 -0.3405718505382538 -4.371721297502518e-05 0.00011363904923200607 0.0 0.0 0.0 0.0
0.096 -0.5100415945053101 -0.24538233876228333 6.917864084243774e-06 -5.623325705528259e-06 0.0 0.0 0.0 0.0
0.097 -0.5471181869506836 -0.1407562643289566 6.0908496379852295e-05 2.1276064217090607e-05 0.0 0.0 0.0 0.0
0.098 -0.5666616559028625 -0.032637618482112885 8.769705891609192e-05 2.775341272354126e-05 0.0 0.0 0.0 0.0
0.099 -0.5684832334518433 0.08038119226694107 7.005780935287476e-05 2.7094967663288116e-05 0.0 0.0 0.0 0.0
0.1 -0.5506900548934937 0.19596043229103088 4.686042666435242e-05 -2.1433457732200623e-05 0.0 0.0 0.0 0.0
0.101 -0.5126128196716309 0.30637824535369873 8.60653817653656e-05 6.252527236938477e-05 0.0 0.0 0.0 0.0
0.102 -0.4543517529964447 0.41337451338768005 4.7501176595687866e-05 -2.620834857225418e-05 0.0 0.0 0.0 0.0
0.103 -0.37532681226730347 0.5110001564025879 3.885291516780853e-05 -2.9027462005615234e-05 0.0 0.0 0.0 0.0
0.104 -0.2761547863483429 0.5934680104255676 2.0059756934642792e-05 1.6995705664157867e-05 0.0 0.0 0.0 0.0
0.105 -0.15911144018173218 0.6585600972175598 -1.0252930223941803e-05 -9.997934103012085e-05 0.0 0.0 0.0 0.0
0.106 -0.02779851108789444 0.6990578174591064 2.6464462280273438e-05 -3.9353035390377045e-05 0.0 0.0 0.0 0.0
0.107 0.11246930062770844 0.7120480537414551 -2.1695159375667572e-05 -3.158394247293472e-05 0.0 0.0 0.0 0.0
0.108 0.25738415122032166 0.6951897144317627 0.00012127310037612915 -7.061287760734558e-06 0.0 0.0 0.0 0.0
0.109 0.39669865369796753 0.6458626985549927 -1.0165385901927948e-05 -3.5130418837070465e-05 0.0 0.0 0.0 0.0
0.11 0.5231780409812927 0.5647022724151611 -2.9101967811584473e-05 -1.6775913536548615e-05 0.0 0.0 0.0 0.0
0.111 0.6310864686965942 0.45746466517448425 2.1498650312423706e-05 -3.30926850438118e-05 0.0 0.0 0.0 0.0
0.112 0.7105687260627747 0.3288072943687439 3.0118972063064575e-05 4.9853697419166565e-06 0.0 0.0 0.0 0.0
0.113 0.7590073943138123 0.1873006820678711 -6.676558405160904e-05 -1.3294629752635956e-05 0.0 0.0 0.0 0.0
0.114 0.7749411463737488 0.04141373559832573 -3.302842378616333e-05 -5.800090730190277e-05 0.0 0.0 0.0 0.0
0.115 0.7593340873718262 -0.10271158814430237 -1.4935620129108429e-05 -6.333738565444946e-05 0.0 0.0 0.0 0.0
0.116 0.7144752740859985 -0.23561476171016693 -6.275810301303864e-05 -5.898997187614441e-06 0.0 0.0 0.0 0.0
0.117 0.6459238529205322 -0.35280752182006836 -6.611645221710205e-05 -3.98317351937294e-05 0.0 0.0 0.0 0.0
0.118 0.5577092170715332 -0.45156827569007874 -0.00011507701128721237 -4.588533192873001e-05 0.0 0.0 0.0 0.0
0.119 0.45630943775177 -0.5279862880706787 -0.00012026913464069366 3.6825425922870636e-05 0.0 0.0 0.0 0.0
0.12 0.345302015542984 -0.5828693509101868 -0.00013799499720335007 8.40798020362854e-05 0.0 0.0 0.0 0.0
0.121 0.22925534844398499 -0.6148961186408997 -0.00014461856335401535 0.00022174790501594543 0.0 0.0 0.0 0.0
0.122 0.11220540851354599 -0.6254957318305969 5.1043927669525146e-05 0.0003467230126261711 0.0 0.0 0.0 0.0
0.123 -0.0009696539491415024 -0.6168940663337708 0.00030081626027822495 0.0002750363200902939 0.0 0.0 0.0 0.0
0.124 -0.10997112840414047 -0.5896099805831909 0.00047707557678222656 -8.26176255941391e-06 0.0 0.0 0.0 0.0
0.125 -0.21046330034732819 -0.5448214411735535 0.00041365716606378555 -0.0003945259377360344 0.0 0.0 0.0 0.0
0.126 -0.302560418844223 -0.4853236973285675 4.0199607610702515e-05 -0.00047843530774116516 0.0 0.0 0.0 0.0
0.127 -0.38392171263694763 -0.41160914301872253 -0.0001789536327123642 -0.0004452187567949295 0.0 0.0 0.0 0.0
0.128 -0.45138171315193176 -0.3255739212036133 -0.0003662882372736931 -0.00023674685508012772 0.0 0.0 0.0 0.0
0.129 -0.5046294331550598 -0.22965075075626373 -0.0003819921985268593 -9.422004222869873e-05 0.0 0.0 0.0 0.0
0.13 -0.5418990254402161 -0.12266626209020615 -0.00046079885214567184 7.569883018732071e-05 0.0 0.0 0.0 0.0
0.131 -0.559718906879425 -0.010408374480903149 -0.00038999225944280624 0.00019557587802410126 0.0 0.0 0.0 0.0
0.132 -0.5590739846229553 0.10560116916894913 -0.0002864859998226166 0.00028440821915864944 0.0 0.0 0.0 0.0
0.133 -0.5357699990272522 0.22221530973911285 -0.00020095892250537872 0.00039915740489959717 0.0 0.0 0.0 0.0
0.134 -0.4922136664390564 0.33613911271095276 -0.00011710729449987411 0.0005616499111056328 0.0 0.0 0.0 0.0
0.135 -0.4253982603549957 0.44206419587135315 0.00016319286078214645 0.0007082298398017883 0.0 0.0 0.0 0.0
0.136 -0.3375002145767212 0.5364611744880676 0.0003912048414349556 0.0006655007600784302 0.0 0.0 0.0 0.0
0.137 -0.22909705340862274 0.6135184168815613 0.0008293436840176582 0.000488785095512867 0.0 0.0 0.0 0.0
0.138 -0.10522592067718506 0.6684530973434448 0.0010227495804429054 -7.166527211666107e-05 0.0 0.0 0.0 0.0
0.139 0.030081722885370255 0.6983424425125122 0.0007632272318005562 -0.0005805781111121178 0.0 0.0 0.0 0.0
0.14 0.17204146087169647 0.6968845129013062 0.0003213323652744293 -0.0007053008303046227 0.0 0.0 0.0 0.0
0.141 0.3057134747505188 0.6425724029541016 2.3651868104934692e-05 -0.0006263162940740585 0.0 0.0 0.0 0.0
0.142 0.4329124689102173 0.5848147869110107 -0.00012533552944660187 -0.000525779090821743 0.0 0.0 0.0 0.0
0.143 0.5457585453987122 0.4996921122074127 -0.00027242209762334824 -0.00038708001375198364 0.0 0.0 0.0 0.0
0.144 0.6377066373825073 0.39127475023269653 -0.00040029827505350113 -0.00029649585485458374 0.0 0.0 0.0 0.0
0.145 0.704035222530365 0.26525941491127014 -0.00033699534833431244 -0.00012576766312122345 0.0 0.0 0.0 0.0
0.146 0.7402617335319519 0.12889443337917328 -0.00029988959431648254 4.865042865276337e-05 0.0 0.0 0.0 0.0
0.147 0.7457212805747986 -0.00971400085836649 -0.0003205360844731331 4.40916046500206e-05 0.0 0.0 0.0 0.0
0.148 0.7219703197479248 -0.14403565227985382 -0.00023428257554769516 0.00011239573359489441 0.0 0.0 0.0 0.0
0.149 0.6722058057785034 -0.266899973154068 -0.00020807981491088867 0.00015178974717855453 0.0 0.0 0.0 0.0
0.15 0.6000824570655823 -0.3744305372238159 -0.00016487762331962585 0.00025114603340625763 0.0 0.0 0.0 0.0
0.151 0.5105797052383423 -0.46264445781707764 -0.00013887416571378708 0.00019773002713918686 0.0 0.0 0.0 0.0
0.152 0.40905219316482544 -0.5303446054458618 -3.888830542564392e-05 0.00020918063819408417 0.0 0.0 0.0 0.0
0.153 0.2998153567314148 -0.5759819149971008 9.731389582157135e-06 0.00022936612367630005 0.0 0.0 0.0 0.0
0.154 0.18752272427082062 -0.600540280342102 5.610845983028412e-05 0.00018730666488409042 0.0 0.0 0.0 0.0
0.155 0.07464659214019775 -0.6043431758880615 0.00010193418711423874 0.00018355436623096466 0.0 0.0 0.0 0.0
0.156 -0.03340892493724823 -0.5896359086036682 0.0001478707417845726 0.00018701329827308655 0.0 0.0 0.0 0.0
0.157 -0.1363079696893692 -0.5564885139465332 0.0001806085929274559 0.0001065647229552269 0.0 0.0 0.0 0.0
0.158 -0.2308272123336792 -0.508091151714325 0.0001859273761510849 6.542354822158813e-05 0.0 0.0 0.0 0.0
0.159 -0.314161479473114 -0.44560348987579346 0.00019655004143714905 6.908178329467773e-05 0.0 0.0 0.0 0.0
0.16 -0.3869782090187073 -0.3700830638408661 0.00022817496210336685 -1.5463680028915405e-05 0.0 0.0 0.0 0.0
0.161 -0.44604313373565674 -0.28393521904945374 0.0003353310748934746 -0.00018502771854400635 0.0 0.0 0.0 0.0
0.162 -0.4908864498138428 -0.18842801451683044 0.00029192958027124405 -8.838064968585968e-05 0.0 0.0 0.0 0.0
0.163 -0.5192121267318726 -0.08703290671110153 0.00028232019394636154 -0.0002290746197104454 0.0 0.0 0.0 0.0
0.164 -0.5295828580856323 0.020514577627182007 0.00014624744653701782 -0.0003798827528953552 0.0 0.0 0.0 0.0
0.165 -0.5224039554595947 0.1291564702987671 8.484348654747009e-07 -0.00038661807775497437 0.0 0.0 0.0 0.0
0.166 -0.49617478251457214 0.23746725916862488 -0.0002432689070701599 -0.0004118075594305992 0.0 0.0 0.0 0.0
0.167 -0.4488982856273651 0.3416125476360321 -0.0003506680950522423 -0.00019068457186222076 0.0 0.0 0.0 0.0
0.168 -0.38244345784187317 0.43846574425697327 -0.00046845898032188416 4.098378121852875e-05 0.0 0.0 0.0 0.0
0.169 -0.29665079712867737 0.5228503346443176 -0.00029676780104637146 6.723962724208832e-05 0.0 0.0 0.0 0.0
0.17 -0.1928168684244156 0.5913954973220825 -0.00021710246801376343 0.00017586909234523773 0.0 0.0 0.0 0.0
0.171 -0.0751979649066925 0.63866126537323 -0.00012307334691286087 0.00020442157983779907 0.0 0.0 0.0 0.0
0.172 0.05377720668911934 0.6621994376182556 -8.380226790904999e-05 0.00014566443860530853 0.0 0.0 0.0 0.0
0.173 0.18716105818748474 0.6580837965011597 -1.463480293750763e-05 0.00017576199024915695 0.0 0.0 0.0 0.0
0.174 0.3175640404224396 0.6243899464607239 3.010965883731842e-06 9.340420365333557e-05 0.0 0.0 0.0 0.0
0.175 0.4400593936443329 0.563278079032898 4.9542635679244995e-05 8.357502520084381e-05 0.0 0.0 0.0 0.0
0.176 0.5469034314155579 0.47626611590385437 6.784684956073761e-05 6.439071148633957e-05 0.0 0.0 0.0 0.0
0.177 0.6313803195953369 0.36794450879096985 4.740338772535324e-05 0.0001027500256896019 0.0 0.0 0.0 0.0
0.178 0.6911849975585938 0.24556751549243927 3.357697278261185e-05 0.00010766088962554932 0.0 0.0 0.0 0.0
0.179 0.7218912243843079 0.11435650289058685 5.030632019042969e-05 5.473289638757706e-05 0.0 0.0 0.0 0.0
0.18 0.724118709564209 -0.017571305856108665 1.2851320207118988e-05 9.692367166280746e-05 0.0 0.0 0.0 0.0
0.181 0.6989369988441467 -0.1446772664785385 5.78342005610466e-05 0.00010235793888568878 0.0 0.0 0.0 0.0
0.182 0.6504970788955688 -0.2608778774738312 0.00011586025357246399 0.00011532194912433624 0.0 0.0 0.0 0.0
0.183 0.5809802412986755 -0.3616386651992798 0.0001962939277291298 5.606934428215027e-05 0.0 0.0 0.0 0.0
0.184 0.49611297249794006 -0.4445590376853943 0.00025057513266801834 0.00010312628000974655 0.0 0.0 0.0 0.0
0.185 0.4002191424369812 -0.508135974407196 0.00022702571004629135 -2.5161541998386383e-05 0.0 0.0 0.0 0.0
