!Created with skrf (http://scikit-rf.org).
# GHz S RI R 50.0 
!freq ReS11 ImS11 ReS21 ImS21 ReS12 ImS12 ReS22 ImS22
0.001 0.9753659963607788 -0.20415249466896057 1.0170973837375641e-05 -5.4640695452690125e-06 0.0 0.0 0.0 0.0
0.002 0.897840142250061 -0.392279714345932 -1.1920928955078125e-06 -1.6493722796440125e-05 0.0 0.0 0.0 0.0
0.003 0.7826694250106812 -0.5521293878555298 2.709869295358658e-05 5.866400897502899e-06 0.0 0.0 0.0 0.0
0.004 0.6391451954841614 -0.6760692596435547 -2.8731301426887512e-06 -3.287661820650101e-05 0.0 0.0 0.0 0.0
0.005 0.47760605812072754 -0.7610787153244019 1.5626661479473114e-05 2.9690563678741455e-06 0.0 0.0 0.0 0.0
0.006 0.3098045587539673 -0.8058311343193054 -5.782581865787506e-06 1.0526739060878754e-05 0.0 0.0 0.0 0.0
0.007 0.14481499791145325 -0.8154112696647644 -3.177672624588013e-05 -7.222406566143036e-06 0.0 0.0 0.0 0.0
0.008 -0.011352723464369774 -0.7938235402107239 -6.358698010444641e-05 5.3470954298973083e-05 0.0 0.0 0.0 0.0
0.009 -0.15371865034103394 -0.7447221279144287 -3.3503398299217224e-05 3.79662960767746e-05 0.0 0.0 0.0 0.0
0.01 -0.27730411291122437 -0.6741111874580383 3.327801823616028e-05 -2.052541822195053e-05 0.0 0.0 0.0 0.0
0.011 -0.3839801251888275 -0.5870042443275452 6.638467311859131e-06 5.657784640789032e-05 0.0 0.0 0.0 0.0
0.012 -0.471102237701416 -0.4870501756668091 2.922210842370987e-05 3.7802383303642273e-06 0.0 0.0 0.0 0.0
0.013 -0.5378458499908447 -0.37751680612564087 3.0986033380031586e-05 -5.526188760995865e-05 0.0 0.0 0.0 0.0
0.014 -0.5863730907440186 -0.26130661368370056 -3.740377724170685e-05 -2.6253052055835724e-05 0.0 0.0 0.0 0.0
0.015 -0.6152215003967285 -0.1418517380952835 -1.5618279576301575e-05 -3.358442336320877e-05 0.0 0.0 0.0 0.0
0.016 -0.6246345639228821 -0.02130097895860672 -1.7532147467136383e-05 1.6176141798496246e-05 0.0 0.0 0.0 0.0
0.017 -0.6159734129905701 0.0996672660112381 -2.1439045667648315e-06 -3.498513251543045e-05 0.0 0.0 0.0 0.0
0.018 -0.5879615545272827 0.21895843744277954 -3.6298297345638275e-05 2.8403475880622864e-05 0.0 0.0 0.0 0.0
0.019 -0.5428436398506165 0.33266592025756836 6.961636245250702e-06 4.850327968597412e-05 0.0 0.0 0.0 0.0
0.02 -0.4771815538406372 0.4400741159915924 9.201467037200928e-07 4.9505382776260376e-05 0.0 0.0 0.0 0.0
0.021 -0.3931000530719757 0.5372712016105652 -2.3877248167991638e-05 -3.941357135772705e-05 0.0 0.0 0.0 0.0
0.022 -0.29096701741218567 0.6215894222259521 6.473623216152191e-06 -1.4855526387691498e-05 0.0 0.0 0.0 0.0
0.023 -0.17219829559326172 0.6874945759773254 -4.573725163936615e-06 -4.540756344795227e-05 0.0 0.0 0.0 0.0
0.024 -0.038330066949129105 0.7327941060066223 1.2524425983428955e-05 -7.966533303260803e-06 0.0 0.0 0.0 0.0
0.025 0.10680412501096725 0.7521404027938843 -3.992579877376556e-06 1.1753290891647339e-06 0.0 0.0 0.0 0.0
0.026 0.2579199969768524 0.7419366240501404 8.636154234409332e-06 -1.0996125638484955e-05 0.0 0.0 0.0 0.0
0.027 0.4091826379299164 0.6993424296379089 1.6300007700920105e-05 1.738220453262329e-05 0.0 0.0 0.0 0.0
0.028 0.5513597130775452 0.6239555478096008 -2.3568980395793915e-05 -3.392808139324188e-05 0.0 0.0 0.0 0.0
0.029 0.6774827837944031 0.5154452323913574 4.259590059518814e-05 1.101568341255188e-05 0.0 0.0 0.0 0.0
0.03 0.7768750190734863 0.37863069772720337 -7.957220077514648e-06 3.140978515148163e-05 0.0 0.0 0.0 0.0
0.031 0.8444701433181763 0.2211066484451294 1.3183802366256714e-05 -1.5214085578918457e-05 0.0 0.0 0.0 0.0
0.032 0.872730553150177 0.05029178783297539 1.2751668691635132e-05 -1.9399449229240417e-05 0.0 0.0 0.0 0.0
0.033 0.8611178994178772 -0.12061920017004013 1.737009733915329e-05 2.052169293165207e-05 0.0 0.0 0.0 0.0
0.034 0.8115981817245483 -0.2810930609703064 -5.93625009059906e-06 -2.8491951525211334e-05 0.0 0.0 0.0 0.0
0.035 0.7288202047348022 -0.42314761877059937 -2.721790224313736e-05 3.777444362640381e-06 0.0 0.0 0.0 0.0
0.036 0.620863676071167 -0.5400311946868896 9.194016456604004e-06 2.803374081850052e-05 0.0 0.0 0.0 0.0
0.037 0.49438294768333435 -0.6271481513977051 3.1478703022003174e-06 -9.245239198207855e-06 0.0 0.0 0.0 0.0
0.038 0.35855019092559814 -0.6841695308685303 1.3968907296657562e-05 -6.864778697490692e-06 0.0 0.0 0.0 0.0
0.039 0.2198946326971054 -0.7130576968193054 3.7811696529388428e-06 -3.3964402973651886e-05 0.0 0.0 0.0 0.0
0.04 0.08393257111310959 -0.7148973345756531 3.2922253012657166e-06 -3.409292548894882e-05 0.0 0.0 0.0 0.0
0.041 -0.04558655992150307 -0.6924521327018738 -3.4090131521224976e-05 -9.129755198955536e-06 0.0 0.0 0.0 0.0
0.042 -0.16458968818187714 -0.6497558355331421 -8.664745837450027e-05 3.45306470990181e-05 0.0 0.0 0.0 0.0
0.043 -0.2717816233634949 -0.5893864631652832 -5.38630411028862e-05 -2.2553838789463043e-05 0.0 0.0 0.0 0.0
0.044 -0.3642736077308655 -0.5133128762245178 -6.161723285913467e-05 -3.5392120480537415e-05 0.0 0.0 0.0 0.0
0.045 -0.4414951205253601 -0.4262847900390625 -5.661509931087494e-06 4.521384835243225e-05 0.0 0.0 0.0 0.0
0.046 -0.5035374760627747 -0.3294728398323059 2.2522173821926117e-05 3.061257302761078e-06 0.0 0.0 0.0 0.0
0.047 -0.5489436388015747 -0.22513139247894287 -4.6547502279281616e-05 5.383417010307312e-05 0.0 0.0 0.0 0.0
0.048 -0.5775313377380371 -0.11552651971578598 2.6017427444458008e-05 1.1106021702289581e-05 0.0 0.0 0.0 0.0
0.049 -0.5888590216636658 -0.002343992702662945 -2.688821405172348e-05 5.759671330451965e-05 0.0 0.0 0.0 0.0
0.05 -0.5823790431022644 0.1131085455417633 -8.52346420288086e-06 6.90557062625885e-05 0.0 0.0 0.0 0.0
0.051 -0.5566943287849426 0.22726647555828094 -3.407243639230728e-05 4.13721427321434e-05 0.0 0.0 0.0 0.0
0.052 -0.5119273066520691 0.33792880177497864 5.5585987865924835e-05 4.487577825784683e-05 0.0 0.0 0.0 0.0
0.053 -0.4472123980522156 0.4431194067001343 4.590395838022232e-05 6.802845746278763e-05 0.0 0.0 0.0 0.0
0.054 -0.36264050006866455 0.5372130274772644 6.186496466398239e-05 3.091059625148773e-06 0.0 0.0 0.0 0.0
0.055 -0.2597302794456482 0.6167598366737366 8.012913167476654e-05 -2.598389983177185e-07 0.0 0.0 0.0 0.0
0.056 -0.13939949870109558 0.6786938309669495 2.365466207265854e-05 -4.77619469165802e-05 0.0 0.0 0.0 0.0
0.057 -0.005142493173480034 0.7170262336730957 4.050787538290024e-05 -3.307778388261795e-05 0.0 0.0 0.0 0.0
0.058 0.1393662989139557 0.7283337712287903 6.832927465438843e-05 6.847921758890152e-05 0.0 0.0 0.0 0.0
0.059 0.2882455587387085 0.7082871198654175 -1.911073923110962e-06 -9.957700967788696e-05 0.0 0.0 0.0 0.0
0.06 0.4327360689640045 0.6550076603889465 1.8309801816940308e-06 -0.0001147119328379631 0.0 0.0 0.0 0.0
0.061 0.5651690363883972 0.5700229406356812 -0.0001578405499458313 -0.00018430780619382858 0.0 0.0 0.0 0.0
0.062 0.6773141026496887 0.4552377164363861 -0.00023984722793102264 6.720703095197678e-05 0.0 0.0 0.0 0.0
0.063 0.760420560836792 0.3168228268623352 -5.223322659730911e-05 0.00015988294035196304 0.0 0.0 0.0 0.0
0.064 0.8110734820365906 0.1631261259317398 2.933107316493988e-05 0.00017076358199119568 0.0 0.0 0.0 0.0
0.065 0.822893500328064 0.002804410643875599 5.791895091533661e-05 0.00017220433801412582 0.0 0.0 0.0 0.0
0.066 0.7998068332672119 -0.15244485437870026 0.00018417369574308395 0.00013821851462125778 0.0 0.0 0.0 0.0
0.067 0.7452625036239624 -0.2957307696342468 0.00021337158977985382 5.100667476654053e-05 0.0 0.0 0.0 0.0
0.068 0.662399411201477 -0.41841229796409607 0.0002821125090122223 -9.501073509454727e-05 0.0 0.0 0.0 0.0
0.069 0.5597569942474365 -0.5182692408561707 0.00011922325938940048 -0.0004334961995482445 0.0 0.0 0.0 0.0
0.07 0.44393426179885864 -0.5932619571685791 -0.00016793515533208847 -0.00028240866959095 0.0 0.0 0.0 0.0
0.071 0.31921035051345825 -0.6423302292823792 -0.00026891566812992096 -0.00014536641538143158 0.0 0.0 0.0 0.0
0.072 0.19387724995613098 -0.6673606038093567 -0.00015523284673690796 1.3724900782108307e-05 0.0 0.0 0.0 0.0
0.073 0.0697467178106308 -0.6671240329742432 -0.0001774011179804802 6.957165896892548e-05 0.0 0.0 0.0 0.0
0.074 -0.048243120312690735 -0.6481643319129944 -0.00017852336168289185 0.00012330617755651474 0.0 0.0 0.0 0.0
0.075 -0.1590965986251831 -0.6099935173988342 -4.853587597608566e-05 0.0001270761713385582 0.0 0.0 0.0 0.0
0.076 -0.25897660851478577 -0.5553326606750488 -3.713555634021759e-05 0.0001382315531373024 0.0 0.0 0.0 0.0
0.077 -0.34751302003860474 -0.4868125915527344 -4.2635947465896606e-05 0.0001699831336736679 0.0 0.0 0.0 0.0
0.078 -0.4216351807117462 -0.4059015214443207 7.165037095546722e-05 0.00018094759434461594 0.0 0.0 0.0 0.0
0.079 -0.48313555121421814 -0.31579142808914185 5.0360336899757385e-05 0.0002303263172507286 0.0 0.0 0.0 0.0
0.08 -0.5292132496833801 -0.21632233262062073 0.00016988907009363174 0.00021313130855560303 0.0 0.0 0.0 0.0
0.081 -0.5590023994445801 -0.1115007996559143 0.00040255114436149597 0.00013040564954280853 0.0 0.0 0.0 0.0
0.082 -0.5734400749206543 -0.0012034336104989052 0.0005389219149947166 -0.00010778568685054779 0.0 0.0 0.0 0.0
0.083 -0.5684577822685242 0.11173922568559647 0.0004083523526787758 -0.0004936214536428452 0.0 0.0 0.0 0.0
0.084 -0.5443562865257263 0.22460152208805084 -4.279334098100662e-05 -0.0006146533414721489 0.0 0.0 0.0 0.0
0.085 -0.5019280910491943 0.3353584408760071 -0.00025247689336538315 -0.0004418054595589638 0.0 0.0 0.0 0.0
0.086 -0.4380858242511749 0.43996918201446533 -0.00034584105014801025 -0.0002560354769229889 0.0 0.0 0.0 0.0
0.087 -0.35354122519493103 0.5328445434570312 -0.00044561736285686493 -0.00011967029422521591 0.0 0.0 0.0 0.0
0.088 -0.250012069940567 0.6123533248901367 -0.00040382053703069687 -4.1299499571323395e-05 0.0 0.0 0.0 0.0
0.089 -0.12923389673233032 0.6713399887084961 -0.00051883514970541 0.0001554097980260849 0.0 0.0 0.0 0.0
0.09 0.004874838516116142 0.7068808674812317 -0.00043899938464164734 0.0002384241670370102 0.0 0.0 0.0 0.0
0.091 0.14851564168930054 0.7138441205024719 -0.0003394493833184242 0.0003630295395851135 0.0 0.0 0.0 0.0
0.092 0.29351967573165894 0.688707709312439 -0.0002811131998896599 0.0005746558308601379 0.0 0.0 0.0 0.0
0.093 0.4325158894062042 0.6319600939750671 -0.00010013021528720856 0.0007843608036637306 0.0 0.0 0.0 0.0
0.094 0.5573635697364807 0.5432838201522827 0.0003847135230898857 0.0008792020380496979 0.0 0.0 0.0 0.0
0.095 0.6591991782188416 0.43032941222190857 0.0009274249896407127 0.0005020042881369591 0.0 0.0 0.0 0.0
0.096 0.734656572341919 0.29600995779037476 0.0009343875572085381 -0.00015994813293218613 0.0 0.0 0.0 0.0
0.097 0.7783709764480591 0.14876270294189453 0.0005754036828875542 -0.0003865184262394905 0.0 0.0 0.0 0.0
0.098 0.7857434749603271 -0.002774094231426716 0.00029162783175706863 -0.00040454044938087463 0.0 0.0 0.0 0.0
0.099 0.7614749073982239 -0.14853425323963165 0.000121288001537323 -0.00040156859904527664 0.0 0.0 0.0 0.0
0.1 0.7085465788841248 -0.28230464458465576 -2.5546178221702576e-05 -0.00029100291430950165 0.0 0.0 0.0 0.0
0.101 0.6296053528785706 -0.3975066542625427 -7.159821689128876e-05 -0.00023709796369075775 0.0 0.0 0.0 0.0
0.102 0.5323077440261841 -0.49131321907043457 -0.0001392243430018425 -0.0002195555716753006 0.0 0.0 0.0 0.0
0.103 0.42356958985328674 -0.5618770122528076 -9.160861372947693e-05 -0.00015649013221263885 0.0 0.0 0.0 0.0
0.104 0.3069522976875305 -0.6094282269477844 -0.00014829915016889572 -5.795620381832123e-05 0.0 0.0 0.0 0.0
0.105 0.1880398839712143 -0.6341378688812256 -0.00010764878243207932 -4.343874752521515e-05 0.0 0.0 0.0 0.0
0.106 0.07028860598802567 -0.6372454166412354 -9.737350046634674e-05 4.582107067108154e-06 0.0 0.0 0.0 0.0
0.107 -0.04397828131914139 -0.6203574538230896 -8.596573024988174e-05 -9.629875421524048e-07 0.0 0.0 0.0 0.0
0.108 -0.15078234672546387 -0.5848203301429749 -6.679166108369827e-05 -9.569339454174042e-06 0.0 0.0 0.0 0.0
0.109 -0.2498389035463333 -0.5341906547546387 -5.52106648683548e-05 6.30626454949379e-05 0.0 0.0 0.0 0.0
0.11 -0.3363919258117676 -0.46827152371406555 -7.220450788736343e-05 7.723458111286163e-06 0.0 0.0 0.0 0.0
0.111 -0.4120000898838043 -0.38987278938293457 -8.493009954690933e-05 4.841852933168411e-05 0.0 0.0 0.0 0.0
0.112 -0.4738735556602478 -0.30125945806503296 -5.847122520208359e-05 1.518242061138153e-05 0.0 0.0 0.0 0.0
0.113 -0.5209848284721375 -0.20271813869476318 -4.150904715061188e-05 5.044136196374893e-05 0.0 0.0 0.0 0.0
0.114 -0.5521929860115051 -0.0958690345287323 -2.559646964073181e-05 4.5726075768470764e-05 0.0 0.0 0.0 0.0
0.115 -0.5658451318740845 0.016049699857831 -2.559460699558258e-05 0.00011107418686151505 0.0 0.0 0.0 0.0
0.116 -0.5599379539489746 0.13081155717372894 -8.411798626184464e-05 0.0001127440482378006 0.0 0.0 0.0 0.0
0.117 -0.5334820747375488 0.24440251290798187 1.5223398804664612e-05 0.0002005370333790779 0.0 0.0 0.0 0.0
0.118 -0.4861357808113098 0.3549177348613739 7.40615651011467e-05 0.00017241202294826508 0.0 0.0 0.0 0.0
0.119 -0.4177139401435852 0.4582682251930237 0.00014360714703798294 0.0003090221434831619 0.0 0.0 0.0 0.0
0.12 -0.3283240795135498 0.5486955642700195 0.00022065173834562302 0.00013272278010845184 0.0 0.0 0.0 0.0
0.121 -0.22172729671001434 0.6236963868141174 0.0005308697000145912 0.0001416010782122612 0.0 0.0 0.0 0.0
0.122 -0.09810102730989456 0.6761502027511597 0.0008045844733715057 -0.00015892274677753448 0.0 0.0 0.0 0.0
0.123 0.0369596853852272 0.7031007409095764 0.000671999529004097 -0.0007884027436375618 0.0 0.0 0.0 0.0
0.124 0.1778898984193802 0.7018841505050659 6.468221545219421e-05 -0.00128965824842453 0.0 0.0 0.0 0.0
0.125 0.31736621260643005 0.6698728203773499 -0.0009076306596398354 -0.0011183572933077812 0.0 0.0 0.0 0.0
0.126 0.4494132697582245 0.6086439490318298 -0.001358608715236187 -0.0002661198377609253 0.0 0.0 0.0 0.0
0.127 0.5662413835525513 0.5181779861450195 -0.0011330489069223404 0.0004902724176645279 0.0 0.0 0.0 0.0
0.128 0.660148561000824 0.4035648703575134 -0.000644187442958355 0.0008262330666184425 0.0 0.0 0.0 0.0
0.129 0.7244886159896851 0.27226874232292175 -0.0002852007746696472 0.0008526062592864037 0.0 0.0 0.0 0.0
0.13 0.7600911259651184 0.13262617588043213 -7.702037692070007e-07 0.0007200492545962334 0.0 0.0 0.0 0.0
0.131 0.7638164162635803 -0.007584358565509319 0.0002466803416609764 0.0006439024582505226 0.0 0.0 0.0 0.0
0.132 0.7394195795059204 -0.14284120500087738 0.00033101439476013184 0.00042940955609083176 0.0 0.0 0.0 0.0
0.133 0.6884729862213135 -0.26693448424339294 0.0005206754431128502 0.0003479262813925743 0.0 0.0 0.0 0.0
0.134 0.6164987683296204 -0.3745660185813904 0.0006175749003887177 0.00018624309450387955 0.0 0.0 0.0 0.0
0.135 0.5293739438056946 -0.463605672121048 0.0006412472575902939 -6.84838742017746e-05 0.0 0.0 0.0 0.0
0.136 0.42808786034584045 -0.5352450013160706 0.0006655706092715263 -0.0002888469025492668 0.0 0.0 0.0 0.0
0.137 0.31895166635513306 -0.5834982395172119 0.0004613446071743965 -0.000614323653280735 0.0 0.0 0.0 0.0
0.138 0.20745566487312317 -0.6112547516822815 5.0253234803676605e-05 -0.0006278837099671364 0.0 0.0 0.0 0.0
0.139 0.0939226970076561 -0.6196171045303345 -0.00020613893866539001 -0.0005340185016393661 0.0 0.0 0.0 0.0
0.14 -0.01733347773551941 -0.6095487475395203 -0.0003574732691049576 -0.0003184657543897629 0.0 0.0 0.0 0.0
0.141 -0.14611874520778656 -0.5630144476890564 -0.00030578114092350006 -5.560554563999176e-05 0.0 0.0 0.0 0.0
0.142 -0.24137666821479797 -0.511872410774231 -0.00020038243383169174 3.269035369157791e-05 0.0 0.0 0.0 0.0
0.143 -0.32522690296173096 -0.4466071128845215 -0.00014699343591928482 9.495392441749573e-05 0.0 0.0 0.0 0.0
0.144 -0.396649569272995 -0.36873582005500793 -0.00020799413323402405 9.296182543039322e-05 0.0 0.0 0.0 0.0
0.145 -0.45553725957870483 -0.2808034121990204 -7.956847548484802e-05 4.478823393583298e-05 0.0 0.0 0.0 0.0
0.146 -0.4981139898300171 -0.18443864583969116 -1.4435499906539917e-05 1.568533480167389e-05 0.0 0.0 0.0 0.0
0.147 -0.5251049995422363 -0.08133564889431 -2.3772940039634705e-05 5.204882472753525e-05 0.0 0.0 0.0 0.0
0.148 -0.5347874760627747 0.026131173595786095 -3.7727877497673035e-06 1.4592893421649933e-05 0.0 0.0 0.0 0.0
0.149 -0.5253504514694214 0.13513176143169403 -2.9900111258029938e-05 1.3010576367378235e-06 0.0 0.0 0.0 0.0
0.15 -0.49736666679382324 0.24437101185321808 -6.856303662061691e-05 7.91158527135849e-06 0.0 0.0 0.0 0.0
0.151 -0.4498564600944519 0.3477723300457001 -4.872120916843414e-05 -6.232317537069321e-05 0.0 0.0 0.0 0.0
0.152 -0.3821766674518585 0.44425147771835327 -2.4070031940937042e-05 -2.8722919523715973e-05 0.0 0.0 0.0 0.0
0.153 -0.29528436064720154 0.5280056595802307 1.1004507541656494e-05 5.365442484617233e-05 0.0 0.0 0.0 0.0
0.154 -0.19135379791259766 0.5965739488601685 -2.597365528345108e-05 3.351643681526184e-05 0.0 0.0 0.0 0.0
0.155 -0.07247225195169449 0.6440784931182861 -6.439071148633957e-05 4.457961767911911e-05 0.0 0.0 0.0 0.0
0.156 0.05705365166068077 0.6669961810112 -5.67631796002388e-05 6.928015500307083e-05 0.0 0.0 0.0 0.0
0.157 0.19131000339984894 0.662094235420227 -6.755255162715912e-05 7.496960461139679e-05 0.0 0.0 0.0 0.0
0.158 0.3240552246570587 0.6289554238319397 -1.8874183297157288e-05 0.0001213960349559784 0.0 0.0 0.0 0.0
0.159 0.44805586338043213 0.5661222338676453 -2.3252330720424652e-05 0.00015260092914104462 0.0 0.0 0.0 0.0
0.16 0.5558450222015381 0.47760695219039917 6.13601878285408e-05 0.0001718485727906227 0.0 0.0 0.0 0.0
0.161 0.6419305205345154 0.36699432134628296 0.0001360168680548668 9.625405073165894e-05 0.0 0.0 0.0 0.0
0.162 0.7014201879501343 0.24096086621284485 0.00019879452884197235 0.00014550704509019852 0.0 0.0 0.0 0.0
0.163 0.7315703630447388 0.10642243921756744 0.0002799518406391144 0.00019117724150419235 0.0 0.0 0.0 0.0
0.164 0.7324023246765137 -0.029064375907182693 0.00042880699038505554 5.20339235663414e-05 0.0 0.0 0.0 0.0
0.165 0.7056336998939514 -0.15860693156719208 0.0005029570311307907 -0.00015462655574083328 0.0 0.0 0.0 0.0
0.166 0.6523551940917969 -0.27702823281288147 0.0004214290529489517 -0.00047126971185207367 0.0 0.0 0.0 0.0
0.167 0.5795424580574036 -0.3799179792404175 8.81468877196312e-05 -0.0006420742720365524 0.0 0.0 0.0 0.0
0.168 0.49097710847854614 -0.46298256516456604 -0.0002157958224415779 -0.0007023988291621208 0.0 0.0 0.0 0.0
0.169 0.39060351252555847 -0.5268846154212952 -0.00040943268686532974 -0.0004323367029428482 0.0 0.0 0.0 0.0
0.17 0.28316566348075867 -0.5698465704917908 -0.000486176460981369 -0.00021932553499937057 0.0 0.0 0.0 0.0
0.171 0.17273224890232086 -0.5914271473884583 -0.0004815906286239624 -5.915295332670212e-05 0.0 0.0 0.0 0.0
0.172 0.06207985803484917 -0.59368896484375 -0.0004822146147489548 8.394941687583923e-05 0.0 0.0 0.0 0.0
0.173 -0.04383383318781853 -0.5772194266319275 -0.0004261452704668045 0.00016154814511537552 0.0 0.0 0.0 0.0
0.174 -0.1437402218580246 -0.5430694222450256 -0.0003613010048866272 0.0002917582169175148 0.0 0.0 0.0 0.0
0.175 -0.23683710396289825 -0.4940321147441864 -0.00026695616543293 0.0003214739263057709 0.0 0.0 0.0 0.0
0.176 -0.31977343559265137 -0.4305698275566101 -0.00021313130855560303 0.0004297364503145218 0.0 0.0 0.0 0.0
0.177 -0.38964834809303284 -0.3543338179588318 -0.00013935472816228867 0.0004891715943813324 0.0 0.0 0.0 0.0
0.178 -0.44765135645866394 -0.2667006850242615 7.374212145805359e-06 0.0005357153713703156 0.0 0.0 0.0 0.0
0.179 -0.4897496998310089 -0.17102161049842834 0.00012583937495946884 0.000526118092238903 0.0 0.0 0.0 0.0
0.18 -0.516103208065033 -0.06826269626617432 0.00025751814246177673 0.0005258023738861084 0.0 0.0 0.0 0.0
0.181 -0.5241475701332092 0.03966635838150978 0.0004308801144361496 0.0004465300589799881 0.0 0.0 0.0 0.0
0.182 -0.5133997201919556 0.14926078915596008 0.0006007896736264229 0.00037404708564281464 0.0 0.0 0.0 0.0
0.183 -0.48235195875167847 0.2579033374786377 0.0007723802700638771 0.00017366651445627213 0.0 0.0 0.0 0.0
0.184 -0.43116071820259094 0.36168578267097473 0.0008834283798933029 -7.191207259893417e-05 0.0 0.0 0.0 0.0
0.185 -0.359040230512619 0.45648419857025146 0.0008493708446621895 -0.0004091961309313774 0.0 0.0 0.0 0.0
