!Created with skrf (http://scikit-rf.org).
# GHz S RI R 50.0 
!freq ReS11 ImS11 ReS21 ImS21 ReS12 ImS12 ReS22 ImS22
0.001 0.3663719892501831 0.3658522665500641 -0.6309230327606201 0.5471382141113281 0.0 0.0 0.0 0.0
0.002 0.755885899066925 0.1818658709526062 -0.1894548535346985 0.6127113103866577 0.0 0.0 0.0 0.0
0.003 0.8571081757545471 -0.16792330145835876 0.06538530439138412 0.4760330319404602 0.0 0.0 0.0 0.0
0.004 0.7624459266662598 -0.46962717175483704 0.17275889217853546 0.3165101408958435 0.0 0.0 0.0 0.0
0.005 0.5691280961036682 -0.6705285906791687 0.19751539826393127 0.1856556385755539 0.0 0.0 0.0 0.0
0.006 0.34139588475227356 -0.7739725112915039 0.18018998205661774 0.09204678982496262 0.0 0.0 0.0 0.0
0.007 0.11599429696798325 -0.7983219623565674 0.14515015482902527 0.03152300417423248 0.0 0.0 0.0 0.0
0.008 -0.08677367866039276 -0.7604992389678955 0.10482724010944366 -0.002842695452272892 0.0 0.0 0.0 0.0
0.009 -0.25894495844841003 -0.677474319934845 0.06621097773313522 -0.01621803641319275 0.0 0.0 0.0 0.0
0.01 -0.3980880677700043 -0.564814031124115 0.03429470583796501 -0.013446166180074215 0.0 0.0 0.0 0.0
0.011 -0.5023215413093567 -0.43084049224853516 0.010531320236623287 -0.001584320329129696 0.0 0.0 0.0 0.0
0.012 -0.571954071521759 -0.28421518206596375 -0.004396693781018257 0.017086820676922798 0.0 0.0 0.0 0.0
0.013 -0.6076403856277466 -0.12995266914367676 -0.008329537697136402 0.041026752442121506 0.0 0.0 0.0 0.0
0.014 -0.5994749665260315 0.030285634100437164 0.010467086918652058 0.07448530942201614 0.0 0.0 0.0 0.0
0.015 -0.5906469225883484 0.14324097335338593 0.01808488741517067 0.05188930407166481 0.0 0.0 0.0 0.0
0.016 -0.5443437099456787 0.2964792549610138 0.028328927233815193 0.076540008187294 0.0 0.0 0.0 0.0
0.017 -0.4642258286476135 0.4302278161048889 0.05364570394158363 0.0879201665520668 0.0 0.0 0.0 0.0
0.018 -0.35648638010025024 0.5457462668418884 0.08450023084878922 0.08954817801713943 0.0 0.0 0.0 0.0
0.019 -0.22345666587352753 0.6367684602737427 0.11768895387649536 0.08068922907114029 0.0 0.0 0.0 0.0
0.02 -0.06778594106435776 0.6976474523544312 0.15137869119644165 0.06043455749750137 0.0 0.0 0.0 0.0
0.021 0.1039801836013794 0.7184955477714539 0.18581600487232208 0.021166132763028145 0.0 0.0 0.0 0.0
0.022 0.26926934719085693 0.6928370594978333 0.19338922202587128 -0.031787119805812836 0.0 0.0 0.0 0.0
0.023 0.4464636445045471 0.6397801041603088 0.20487816631793976 -0.07011455297470093 0.0 0.0 0.0 0.0
0.024 0.6046427488327026 0.5280947685241699 0.20231367647647858 -0.12732765078544617 0.0 0.0 0.0 0.0
0.025 0.725752592086792 0.374311625957489 0.1800728291273117 -0.18635624647140503 0.0 0.0 0.0 0.0
0.026 0.7982223033905029 0.19127652049064636 0.13933634757995605 -0.2397872358560562 0.0 0.0 0.0 0.0
0.027 0.8171243071556091 -0.0047269947826862335 0.08261162042617798 -0.2826201617717743 0.0 0.0 0.0 0.0
0.028 0.7805162668228149 -0.19413550198078156 0.013219954445958138 -0.30941590666770935 0.0 0.0 0.0 0.0
0.029 0.6938472390174866 -0.36237555742263794 -0.06392674893140793 -0.3175511956214905 0.0 0.0 0.0 0.0
0.03 0.5685681700706482 -0.49433979392051697 -0.1421891450881958 -0.3051605224609375 0.0 0.0 0.0 0.0
0.031 0.42073002457618713 -0.5831782221794128 -0.21641194820404053 -0.2734171152114868 0.0 0.0 0.0 0.0
0.032 0.2634497582912445 -0.628095269203186 -0.28246280550956726 -0.22455301880836487 0.0 0.0 0.0 0.0
0.033 0.1086893081665039 -0.6326128840446472 -0.3355540335178375 -0.1603453904390335 0.0 0.0 0.0 0.0
0.034 -0.0337265320122242 -0.6018697619438171 -0.3762597441673279 -0.08490808308124542 0.0 0.0 0.0 0.0
0.035 -0.15741175413131714 -0.5410505533218384 -0.3986189067363739 0.0002602245658636093 0.0 0.0 0.0 0.0
0.036 -0.259260356426239 -0.459595263004303 -0.40241965651512146 0.09051298350095749 0.0 0.0 0.0 0.0
0.037 -0.3371446132659912 -0.3641895353794098 -0.38818463683128357 0.18231140077114105 0.0 0.0 0.0 0.0
0.038 -0.39117223024368286 -0.2565346956253052 -0.35584503412246704 0.2736826539039612 0.0 0.0 0.0 0.0
0.039 -0.4198037087917328 -0.14168721437454224 -0.3019484281539917 0.36411193013191223 0.0 0.0 0.0 0.0
0.04 -0.41943055391311646 -0.026959413662552834 -0.22196099162101746 0.4480229318141937 0.0 0.0 0.0 0.0
0.041 -0.3932105302810669 0.0802903026342392 -0.11645966023206711 0.5157685875892639 0.0 0.0 0.0 0.0
0.042 -0.34385764598846436 0.17378774285316467 0.01373382844030857 0.5596714019775391 0.0 0.0 0.0 0.0
0.043 -0.2739640176296234 0.2501571774482727 0.16285841166973114 0.5697786211967468 0.0 0.0 0.0 0.0
0.044 -0.1900726854801178 0.3036525547504425 0.32250869274139404 0.5377607941627502 0.0 0.0 0.0 0.0
0.045 -0.09771241992712021 0.32934918999671936 0.4809533953666687 0.4537844657897949 0.0 0.0 0.0 0.0
0.046 -0.007632209919393063 0.3251102864742279 0.6190980076789856 0.3150530159473419 0.0 0.0 0.0 0.0
0.047 0.06909089535474777 0.29203760623931885 0.7144063711166382 0.12453897297382355 0.0 0.0 0.0 0.0
0.048 0.11861544102430344 0.23555497825145721 0.7425286173820496 -0.1040617972612381 0.0 0.0 0.0 0.0
0.049 0.13052593171596527 0.1724153757095337 0.6833210587501526 -0.34193113446235657 0.0 0.0 0.0 0.0
0.05 0.10315112769603729 0.12462269514799118 0.5344817042350769 -0.5489223599433899 0.0 0.0 0.0 0.0
0.051 0.04717307165265083 0.11840558052062988 0.3124958276748657 -0.6844072341918945 0.0 0.0 0.0 0.0
0.052 -0.003997860476374626 0.1693633496761322 0.056076835840940475 -0.7183050513267517 0.0 0.0 0.0 0.0
0.053 -0.008510813117027283 0.27126559615135193 -0.183991938829422 -0.645607590675354 0.0 0.0 0.0 0.0
0.054 0.0648282840847969 0.38785475492477417 -0.3569082021713257 -0.48636090755462646 0.0 0.0 0.0 0.0
0.055 0.21905769407749176 0.46071186661720276 -0.43376287817955017 -0.2886538803577423 0.0 0.0 0.0 0.0
0.056 0.4183998107910156 0.44295167922973633 -0.41398361325263977 -0.10665176808834076 0.0 0.0 0.0 0.0
0.057 0.5992056727409363 0.3242450952529907 -0.3304581046104431 0.01851535588502884 0.0 0.0 0.0 0.0
0.058 0.714162290096283 0.12675203382968903 -0.22226768732070923 0.07035640627145767 0.0 0.0 0.0 0.0
0.059 0.7286412715911865 -0.09889499098062515 -0.13864433765411377 0.0543634295463562 0.0 0.0 0.0 0.0
0.06 0.6542776823043823 -0.2905372381210327 -0.11159941554069519 0.02057579718530178 0.0 0.0 0.0 0.0
0.061 0.5456823110580444 -0.4368531107902527 -0.09256719797849655 0.002004680223762989 0.0 0.0 0.0 0.0
0.062 0.3969417214393616 -0.5442181825637817 -0.09488949924707413 -0.036047738045454025 0.0 0.0 0.0 0.0
0.063 0.23040539026260376 -0.5937783718109131 -0.12904426455497742 -0.060994599014520645 0.0 0.0 0.0 0.0
0.064 0.06891336292028427 -0.593747079372406 -0.17934978008270264 -0.06147504597902298 0.0 0.0 0.0 0.0
0.065 -0.07480622082948685 -0.5466122031211853 -0.23588666319847107 -0.032761458307504654 0.0 0.0 0.0 0.0
0.066 -0.18503767251968384 -0.4699033200740814 -0.27712520956993103 0.02935156412422657 0.0 0.0 0.0 0.0
0.067 -0.2677546441555023 -0.38112595677375793 -0.2937263548374176 0.10404689610004425 0.0 0.0 0.0 0.0
0.068 -0.32311537861824036 -0.2852950096130371 -0.28660085797309875 0.1854039430618286 0.0 0.0 0.0 0.0
0.069 -0.36000558733940125 -0.19079141318798065 -0.25469398498535156 0.2587651312351227 0.0 0.0 0.0 0.0
0.07 -0.3781336843967438 -0.081697978079319 -0.22065475583076477 0.33411529660224915 0.0 0.0 0.0 0.0
0.071 -0.3642788827419281 0.02021476812660694 -0.14994770288467407 0.4148184359073639 0.0 0.0 0.0 0.0
0.072 -0.32989245653152466 0.1106245145201683 -0.053536854684352875 0.47266820073127747 0.0 0.0 0.0 0.0
0.073 -0.2671217620372772 0.18539398908615112 0.07692070305347443 0.5175939202308655 0.0 0.0 0.0 0.0
0.074 -0.1931828260421753 0.22717547416687012 0.23731118440628052 0.511204719543457 0.0 0.0 0.0 0.0
0.075 -0.12885837256908417 0.24835452437400818 0.387026309967041 0.4438634216785431 0.0 0.0 0.0 0.0
0.076 -0.06591373682022095 0.25346747040748596 0.5182690620422363 0.3343149423599243 0.0 0.0 0.0 0.0
0.077 -0.015198380686342716 0.2440573275089264 0.6108819246292114 0.18249598145484924 0.0 0.0 0.0 0.0
0.078 0.022757094353437424 0.2264193296432495 0.6532561182975769 0.003852095454931259 0.0 0.0 0.0 0.0
0.079 0.04354635626077652 0.2058170735836029 0.6358988881111145 -0.18660731613636017 0.0 0.0 0.0 0.0
0.08 0.047372933477163315 0.1941613256931305 0.5556131601333618 -0.3624113202095032 0.0 0.0 0.0 0.0
0.081 0.04470955953001976 0.19994661211967468 0.4203987717628479 -0.5005014538764954 0.0 0.0 0.0 0.0
0.082 0.04868657514452934 0.23049123585224152 0.24831481277942657 -0.5809836387634277 0.0 0.0 0.0 0.0
0.083 0.08037907630205154 0.27934378385543823 0.06920453906059265 -0.5901410579681396 0.0 0.0 0.0 0.0
0.084 0.16333121061325073 0.32379189133644104 -0.07685103267431259 -0.5284259915351868 0.0 0.0 0.0 0.0
0.085 0.2903597950935364 0.3064274191856384 -0.14534735679626465 -0.44534748792648315 0.0 0.0 0.0 0.0
0.086 0.3823409974575043 0.20223267376422882 -0.16992174088954926 -0.4181147515773773 0.0 0.0 0.0 0.0
0.087 0.3840276896953583 0.09082408249378204 -0.24744485318660736 -0.43273812532424927 0.0 0.0 0.0 0.0
0.088 0.34840673208236694 0.031631987541913986 -0.36003756523132324 -0.40329596400260925 0.0 0.0 0.0 0.0
0.089 0.34075769782066345 0.014124168083071709 -0.49703046679496765 -0.3108862638473511 0.0 0.0 0.0 0.0
0.09 0.339830219745636 0.004423663951456547 -0.5840809941291809 -0.14456728100776672 0.0 0.0 0.0 0.0
0.091 0.37107986211776733 -0.03166031092405319 -0.595368504524231 0.02989889122545719 0.0 0.0 0.0 0.0
0.092 0.3944271504878998 -0.09512898325920105 -0.550687849521637 0.19072949886322021 0.0 0.0 0.0 0.0
0.093 0.39688488841056824 -0.17867277562618256 -0.4606184959411621 0.32152801752090454 0.0 0.0 0.0 0.0
0.094 0.36899033188819885 -0.2681475877761841 -0.3414669632911682 0.41196006536483765 0.0 0.0 0.0 0.0
0.095 0.3102758526802063 -0.35322022438049316 -0.2112414389848709 0.45712244510650635 0.0 0.0 0.0 0.0
0.096 0.22443680465221405 -0.41686663031578064 -0.08990117907524109 0.46202200651168823 0.0 0.0 0.0 0.0
0.097 0.12048652023077011 -0.4552418291568756 0.014959475956857204 0.4364001750946045 0.0 0.0 0.0 0.0
0.098 0.010054572485387325 -0.4626747965812683 0.09932751953601837 0.3918655216693878 0.0 0.0 0.0 0.0
0.099 -0.09887088090181351 -0.44118669629096985 0.1602238118648529 0.33794593811035156 0.0 0.0 0.0 0.0
0.1 -0.1979243904352188 -0.3933787941932678 0.20193639397621155 0.2856846749782562 0.0 0.0 0.0 0.0
0.101 -0.2770499587059021 -0.3222297132015228 0.22877012193202972 0.23661863803863525 0.0 0.0 0.0 0.0
0.102 -0.3362237513065338 -0.2321750521659851 0.2436138242483139 0.19635702669620514 0.0 0.0 0.0 0.0
0.103 -0.3606474697589874 -0.1326029896736145 0.2613384425640106 0.178179070353508 0.0 0.0 0.0 0.0
0.104 -0.3522798717021942 -0.053324516862630844 0.31852197647094727 0.1600782424211502 0.0 0.0 0.0 0.0
0.105 -0.3492026627063751 -0.0023757722228765488 0.3911285102367401 0.08570912480354309 0.0 0.0 0.0 0.0
0.106 -0.3679933249950409 0.059285327792167664 0.41314753890037537 -0.03291812911629677 0.0 0.0 0.0 0.0
0.107 -0.3731125295162201 0.14501133561134338 0.3862628638744354 -0.13904531300067902 0.0 0.0 0.0 0.0
0.108 -0.35432374477386475 0.24081909656524658 0.3340349495410919 -0.22437161207199097 0.0 0.0 0.0 0.0
0.109 -0.31076881289482117 0.33299335837364197 0.26863372325897217 -0.2913547158241272 0.0 0.0 0.0 0.0
0.11 -0.24352790415287018 0.41794145107269287 0.19210906326770782 -0.34085148572921753 0.0 0.0 0.0 0.0
0.111 -0.15709824860095978 0.48760831356048584 0.1060473620891571 -0.372044175863266 0.0 0.0 0.0 0.0
0.112 -0.051317181438207626 0.5414690971374512 0.015440074726939201 -0.3786976933479309 0.0 0.0 0.0 0.0
0.113 0.07057826220989227 0.5668491721153259 -0.06907343119382858 -0.365733802318573 0.0 0.0 0.0 0.0
0.114 0.19538505375385284 0.5644897222518921 -0.1505984216928482 -0.33554503321647644 0.0 0.0 0.0 0.0
0.115 0.32283085584640503 0.5330488085746765 -0.2220136672258377 -0.2840006351470947 0.0 0.0 0.0 0.0
0.116 0.4438239336013794 0.46953144669532776 -0.2749045491218567 -0.21701036393642426 0.0 0.0 0.0 0.0
0.117 0.5450524091720581 0.3763473331928253 -0.30980369448661804 -0.14268919825553894 0.0 0.0 0.0 0.0
0.118 0.6231951713562012 0.2586632966995239 -0.3227483928203583 -0.061731189489364624 0.0 0.0 0.0 0.0
0.119 0.669297993183136 0.12304135411977768 -0.31321242451667786 0.014057290740311146 0.0 0.0 0.0 0.0
0.12 0.6794669032096863 -0.018919765949249268 -0.2882547378540039 0.07967011630535126 0.0 0.0 0.0 0.0
0.121 0.6532018780708313 -0.1546904742717743 -0.25211888551712036 0.13290895521640778 0.0 0.0 0.0 0.0
0.122 0.5982769131660461 -0.27713894844055176 -0.20960868895053864 0.17557430267333984 0.0 0.0 0.0 0.0
0.123 0.5207229852676392 -0.3808586001396179 -0.1612759530544281 0.2070445567369461 0.0 0.0 0.0 0.0
0.124 0.4253319501876831 -0.46301066875457764 -0.11062092334032059 0.22644655406475067 0.0 0.0 0.0 0.0
0.125 0.318816214799881 -0.5222702622413635 -0.05912076309323311 0.23562182486057281 0.0 0.0 0.0 0.0
0.126 0.20508135855197906 -0.5600576400756836 -0.008330309763550758 0.2332962155342102 0.0 0.0 0.0 0.0
0.127 0.08570320904254913 -0.5735094547271729 0.0376487672328949 0.22019892930984497 0.0 0.0 0.0 0.0
0.128 -0.032437585294246674 -0.5636267066001892 0.07699381560087204 0.1995113343000412 0.0 0.0 0.0 0.0
0.129 -0.1442660242319107 -0.529660701751709 0.10936149209737778 0.17349444329738617 0.0 0.0 0.0 0.0
0.13 -0.24676476418972015 -0.47628089785575867 0.13516227900981903 0.1441923826932907 0.0 0.0 0.0 0.0
0.131 -0.3371995985507965 -0.40289321541786194 0.15468044579029083 0.1117231622338295 0.0 0.0 0.0 0.0
0.132 -0.41241365671157837 -0.3151821196079254 0.16696754097938538 0.07838556170463562 0.0 0.0 0.0 0.0
0.133 -0.47030800580978394 -0.21419782936573029 0.17429004609584808 0.04428594559431076 0.0 0.0 0.0 0.0
0.134 -0.5083144307136536 -0.1020180806517601 0.17509175837039948 0.009893225505948067 0.0 0.0 0.0 0.0
0.135 -0.5242052674293518 0.01691253110766411 0.16933795809745789 -0.02321569249033928 0.0 0.0 0.0 0.0
0.136 -0.5165876150131226 0.14002279937267303 0.15773405134677887 -0.05384393408894539 0.0 0.0 0.0 0.0
0.137 -0.48410889506340027 0.2607375979423523 0.1413237750530243 -0.08091830462217331 0.0 0.0 0.0 0.0
0.138 -0.4245450496673584 0.3775349259376526 0.120716892182827 -0.10437370091676712 0.0 0.0 0.0 0.0
0.139 -0.3398207426071167 0.4816659688949585 0.09561444818973541 -0.1238410621881485 0.0 0.0 0.0 0.0
0.14 -0.23109255731105804 0.5670702457427979 0.06767752021551132 -0.1366311013698578 0.0 0.0 0.0 0.0
0.141 -0.08851221948862076 0.6016802191734314 0.03494738042354584 -0.13701176643371582 0.0 0.0 0.0 0.0
0.142 0.04711393639445305 0.6278952956199646 0.009562473744153976 -0.13658565282821655 0.0 0.0 0.0 0.0
0.143 0.1870030164718628 0.6203452944755554 -0.011868744157254696 -0.1329553872346878 0.0 0.0 0.0 0.0
0.144 0.32102829217910767 0.5777621269226074 -0.03090597502887249 -0.1307654231786728 0.0 0.0 0.0 0.0
0.145 0.43645015358924866 0.5064907073974609 -0.05537330359220505 -0.1310800462961197 0.0 0.0 0.0 0.0
0.146 0.5323591828346252 0.41820013523101807 -0.08959980309009552 -0.12280438840389252 0.0 0.0 0.0 0.0
0.147 0.6110745072364807 0.31244149804115295 -0.12291038781404495 -0.09742432832717896 0.0 0.0 0.0 0.0
0.148 0.6681405901908875 0.18813133239746094 -0.14244559407234192 -0.0594654344022274 0.0 0.0 0.0 0.0
0.149 0.695661723613739 0.05115283280611038 -0.14739173650741577 -0.01959974691271782 0.0 0.0 0.0 0.0
0.15 0.6896025538444519 -0.08822362124919891 -0.13999193906784058 0.016047807410359383 0.0 0.0 0.0 0.0
0.151 0.6496003866195679 -0.22034655511379242 -0.12448929995298386 0.04564344882965088 0.0 0.0 0.0 0.0
0.152 0.5805172920227051 -0.3375711441040039 -0.10423946380615234 0.06769655644893646 0.0 0.0 0.0 0.0
0.153 0.4902973473072052 -0.4339900314807892 -0.08192998170852661 0.08210055530071259 0.0 0.0 0.0 0.0
0.154 0.38436341285705566 -0.5061331987380981 -0.05915532633662224 0.09108370542526245 0.0 0.0 0.0 0.0
0.155 0.26872962713241577 -0.5523925423622131 -0.0376390665769577 0.09438679367303848 0.0 0.0 0.0 0.0
0.156 0.14936351776123047 -0.5737088322639465 -0.018199367448687553 0.09378383308649063 0.0 0.0 0.0 0.0
0.157 0.032981276512145996 -0.5707131028175354 -0.0007613906636834145 0.08977343142032623 0.0 0.0 0.0 0.0
0.158 -0.07798276841640472 -0.546092689037323 0.014179219491779804 0.08354164659976959 0.0 0.0 0.0 0.0
0.159 -0.18027399480342865 -0.5033765435218811 0.027459371834993362 0.07626339793205261 0.0 0.0 0.0 0.0
0.16 -0.2729259431362152 -0.44392895698547363 0.03842068091034889 0.06695760041475296 0.0 0.0 0.0 0.0
0.161 -0.35344868898391724 -0.36821284890174866 0.04767080023884773 0.056441158056259155 0.0 0.0 0.0 0.0
0.162 -0.41947564482688904 -0.27981531620025635 0.05477701872587204 0.044841498136520386 0.0 0.0 0.0 0.0
0.163 -0.4682132601737976 -0.17937727272510529 0.05888259410858154 0.03298848867416382 0.0 0.0 0.0 0.0
0.164 -0.4975106418132782 -0.07031816989183426 0.06106778234243393 0.020853137597441673 0.0 0.0 0.0 0.0
0.165 -0.5056045055389404 0.0441005639731884 0.06044710427522659 0.009692821651697159 0.0 0.0 0.0 0.0
0.166 -0.49173226952552795 0.1604122668504715 0.05849305912852287 -0.000660216435790062 0.0 0.0 0.0 0.0
0.167 -0.45415517687797546 0.275157630443573 0.05475539714097977 -0.009999421425163746 0.0 0.0 0.0 0.0
0.168 -0.3920036852359772 0.38214147090911865 0.0498197115957737 -0.017699314281344414 0.0 0.0 0.0 0.0
0.169 -0.3071751296520233 0.4770713746547699 0.04440922662615776 -0.024168407544493675 0.0 0.0 0.0 0.0
0.17 -0.20143714547157288 0.5529337525367737 0.038307394832372665 -0.02932843193411827 0.0 0.0 0.0 0.0
0.171 -0.07767313718795776 0.6055711507797241 0.03199142590165138 -0.03320744261145592 0.0 0.0 0.0 0.0
0.172 0.057730454951524734 0.6290931701660156 0.025840802118182182 -0.035823605954647064 0.0 0.0 0.0 0.0
0.173 0.1980224847793579 0.6195943355560303 0.020460594445466995 -0.03762206807732582 0.0 0.0 0.0 0.0
0.174 0.3332148790359497 0.5767681002616882 0.015023501589894295 -0.03904729336500168 0.0 0.0 0.0 0.0
0.175 0.45584625005722046 0.5017840266227722 0.01000624056905508 -0.04057541862130165 0.0 0.0 0.0 0.0
0.176 0.5548582077026367 0.40141794085502625 0.0036773551255464554 -0.04242933541536331 0.0 0.0 0.0 0.0
0.177 0.6275181770324707 0.28042668104171753 -0.0036630257964134216 -0.042702797800302505 0.0 0.0 0.0 0.0
0.178 0.6692821979522705 0.148280531167984 -0.01128540188074112 -0.04049630090594292 0.0 0.0 0.0 0.0
0.179 0.678816020488739 0.01208943035453558 -0.017610860988497734 -0.03692543879151344 0.0 0.0 0.0 0.0
0.18 0.6570265889167786 -0.12018489092588425 -0.02235579304397106 -0.032601285725831985 0.0 0.0 0.0 0.0
0.181 0.6067682504653931 -0.24072898924350739 -0.026496298611164093 -0.028998613357543945 0.0 0.0 0.0 0.0
0.182 0.5339072346687317 -0.34234777092933655 -0.031415291130542755 -0.024338293820619583 0.0 0.0 0.0 0.0
0.183 0.4460753798484802 -0.4251290559768677 -0.03360116854310036 -0.01766544207930565 0.0 0.0 0.0 0.0
0.184 0.344650000333786 -0.48686158657073975 -0.03389744833111763 -0.011229895055294037 0.0 0.0 0.0 0.0
0.185 0.23564593493938446 -0.5262898802757263 -0.03283131867647171 -0.005073530599474907 0.0 0.0 0.0 0.0
0.186 0.12170516699552536 -0.5427870750427246 -0.030211210250854492 -0.0015923324972391129 0.0 0.0 0.0 0.0
0.187 0.008235858753323555 -0.5354893207550049 -0.028624139726161957 -0.0002558082342147827 0.0 0.0 0.0 0.0
0.188 -0.09908724576234818 -0.506585419178009 -0.02928607352077961 0.0011545130982995033 0.0 0.0 0.0 0.0
0.189 -0.19802044332027435 -0.4573787450790405 -0.030183106660842896 0.003757067024707794 0.0 0.0 0.0 0.0
0.19 -0.28448039293289185 -0.3907656669616699 -0.031110616400837898 0.007304747588932514 0.0 0.0 0.0 0.0
0.191 -0.358059823513031 -0.30971285700798035 -0.031276363879442215 0.01054451521486044 0.0 0.0 0.0 0.0
0.192 -0.4132261574268341 -0.21291396021842957 -0.03274320438504219 0.014336802996695042 0.0 0.0 0.0 0.0
0.193 -0.4481084942817688 -0.10585111379623413 -0.033929094672203064 0.020315412431955338 0.0 0.0 0.0 0.0
