!Created with skrf (http://scikit-rf.org).
# GHz S RI R 50.0 
!freq ReS11 ImS11 ReS21 ImS21 ReS12 ImS12 ReS22 ImS22
0.001 1.0552635192871094 0.00034457072615623474 -1.7154961824417114e-06 1.3240613043308258e-05 0.0 0.0 0.0 0.0
0.002 0.998906672000885 -0.0016109086573123932 -0.00013121496886014938 -5.572754889726639e-05 0.0 0.0 0.0 0.0
0.003 1.0002597570419312 -0.002874705009162426 -7.004383951425552e-05 4.062708467245102e-05 0.0 0.0 0.0 0.0
0.004 1.0021783113479614 -0.0064669083803892136 -4.3987296521663666e-05 -6.059836596250534e-05 0.0 0.0 0.0 0.0
0.005 1.0055128335952759 -0.007490945979952812 0.00011313334107398987 9.966641664505005e-05 0.0 0.0 0.0 0.0
0.006 0.9989707469940186 -0.008489960804581642 -8.23652371764183e-05 -3.741588443517685e-05 0.0 0.0 0.0 0.0
0.007 0.9993570446968079 -0.009665439836680889 0.0001276126131415367 -0.00017990823835134506 0.0 0.0 0.0 0.0
0.008 0.9983482360839844 -0.009108122438192368 -0.00015601515769958496 8.122064173221588e-05 0.0 0.0 0.0 0.0
0.009 0.9961951971054077 -0.013583607971668243 -4.7427602112293243e-05 3.971811383962631e-05 0.0 0.0 0.0 0.0
0.01 1.0024676322937012 -0.010090447030961514 -8.500739932060242e-05 0.00021515414118766785 0.0 0.0 0.0 0.0
0.011 1.0002162456512451 -0.013190037570893764 -0.00011722277849912643 7.309392094612122e-05 0.0 0.0 0.0 0.0
0.012 0.9988508224487305 -0.01563260704278946 -0.00019090715795755386 9.444355964660645e-05 0.0 0.0 0.0 0.0
0.013 1.0010536909103394 -0.018525877967476845 -2.4981796741485596e-05 -3.687571734189987e-05 0.0 0.0 0.0 0.0
0.014 0.9952712655067444 -0.02071969397366047 -0.0002186466008424759 0.00015695486217737198 0.0 0.0 0.0 0.0
0.015 1.0033072233200073 -0.020829081535339355 0.00010658334940671921 0.0001313304528594017 0.0 0.0 0.0 0.0
0.016 0.9969531297683716 -0.02185511216521263 -6.55418261885643e-05 -6.597954779863358e-05 0.0 0.0 0.0 0.0
0.017 1.0019117593765259 -0.023754706606268883 -2.019014209508896e-05 9.172968566417694e-05 0.0 0.0 0.0 0.0
0.018 1.000595211982727 -0.024443479254841805 -4.107039421796799e-05 -0.00021625123918056488 0.0 0.0 0.0 0.0
0.019 0.9998772740364075 -0.02847287431359291 -9.172596037387848e-05 6.374530494213104e-05 0.0 0.0 0.0 0.0
0.02 0.9999739527702332 -0.023052018135786057 -0.0001225760206580162 -1.7764046788215637e-05 0.0 0.0 0.0 0.0
0.021 0.9984362125396729 -0.025880178436636925 -0.00011142808943986893 7.231254130601883e-05 0.0 0.0 0.0 0.0
0.022 0.9992901086807251 -0.03114466555416584 0.00010317005217075348 7.632654160261154e-05 0.0 0.0 0.0 0.0
0.023 1.0012351274490356 -0.029110612347722054 -1.6964972019195557e-05 2.1121464669704437e-05 0.0 0.0 0.0 0.0
0.024 0.9957061409950256 -0.030489308759570122 6.317161023616791e-06 0.00024449266493320465 0.0 0.0 0.0 0.0
0.025 1.002927303314209 -0.03630976378917694 0.0001044590026140213 9.414739906787872e-06 0.0 0.0 0.0 0.0
0.026 1.001232624053955 -0.03798834979534149 -4.424434155225754e-05 2.2100284695625305e-06 0.0 0.0 0.0 0.0
0.027 0.9981861710548401 -0.03463060408830643 -0.00017261039465665817 -1.7872080206871033e-05 0.0 0.0 0.0 0.0
0.028 0.9978908896446228 -0.037633996456861496 -0.00012882240116596222 0.00010548625141382217 0.0 0.0 0.0 0.0
0.029 0.9987661838531494 -0.037807099521160126 2.4306587874889374e-05 -2.6880763471126556e-05 0.0 0.0 0.0 0.0
0.03 1.0028436183929443 -0.04191485419869423 4.1338615119457245e-05 7.266458123922348e-05 0.0 0.0 0.0 0.0
0.031 1.001765251159668 -0.041773322969675064 0.00011603347957134247 3.797560930252075e-05 0.0 0.0 0.0 0.0
0.032 1.001970887184143 -0.04079977795481682 -0.00017289351671934128 7.300917059183121e-05 0.0 0.0 0.0 0.0
0.033 0.9991120100021362 -0.04497794434428215 8.39773565530777e-06 -0.00012541934847831726 0.0 0.0 0.0 0.0
0.034 0.9986264109611511 -0.04695840924978256 -5.878135561943054e-05 -8.089467883110046e-05 0.0 0.0 0.0 0.0
0.035 0.9969713091850281 -0.04740118980407715 -0.00013809651136398315 -3.172829747200012e-05 0.0 0.0 0.0 0.0
0.036 0.9984069466590881 -0.046056825667619705 -2.2191554307937622e-05 0.00011209584772586823 0.0 0.0 0.0 0.0
0.037 1.0012701749801636 -0.051401276141405106 1.9812025129795074e-05 0.00010297819972038269 0.0 0.0 0.0 0.0
0.038 0.9989051818847656 -0.05017463490366936 0.00010676123201847076 7.210578769445419e-05 0.0 0.0 0.0 0.0
0.039 0.9983113408088684 -0.052860844880342484 -4.095025360584259e-06 -6.295088678598404e-05 0.0 0.0 0.0 0.0
0.04 0.996829092502594 -0.053121183067560196 -0.00014606863260269165 4.636682569980621e-05 0.0 0.0 0.0 0.0
0.041 0.9953059554100037 -0.05688154697418213 -5.85261732339859e-05 -4.2378902435302734e-05 0.0 0.0 0.0 0.0
0.042 0.9990755319595337 -0.05716487020254135 6.772670894861221e-05 8.434895426034927e-05 0.0 0.0 0.0 0.0
0.043 0.9992359280586243 -0.05711076408624649 -1.8555670976638794e-05 6.063003093004227e-05 0.0 0.0 0.0 0.0
0.044 0.9991727471351624 -0.061826203018426895 -0.00018337462097406387 2.205837517976761e-05 0.0 0.0 0.0 0.0
0.045 0.9973918795585632 -0.05728021264076233 -0.0001588873565196991 -0.00010805204510688782 0.0 0.0 0.0 0.0
0.046 0.9952036142349243 -0.060538679361343384 -0.0001640552654862404 -1.2122094631195068e-05 0.0 0.0 0.0 0.0
0.047 0.9987842440605164 -0.06436913460493088 -0.00018332619220018387 8.420553058385849e-05 0.0 0.0 0.0 0.0
0.048 1.0004006624221802 -0.06289259344339371 3.518909215927124e-05 6.22803345322609e-05 0.0 0.0 0.0 0.0
0.049 0.9935356378555298 -0.0674293115735054 -6.920378655195236e-05 -4.195142537355423e-05 0.0 0.0 0.0 0.0
0.05 0.9969738125801086 -0.06312714517116547 -0.00013376213610172272 -0.00010300334542989731 0.0 0.0 0.0 0.0
0.051 0.9986162781715393 -0.0664379745721817 3.6393292248249054e-05 0.00013968069106340408 0.0 0.0 0.0 0.0
0.052 0.9955374002456665 -0.07186008989810944 8.228328078985214e-05 1.9097700715065002e-05 0.0 0.0 0.0 0.0
0.053 0.998367190361023 -0.07245181500911713 -8.851848542690277e-05 -0.00011427421122789383 0.0 0.0 0.0 0.0
0.054 0.9928225874900818 -0.0737418532371521 -0.00023505836725234985 7.896870374679565e-05 0.0 0.0 0.0 0.0
0.055 0.9984878301620483 -0.06998340785503387 -0.00012747850269079208 4.732515662908554e-05 0.0 0.0 0.0 0.0
0.056 0.9968647956848145 -0.07431655377149582 -9.437184780836105e-05 9.191874414682388e-05 0.0 0.0 0.0 0.0
0.057 0.9940546751022339 -0.07748556137084961 -3.150198608636856e-05 3.011990338563919e-05 0.0 0.0 0.0 0.0
0.058 0.997143030166626 -0.08066439628601074 -2.6470981538295746e-05 -9.141862392425537e-05 0.0 0.0 0.0 0.0
0.059 0.9947440028190613 -0.07824145257472992 -2.3934058845043182e-05 0.00026998016983270645 0.0 0.0 0.0 0.0
0.06 1.0005695819854736 -0.08194398134946823 3.574788570404053e-05 0.00013468507677316666 0.0 0.0 0.0 0.0
0.061 0.9952046275138855 -0.0792691707611084 -0.00010836776345968246 5.3629279136657715e-05 0.0 0.0 0.0 0.0
0.062 0.9963961839675903 -0.08265236765146255 3.4071505069732666e-05 8.463114500045776e-05 0.0 0.0 0.0 0.0
0.063 0.9974905848503113 -0.08419083058834076 3.5033561289310455e-05 6.096344441175461e-05 0.0 0.0 0.0 0.0
0.064 0.995307981967926 -0.08964739739894867 -9.966176003217697e-05 -2.2845342755317688e-05 0.0 0.0 0.0 0.0
0.065 0.992774248123169 -0.08410783857107162 -5.505140870809555e-05 -0.00015423819422721863 0.0 0.0 0.0 0.0
0.066 0.9923633337020874 -0.08843092620372772 -8.551310747861862e-05 -7.635913789272308e-06 0.0 0.0 0.0 0.0
0.067 0.9957165718078613 -0.09061219543218613 -7.888022810220718e-05 0.00013356562703847885 0.0 0.0 0.0 0.0
0.068 0.9968385696411133 -0.08968590199947357 -1.3295561075210571e-05 0.0001941276714205742 0.0 0.0 0.0 0.0
0.069 0.9972876310348511 -0.09284674376249313 1.9225291907787323e-05 -0.00013098213821649551 0.0 0.0 0.0 0.0
0.07 0.9922068119049072 -0.09774067997932434 -1.8417835235595703e-05 -9.847618639469147e-05 0.0 0.0 0.0 0.0
0.071 0.9929608106613159 -0.09690532833337784 -0.00012917350977659225 8.570961654186249e-06 0.0 0.0 0.0 0.0
0.072 0.9950277805328369 -0.09597871452569962 -0.00013176444917917252 -1.401267945766449e-05 0.0 0.0 0.0 0.0
0.073 0.9930509924888611 -0.0979793518781662 -0.0001531466841697693 5.0584785640239716e-05 0.0 0.0 0.0 0.0
0.074 0.9910618662834167 -0.1003933846950531 -0.00012043304741382599 0.0002085147425532341 0.0 0.0 0.0 0.0
0.075 0.9966561198234558 -0.096829853951931 1.5099532902240753e-05 0.00016348250210285187 0.0 0.0 0.0 0.0
0.076 0.9955295920372009 -0.10113892704248428 5.452893674373627e-06 -7.058493793010712e-06 0.0 0.0 0.0 0.0
0.077 0.9924928545951843 -0.10494678467512131 0.0001166611909866333 -0.00020160898566246033 0.0 0.0 0.0 0.0
0.078 0.9951710104942322 -0.10633957386016846 -5.574710667133331e-05 -0.00015933625400066376 0.0 0.0 0.0 0.0
0.079 0.9947503805160522 -0.10664282739162445 -0.00011429097503423691 -7.192045450210571e-05 0.0 0.0 0.0 0.0
0.08 0.9931267499923706 -0.11068166047334671 4.457496106624603e-05 4.483945667743683e-05 0.0 0.0 0.0 0.0
0.081 0.9868370294570923 -0.10576950013637543 -0.00014434568583965302 -9.157788008451462e-05 0.0 0.0 0.0 0.0
0.082 0.9919582605361938 -0.10723596066236496 -5.572754889726639e-05 -4.336796700954437e-05 0.0 0.0 0.0 0.0
0.083 0.9917882084846497 -0.11138143390417099 -4.9221329391002655e-05 5.923863500356674e-05 0.0 0.0 0.0 0.0
0.084 0.991706371307373 -0.11196048557758331 -5.116034299135208e-05 0.0001122932881116867 0.0 0.0 0.0 0.0
0.085 0.9935563206672668 -0.1162755936384201 1.0731630027294159e-05 -5.2889809012413025e-06 0.0 0.0 0.0 0.0
0.086 0.9880284070968628 -0.1187886893749237 4.187040030956268e-05 6.795674562454224e-05 0.0 0.0 0.0 0.0
0.087 0.9898772239685059 -0.115082748234272 -3.834441304206848e-05 -8.678808808326721e-05 0.0 0.0 0.0 0.0
0.088 0.9900140762329102 -0.11811891198158264 -9.71546396613121e-05 2.9993243515491486e-05 0.0 0.0 0.0 0.0
0.089 0.990469217300415 -0.11878140270709991 -0.00019352789968252182 -1.3352371752262115e-05 0.0 0.0 0.0 0.0
0.09 0.9895933866500854 -0.11892031878232956 -0.00021822936832904816 0.00021928641945123672 0.0 0.0 0.0 0.0
0.091 0.9874123334884644 -0.12369810044765472 -0.00018870364874601364 -4.7110021114349365e-05 0.0 0.0 0.0 0.0
0.092 0.9931206703186035 -0.12120149284601212 -0.0001376783475279808 0.00011909659951925278 0.0 0.0 0.0 0.0
0.093 0.9913297295570374 -0.12188458442687988 7.618218660354614e-06 0.0001363065093755722 0.0 0.0 0.0 0.0
0.094 0.9914942383766174 -0.12398839741945267 3.634300082921982e-05 1.7745420336723328e-05 0.0 0.0 0.0 0.0
0.095 0.9906816482543945 -0.13102102279663086 5.324278026819229e-05 1.5129335224628448e-05 0.0 0.0 0.0 0.0
0.096 0.99139803647995 -0.12935198843479156 4.872679710388184e-06 -7.794983685016632e-05 0.0 0.0 0.0 0.0
0.097 0.9883421659469604 -0.1276702731847763 -0.0001921253278851509 0.000147232785820961 0.0 0.0 0.0 0.0
0.098 0.9887471795082092 -0.13293813169002533 -0.0001737019047141075 8.059758692979813e-05 0.0 0.0 0.0 0.0
0.099 0.9864171743392944 -0.1311958283185959 4.446785897016525e-05 0.00010914914309978485 0.0 0.0 0.0 0.0
0.1 0.9934835433959961 -0.1322574019432068 4.7381967306137085e-05 9.427685290575027e-05 0.0 0.0 0.0 0.0
0.101 0.9870081543922424 -0.13976000249385834 1.2646429240703583e-05 -2.059154212474823e-06 0.0 0.0 0.0 0.0
0.102 0.9887635111808777 -0.14000065624713898 -0.00012714508920907974 0.00016156770288944244 0.0 0.0 0.0 0.0
0.103 0.9846785664558411 -0.1404343545436859 -3.4067779779434204e-05 -3.7886202335357666e-06 0.0 0.0 0.0 0.0
0.104 0.985777735710144 -0.14167320728302002 -6.804149597883224e-05 1.8598511815071106e-05 0.0 0.0 0.0 0.0
0.105 0.9870070219039917 -0.14424702525138855 -5.019828677177429e-06 -3.275834023952484e-05 0.0 0.0 0.0 0.0
0.106 0.9851709604263306 -0.14577120542526245 -3.4555792808532715e-05 -4.108808934688568e-05 0.0 0.0 0.0 0.0
0.107 0.9858429431915283 -0.14726859331130981 0.00015615951269865036 0.00010382384061813354 0.0 0.0 0.0 0.0
0.108 0.9862105250358582 -0.14781597256660461 -6.873998790979385e-05 4.7122128307819366e-05 0.0 0.0 0.0 0.0
0.109 0.9854726791381836 -0.1488942950963974 5.4426491260528564e-05 4.255864769220352e-05 0.0 0.0 0.0 0.0
0.11 0.9863794445991516 -0.15100225806236267 -1.78460031747818e-05 0.00012763217091560364 0.0 0.0 0.0 0.0
0.111 0.9846596717834473 -0.15159519016742706 -3.604870289564133e-05 1.8991529941558838e-05 0.0 0.0 0.0 0.0
0.112 0.9847017526626587 -0.15219852328300476 -0.00010826624929904938 -1.301150768995285e-05 0.0 0.0 0.0 0.0
0.113 0.9842119812965393 -0.15550392866134644 0.00013170670717954636 5.17992302775383e-05 0.0 0.0 0.0 0.0
0.114 0.9843931794166565 -0.15707440674304962 -7.662177085876465e-05 7.12033361196518e-05 0.0 0.0 0.0 0.0
0.115 0.9840696454048157 -0.15755094587802887 8.791033178567886e-05 5.295034497976303e-05 0.0 0.0 0.0 0.0
0.116 0.9830065369606018 -0.15860837697982788 9.322818368673325e-05 -2.5425106287002563e-07 0.0 0.0 0.0 0.0
0.117 0.9829925894737244 -0.16009044647216797 4.2469240725040436e-05 2.7280300855636597e-05 0.0 0.0 0.0 0.0
0.118 0.983156144618988 -0.162165105342865 7.196422666311264e-05 -9.48738306760788e-06 0.0 0.0 0.0 0.0
0.119 0.9822869896888733 -0.1625443696975708 6.200000643730164e-05 3.3266842365264893e-06 0.0 0.0 0.0 0.0
0.12 0.9815313816070557 -0.16322094202041626 0.00010922737419605255 -0.00020932592451572418 0.0 0.0 0.0 0.0
0.121 0.9804825186729431 -0.16453619301319122 -7.579941302537918e-05 7.543712854385376e-07 0.0 0.0 0.0 0.0
0.122 0.9812638163566589 -0.1660192310810089 7.430557161569595e-05 9.686034172773361e-05 0.0 0.0 0.0 0.0
0.123 0.9813632369041443 -0.1692136824131012 -1.9167549908161163e-05 -7.197167724370956e-05 0.0 0.0 0.0 0.0
0.124 0.9805895686149597 -0.16838109493255615 -4.883855581283569e-06 4.544854164123535e-06 0.0 0.0 0.0 0.0
0.125 0.9810727834701538 -0.17109175026416779 5.9917569160461426e-05 2.6742927730083466e-05 0.0 0.0 0.0 0.0
0.126 0.9803770184516907 -0.17159007489681244 -3.548804670572281e-05 -7.416494190692902e-05 0.0 0.0 0.0 0.0
0.127 0.9794891476631165 -0.17303083837032318 -8.877180516719818e-05 8.72388482093811e-05 0.0 0.0 0.0 0.0
0.128 0.9803548455238342 -0.17348146438598633 7.845461368560791e-05 -6.613042205572128e-05 0.0 0.0 0.0 0.0
0.129 0.9781098365783691 -0.17537857592105865 -1.689419150352478e-05 7.261615246534348e-05 0.0 0.0 0.0 0.0
0.13 0.9786660075187683 -0.17716948688030243 -0.0002435147762298584 -6.156042218208313e-05 0.0 0.0 0.0 0.0
0.131 0.9794796705245972 -0.17689193785190582 6.970670074224472e-05 8.223019540309906e-05 0.0 0.0 0.0 0.0
0.132 0.9786257743835449 -0.17903193831443787 -0.00015819072723388672 -5.561765283346176e-05 0.0 0.0 0.0 0.0
0.133 0.9775487780570984 -0.1812686026096344 -6.712693721055984e-05 -8.314941078424454e-05 0.0 0.0 0.0 0.0
0.134 0.9766057729721069 -0.18091319501399994 4.7519803047180176e-05 0.00013826508074998856 0.0 0.0 0.0 0.0
0.135 0.9769508838653564 -0.18197454512119293 -9.107217192649841e-05 6.046611815690994e-05 0.0 0.0 0.0 0.0
0.136 0.9767672419548035 -0.18455523252487183 -0.00011018291115760803 0.00018924754112958908 0.0 0.0 0.0 0.0
0.137 0.9789285659790039 -0.18396954238414764 3.4868717193603516e-06 6.007123738527298e-05 0.0 0.0 0.0 0.0
0.138 0.9763415455818176 -0.18619956076145172 -9.919144213199615e-05 -0.00012708734720945358 0.0 0.0 0.0 0.0
0.139 0.9755393862724304 -0.1900474578142166 -1.2042000889778137e-06 3.0681490898132324e-05 0.0 0.0 0.0 0.0
0.14 0.9761723279953003 -0.1885981559753418 2.9410235583782196e-05 0.00014107860624790192 0.0 0.0 0.0 0.0
0.141 0.9769504070281982 -0.19009216129779816 -0.00010980479419231415 2.8038397431373596e-05 0.0 0.0 0.0 0.0
0.142 0.9750694036483765 -0.19127938151359558 -3.882311284542084e-05 6.863754242658615e-05 0.0 0.0 0.0 0.0
0.143 0.9763373136520386 -0.19498126208782196 9.507406502962112e-05 0.00011610426008701324 0.0 0.0 0.0 0.0
0.144 0.9751273393630981 -0.1944434940814972 1.926720142364502e-05 8.33878293633461e-05 0.0 0.0 0.0 0.0
0.145 0.9765006899833679 -0.19585129618644714 3.6755576729774475e-05 5.82551583647728e-05 0.0 0.0 0.0 0.0
0.146 0.9732785820960999 -0.19711188971996307 -6.41820952296257e-05 -0.00014137569814920425 0.0 0.0 0.0 0.0
0.147 0.9740289449691772 -0.1989603489637375 0.00015802029520273209 -1.864507794380188e-05 0.0 0.0 0.0 0.0
0.148 0.9733258485794067 -0.20053185522556305 -8.354522287845612e-05 -9.667035192251205e-05 0.0 0.0 0.0 0.0
0.149 0.9734615683555603 -0.2006327509880066 0.00014192983508110046 -2.6104971766471863e-06 0.0 0.0 0.0 0.0
0.15 0.9734043478965759 -0.2035035341978073 -3.4685246646404266e-05 -6.280187517404556e-05 0.0 0.0 0.0 0.0
0.151 0.9727413654327393 -0.2031862884759903 -6.448943167924881e-05 -0.00010986253619194031 0.0 0.0 0.0 0.0
0.152 0.9718160033226013 -0.2048499882221222 5.749240517616272e-05 -9.39955934882164e-05 0.0 0.0 0.0 0.0
0.153 0.972335696220398 -0.20456476509571075 -0.00019832327961921692 -2.633407711982727e-05 0.0 0.0 0.0 0.0
0.154 0.9713398218154907 -0.20840062201023102 -8.277129381895065e-05 3.849063068628311e-05 0.0 0.0 0.0 0.0
0.155 0.9713410139083862 -0.2075059711933136 2.857297658920288e-05 -0.00013100169599056244 0.0 0.0 0.0 0.0
0.156 0.9717163443565369 -0.21167053282260895 -9.704381227493286e-07 -7.344316691160202e-05 0.0 0.0 0.0 0.0
0.157 0.9700492024421692 -0.20976637303829193 8.510798215866089e-05 9.818747639656067e-05 0.0 0.0 0.0 0.0
0.158 0.969785749912262 -0.21154196560382843 4.826020449399948e-05 0.0001532863825559616 0.0 0.0 0.0 0.0
0.159 0.9704399108886719 -0.21179154515266418 -2.6872381567955017e-05 3.46088781952858e-05 0.0 0.0 0.0 0.0
0.16 0.9693717360496521 -0.2138623744249344 -1.7879530787467957e-05 7.28042796254158e-05 0.0 0.0 0.0 0.0
0.161 0.9697363972663879 -0.2151804119348526 -0.00010009296238422394 5.688518285751343e-06 0.0 0.0 0.0 0.0
0.162 0.967631459236145 -0.217477947473526 -0.00016840267926454544 7.604341953992844e-05 0.0 0.0 0.0 0.0
0.163 0.9692162871360779 -0.2183629870414734 -5.218200385570526e-05 -1.4807097613811493e-05 0.0 0.0 0.0 0.0
0.164 0.9696455001831055 -0.2181369513273239 3.795139491558075e-05 0.00010444130748510361 0.0 0.0 0.0 0.0
0.165 0.9655982851982117 -0.21961446106433868 -1.9946135580539703e-05 -1.953914761543274e-05 0.0 0.0 0.0 0.0
0.166 0.9698870182037354 -0.22256845235824585 -0.00011373031884431839 -2.7385540306568146e-05 0.0 0.0 0.0 0.0
0.167 0.9654231071472168 -0.22370103001594543 3.2549723982810974e-06 8.951034396886826e-05 0.0 0.0 0.0 0.0
0.168 0.9658238291740417 -0.223847895860672 -8.07642936706543e-05 1.4923512935638428e-05 0.0 0.0 0.0 0.0
0.169 0.9665408134460449 -0.22480398416519165 6.967224180698395e-06 -2.858322113752365e-05 0.0 0.0 0.0 0.0
0.17 0.9647350907325745 -0.2270035296678543 8.168164640665054e-05 7.320940494537354e-05 0.0 0.0 0.0 0.0
0.171 0.9626618027687073 -0.22769734263420105 -5.664117634296417e-05 7.082801312208176e-05 0.0 0.0 0.0 0.0
0.172 0.9658661484718323 -0.23111027479171753 -6.976258009672165e-05 -2.577807754278183e-05 0.0 0.0 0.0 0.0
0.173 0.9649145007133484 -0.23110990226268768 -4.6197324991226196e-05 5.932524800300598e-07 0.0 0.0 0.0 0.0
0.174 0.9654995799064636 -0.23007836937904358 -4.602596163749695e-06 0.00018543750047683716 0.0 0.0 0.0 0.0
0.175 0.9640117287635803 -0.2308027446269989 3.629177808761597e-05 2.1366402506828308e-05 0.0 0.0 0.0 0.0
0.176 0.963901162147522 -0.2366570383310318 3.623776137828827e-06 4.250556230545044e-05 0.0 0.0 0.0 0.0
0.177 0.9642062187194824 -0.23351070284843445 -5.9116631746292114e-05 -8.89711081981659e-05 0.0 0.0 0.0 0.0
0.178 0.9623526930809021 -0.23651176691055298 -4.083849489688873e-05 -0.00014914944767951965 0.0 0.0 0.0 0.0
0.179 0.9624277353286743 -0.2356993407011032 -2.7385540306568146e-05 3.6240555346012115e-05 0.0 0.0 0.0 0.0
0.18 0.964286208152771 -0.23723022639751434 1.8623657524585724e-05 0.0001065284013748169 0.0 0.0 0.0 0.0
0.181 0.9601249694824219 -0.23876674473285675 -8.425954729318619e-05 -9.101536124944687e-05 0.0 0.0 0.0 0.0
0.182 0.9621211290359497 -0.2429979145526886 5.286000669002533e-05 -0.00014495477080345154 0.0 0.0 0.0 0.0
0.183 0.9619677066802979 -0.2402365505695343 -6.56740739941597e-05 9.621866047382355e-05 0.0 0.0 0.0 0.0
0.184 0.9602745771408081 -0.24451449513435364 -3.876723349094391e-05 7.744133472442627e-05 0.0 0.0 0.0 0.0
