!Created with skrf (http://scikit-rf.org).
# GHz S RI R 50.0 
!freq ReS11 ImS11 ReS21 ImS21 ReS12 ImS12 ReS22 ImS22
0.001 -0.13957983255386353 -0.056628741323947906 2.691522240638733e-06 7.41761177778244e-05 0.0 0.0 0.0 0.0
0.002 -0.09736916422843933 -0.002981504425406456 3.671366721391678e-05 -2.4162232875823975e-05 0.0 0.0 0.0 0.0
0.003 -0.08252771943807602 0.010614490136504173 -8.95010307431221e-05 -0.00016026291996240616 0.0 0.0 0.0 0.0
0.004 -0.07159772515296936 0.01332690380513668 0.0001080092042684555 0.0001369677484035492 0.0 0.0 0.0 0.0
0.005 -0.06420343369245529 0.013940421864390373 -2.6542693376541138e-05 2.9620714485645294e-05 0.0 0.0 0.0 0.0
0.006 -0.0604078583419323 0.012818891555070877 -0.00022978894412517548 8.37612897157669e-05 0.0 0.0 0.0 0.0
0.007 -0.05785733833909035 0.010231480933725834 0.00011316128075122833 6.80927187204361e-05 0.0 0.0 0.0 0.0
0.008 -0.05519361048936844 0.007794874720275402 0.0001033935695886612 3.441330045461655e-05 0.0 0.0 0.0 0.0
0.009 -0.05328410491347313 0.0074337683618068695 1.6629695892333984e-05 0.00013424362987279892 0.0 0.0 0.0 0.0
0.01 -0.052833955734968185 0.0055744582787156105 -1.967884600162506e-06 1.8281862139701843e-06 0.0 0.0 0.0 0.0
0.011 -0.052012503147125244 0.003763800486922264 9.462237358093262e-06 -3.80268320441246e-05 0.0 0.0 0.0 0.0
0.012 -0.0518302246928215 0.003767583519220352 7.270835340023041e-06 -3.207847476005554e-05 0.0 0.0 0.0 0.0
0.013 -0.05229775235056877 0.0026932675391435623 -0.0002449043095111847 -0.00023117568343877792 0.0 0.0 0.0 0.0
0.014 -0.051428329199552536 0.002020522952079773 -1.1874362826347351e-06 2.4407170712947845e-05 0.0 0.0 0.0 0.0
0.015 -0.05191059410572052 2.5277957320213318e-05 0.00025434140115976334 9.642913937568665e-06 0.0 0.0 0.0 0.0
0.016 -0.05226217582821846 -9.670015424489975e-05 -6.503146141767502e-05 0.00021740887314081192 0.0 0.0 0.0 0.0
0.017 -0.0523068867623806 -0.002224723808467388 -1.6809441149234772e-05 -8.854828774929047e-05 0.0 0.0 0.0 0.0
0.018 -0.052740857005119324 -0.001582958735525608 -4.0687620639801025e-05 -1.5418045222759247e-05 0.0 0.0 0.0 0.0
0.019 -0.05271104350686073 -0.0018793456256389618 -3.1284987926483154e-05 -8.269865065813065e-05 0.0 0.0 0.0 0.0
0.02 -0.05211380869150162 -0.0030943192541599274 3.10773029923439e-05 -3.094132989645004e-05 0.0 0.0 0.0 0.0
0.021 -0.05251741409301758 -0.004048893228173256 3.3797696232795715e-05 -1.8592923879623413e-05 0.0 0.0 0.0 0.0
0.022 -0.05333152785897255 -0.004598635248839855 0.00014190375804901123 -5.336292088031769e-05 0.0 0.0 0.0 0.0
0.023 -0.05384238436818123 -0.004158089868724346 -9.199511259794235e-05 -0.000123719684779644 0.0 0.0 0.0 0.0
0.024 -0.052534982562065125 -0.004441338591277599 0.00015426985919475555 0.0001354757696390152 0.0 0.0 0.0 0.0
0.025 -0.05323423072695732 -0.005849713459610939 -7.588881999254227e-05 -6.0820020735263824e-05 0.0 0.0 0.0 0.0
0.026 -0.054591044783592224 -0.005923916585743427 -5.093403160572052e-06 -8.476246148347855e-05 0.0 0.0 0.0 0.0
0.027 -0.053652212023735046 -0.005265176296234131 -8.304324001073837e-05 -0.00013442803174257278 0.0 0.0 0.0 0.0
0.028 -0.05368531495332718 -0.006765919737517834 3.885477781295776e-06 0.0001766495406627655 0.0 0.0 0.0 0.0
0.029 -0.05418507754802704 -0.00721746776252985 0.00013218261301517487 -2.731289714574814e-05 0.0 0.0 0.0 0.0
0.03 -0.05404087156057358 -0.006953131407499313 2.0835548639297485e-05 -0.0001139836385846138 0.0 0.0 0.0 0.0
0.031 -0.055348627269268036 -0.007467550225555897 -4.170183092355728e-05 -8.042063564062119e-05 0.0 0.0 0.0 0.0
0.032 -0.05395697057247162 -0.007746023125946522 -7.204525172710419e-05 0.00012339092791080475 0.0 0.0 0.0 0.0
0.033 -0.05523858964443207 -0.006759042851626873 -9.513646364212036e-05 -4.9583613872528076e-05 0.0 0.0 0.0 0.0
0.034 -0.055838536471128464 -0.007336319424211979 -0.00015414506196975708 2.0015984773635864e-05 0.0 0.0 0.0 0.0
0.035 -0.055289365351200104 -0.0074744150042533875 -4.7398731112480164e-05 0.00014840718358755112 0.0 0.0 0.0 0.0
0.036 -0.0549749992787838 -0.008409429341554642 -5.279667675495148e-06 -2.201087772846222e-05 0.0 0.0 0.0 0.0
0.037 -0.05564162880182266 -0.008816647343337536 -5.7396478950977325e-05 7.188692688941956e-05 0.0 0.0 0.0 0.0
0.038 -0.05636734887957573 -0.008011648431420326 -7.727090269327164e-05 -0.00014483556151390076 0.0 0.0 0.0 0.0
0.039 -0.056522078812122345 -0.008165203966200352 -0.00016918126493692398 6.458815187215805e-05 0.0 0.0 0.0 0.0
0.04 -0.05584397912025452 -0.008275718428194523 6.857607513666153e-05 7.59446993470192e-05 0.0 0.0 0.0 0.0
0.041 -0.05648118257522583 -0.008188791573047638 -0.00014189258217811584 1.349765807390213e-05 0.0 0.0 0.0 0.0
0.042 -0.05572780966758728 -0.008994942530989647 -2.733338624238968e-05 2.1947547793388367e-05 0.0 0.0 0.0 0.0
0.043 -0.056628867983818054 -0.010129453614354134 0.00010840501636266708 1.720339059829712e-05 0.0 0.0 0.0 0.0
0.044 -0.0574539415538311 -0.009406143799424171 -4.643294960260391e-05 -6.378907710313797e-05 0.0 0.0 0.0 0.0
0.045 -0.05644028261303902 -0.009392932057380676 -0.00010990817099809647 3.457162529230118e-05 0.0 0.0 0.0 0.0
0.046 -0.056713808327913284 -0.008567571640014648 -1.232139766216278e-05 7.289182394742966e-05 0.0 0.0 0.0 0.0
0.047 -0.05611279979348183 -0.009388056583702564 -8.706096559762955e-05 2.365466207265854e-05 0.0 0.0 0.0 0.0
0.048 -0.056859858334064484 -0.008788498118519783 -0.00015035457909107208 -4.800129681825638e-05 0.0 0.0 0.0 0.0
0.049 -0.05685197561979294 -0.010603844188153744 -1.7035752534866333e-05 2.42721289396286e-05 0.0 0.0 0.0 0.0
0.05 -0.05742780119180679 -0.01057410053908825 1.7354264855384827e-05 -0.0001512756571173668 0.0 0.0 0.0 0.0
0.051 -0.05819873511791229 -0.009896490722894669 -0.00011887867003679276 -3.0283816158771515e-05 0.0 0.0 0.0 0.0
0.052 -0.058003149926662445 -0.009623306803405285 1.7216429114341736e-05 -3.898143768310547e-05 0.0 0.0 0.0 0.0
0.053 -0.057010799646377563 -0.010604528710246086 4.3633393943309784e-05 0.00017934851348400116 0.0 0.0 0.0 0.0
0.054 -0.058066047728061676 -0.011030799709260464 0.00011760462075471878 3.148801624774933e-05 0.0 0.0 0.0 0.0
0.055 -0.058049965649843216 -0.010805245488882065 3.5120174288749695e-06 -0.00022097863256931305 0.0 0.0 0.0 0.0
0.056 -0.058673251420259476 -0.011197722516953945 -4.825182259082794e-05 0.0001339530572295189 0.0 0.0 0.0 0.0
0.057 -0.0583549402654171 -0.009840552695095539 -3.6745332181453705e-05 3.2415613532066345e-05 0.0 0.0 0.0 0.0
0.058 -0.05741678923368454 -0.01096573006361723 -4.621781408786774e-05 0.00016020517796278 0.0 0.0 0.0 0.0
0.059 -0.058837540447711945 -0.011656800284981728 2.1263957023620605e-05 -5.469657480716705e-05 0.0 0.0 0.0 0.0
0.06 -0.05880487710237503 -0.010401451028883457 -0.00013792328536510468 -0.00010508392006158829 0.0 0.0 0.0 0.0
0.061 -0.05880239978432655 -0.011593920178711414 -1.345016062259674e-05 -0.00018206238746643066 0.0 0.0 0.0 0.0
0.062 -0.05881296470761299 -0.011721394956111908 -6.3693150877952576e-06 -6.229616701602936e-06 0.0 0.0 0.0 0.0
0.063 -0.05925529822707176 -0.010905975475907326 -9.445659816265106e-05 -0.00014428701251745224 0.0 0.0 0.0 0.0
0.064 -0.059529758989810944 -0.012112421914935112 -1.3504177331924438e-07 -0.00014253519475460052 0.0 0.0 0.0 0.0
0.065 -0.05902022495865822 -0.010879099369049072 -6.107334047555923e-05 -3.11974436044693e-05 0.0 0.0 0.0 0.0
0.066 -0.059263575822114944 -0.011286832392215729 -0.00014752428978681564 4.2001716792583466e-05 0.0 0.0 0.0 0.0
0.067 -0.05914076417684555 -0.011189891025424004 -7.223058491945267e-05 9.829830378293991e-05 0.0 0.0 0.0 0.0
0.068 -0.05869991332292557 -0.011138211004436016 -5.625281482934952e-05 5.2063725888729095e-05 0.0 0.0 0.0 0.0
0.069 -0.05810265988111496 -0.011526866815984249 -4.0230341255664825e-05 1.4060176908969879e-05 0.0 0.0 0.0 0.0
0.07 -0.05982344597578049 -0.012062368914484978 0.00010769069194793701 -0.00010881107300519943 0.0 0.0 0.0 0.0
0.071 -0.059167683124542236 -0.01205874141305685 -5.664397031068802e-05 1.6435980796813965e-05 0.0 0.0 0.0 0.0
0.072 -0.05969232693314552 -0.011347571387887001 7.945764809846878e-05 9.607523679733276e-06 0.0 0.0 0.0 0.0
0.073 -0.05919996649026871 -0.011517890729010105 -0.00017547234892845154 -6.819609552621841e-05 0.0 0.0 0.0 0.0
0.074 -0.05990855395793915 -0.011823073029518127 -0.000112118199467659 -0.00014277733862400055 0.0 0.0 0.0 0.0
0.075 -0.058647241443395615 -0.01188202016055584 -0.0001651812344789505 0.00010881945490837097 0.0 0.0 0.0 0.0
0.076 -0.058909446001052856 -0.012892261147499084 0.00012922100722789764 4.6611763536930084e-05 0.0 0.0 0.0 0.0
0.077 -0.058818984776735306 -0.01293069589883089 2.1938234567642212e-05 6.957724690437317e-05 0.0 0.0 0.0 0.0
0.078 -0.06025426834821701 -0.012755513191223145 7.627811282873154e-05 -0.00011760368943214417 0.0 0.0 0.0 0.0
0.079 -0.059335533529520035 -0.013583411462605 -2.0687468349933624e-05 1.3871118426322937e-05 0.0 0.0 0.0 0.0
0.08 -0.06047510355710983 -0.012590738944709301 8.445139974355698e-05 -4.1740015149116516e-05 0.0 0.0 0.0 0.0
0.081 -0.060596268624067307 -0.012493059039115906 -0.0001616552472114563 -4.614703357219696e-05 0.0 0.0 0.0 0.0
0.082 -0.06052390858530998 -0.013273716904222965 -4.1744671761989594e-05 -0.00010223034769296646 0.0 0.0 0.0 0.0
0.083 -0.06022742763161659 -0.01227254793047905 -0.00013394001871347427 -8.971989154815674e-05 0.0 0.0 0.0 0.0
0.084 -0.05934084206819534 -0.013208339922130108 7.892120629549026e-05 8.074752986431122e-05 0.0 0.0 0.0 0.0
0.085 -0.06075894460082054 -0.013464695774018764 8.498784154653549e-05 -4.530511796474457e-05 0.0 0.0 0.0 0.0
0.086 -0.060502417385578156 -0.013750754296779633 4.11132350564003e-05 -0.00013699661940336227 0.0 0.0 0.0 0.0
0.087 -0.06055554375052452 -0.013503397814929485 3.866851329803467e-06 3.5958364605903625e-05 0.0 0.0 0.0 0.0
0.088 -0.06088744103908539 -0.013430397026240826 -2.953317016363144e-05 -0.00017684418708086014 0.0 0.0 0.0 0.0
0.089 -0.06082983687520027 -0.013793369755148888 -7.303617894649506e-05 -8.147023618221283e-05 0.0 0.0 0.0 0.0
0.09 -0.0608159601688385 -0.01260547898709774 -1.7476268112659454e-05 -7.20759853720665e-05 0.0 0.0 0.0 0.0
0.091 -0.060907430946826935 -0.013871211558580399 5.377456545829773e-06 -0.00011543557047843933 0.0 0.0 0.0 0.0
0.092 -0.061093270778656006 -0.013704278506338596 -9.477324783802032e-05 -9.099021553993225e-06 0.0 0.0 0.0 0.0
0.093 -0.060579340904951096 -0.01298743300139904 -6.012432277202606e-05 -0.0001076841726899147 0.0 0.0 0.0 0.0
0.094 -0.05979730561375618 -0.013234604150056839 -7.798895239830017e-05 -3.3739954233169556e-05 0.0 0.0 0.0 0.0
0.095 -0.06031513959169388 -0.014595774933695793 1.7890706658363342e-06 8.110329508781433e-05 0.0 0.0 0.0 0.0
0.096 -0.061114538460969925 -0.014948977157473564 -2.0682811737060547e-05 -0.00013747066259384155 0.0 0.0 0.0 0.0
0.097 -0.06114837899804115 -0.013291002251207829 -8.915551006793976e-05 -0.00013382826000452042 0.0 0.0 0.0 0.0
0.098 -0.06047280877828598 -0.013343029655516148 -0.00018621515482664108 3.3221207559108734e-05 0.0 0.0 0.0 0.0
0.099 -0.059913210570812225 -0.013873472809791565 -2.880208194255829e-05 0.0003422331064939499 0.0 0.0 0.0 0.0
0.1 -0.06178867444396019 -0.013743169605731964 2.6163645088672638e-05 6.660819053649902e-06 0.0 0.0 0.0 0.0
0.101 -0.05935711786150932 -0.012821013107895851 8.918344974517822e-05 -7.636565715074539e-05 0.0 0.0 0.0 0.0
0.102 -0.05926899239420891 -0.012515983544290066 0.0001317029818892479 8.81776213645935e-05 0.0 0.0 0.0 0.0
0.103 -0.05970500409603119 -0.011758181266486645 1.1362135410308838e-06 4.282314330339432e-05 0.0 0.0 0.0 0.0
0.104 -0.06010037288069725 -0.013217275962233543 0.00011140387505292892 -0.00010756216943264008 0.0 0.0 0.0 0.0
0.105 -0.05925487354397774 -0.012679116800427437 -2.9426999390125275e-05 9.723939001560211e-05 0.0 0.0 0.0 0.0
0.106 -0.059620801359415054 -0.012549892999231815 -7.543899118900299e-05 -0.00011426582932472229 0.0 0.0 0.0 0.0
0.107 -0.059310901910066605 -0.013171919621527195 3.330409526824951e-06 0.0001014387235045433 0.0 0.0 0.0 0.0
0.108 -0.06026745215058327 -0.012991610914468765 -0.00011652521789073944 -2.0262785255908966e-05 0.0 0.0 0.0 0.0
0.109 -0.05959663540124893 -0.01272361446171999 -4.850514233112335e-05 0.0001271432265639305 0.0 0.0 0.0 0.0
0.11 -0.0597841739654541 -0.012994023971259594 -0.00010984204709529877 5.7159923017024994e-05 0.0 0.0 0.0 0.0
0.111 -0.06024681776762009 -0.012810375541448593 -2.870522439479828e-05 -6.342213600873947e-05 0.0 0.0 0.0 0.0
0.112 -0.059841133654117584 -0.013621092773973942 -5.280692130327225e-05 1.9540078938007355e-05 0.0 0.0 0.0 0.0
0.113 -0.060355640947818756 -0.01317143440246582 4.8629939556121826e-05 -2.272985875606537e-05 0.0 0.0 0.0 0.0
0.114 -0.06027936935424805 -0.013663452118635178 0.00015112478286027908 1.0807067155838013e-05 0.0 0.0 0.0 0.0
0.115 -0.060694217681884766 -0.01410908903926611 -2.3370608687400818e-05 -7.395166903734207e-05 0.0 0.0 0.0 0.0
0.116 -0.059883397072553635 -0.013669346459209919 5.569029599428177e-05 5.7996250689029694e-05 0.0 0.0 0.0 0.0
0.117 -0.06022541970014572 -0.014710228890180588 4.1270628571510315e-05 -7.901154458522797e-05 0.0 0.0 0.0 0.0
0.118 -0.060484468936920166 -0.014139254577457905 -6.125681102275848e-05 -0.00010784901678562164 0.0 0.0 0.0 0.0
0.119 -0.06090979650616646 -0.014183721505105495 -6.691645830869675e-05 3.3702701330184937e-05 0.0 0.0 0.0 0.0
0.12 -0.05972518026828766 -0.013965657912194729 1.8069520592689514e-05 0.00015905406326055527 0.0 0.0 0.0 0.0
0.121 -0.05979694426059723 -0.013852521777153015 7.885508239269257e-06 9.55360010266304e-05 0.0 0.0 0.0 0.0
0.122 -0.060967233031988144 -0.014460520818829536 -3.1461939215660095e-05 -2.908427268266678e-05 0.0 0.0 0.0 0.0
0.123 -0.05974644422531128 -0.014073926024138927 -7.090996950864792e-05 5.99101185798645e-05 0.0 0.0 0.0 0.0
0.124 -0.06089222803711891 -0.01447607297450304 9.566359221935272e-05 -0.00011212751269340515 0.0 0.0 0.0 0.0
0.125 -0.06107724830508232 -0.013988296501338482 -8.783116936683655e-05 -0.00010350532829761505 0.0 0.0 0.0 0.0
0.126 -0.06109212711453438 -0.014739884994924068 4.4257380068302155e-05 -8.968636393547058e-05 0.0 0.0 0.0 0.0
0.127 -0.06024177744984627 -0.014055358245968819 -0.0001691887155175209 1.0382384061813354e-05 0.0 0.0 0.0 0.0
0.128 -0.060045525431632996 -0.01454436406493187 -3.502238541841507e-05 9.261351078748703e-05 0.0 0.0 0.0 0.0
0.129 -0.06012597680091858 -0.0145528893917799 2.8638169169425964e-05 0.00014284905046224594 0.0 0.0 0.0 0.0
0.13 -0.06141485273838043 -0.014981870539486408 8.477829396724701e-05 -2.9226765036582947e-05 0.0 0.0 0.0 0.0
0.131 -0.06011020392179489 -0.015644824132323265 -3.6871060729026794e-05 4.302896559238434e-05 0.0 0.0 0.0 0.0
0.132 -0.06111547350883484 -0.015205562114715576 0.00011323858052492142 -5.3200870752334595e-05 0.0 0.0 0.0 0.0
0.133 -0.060348957777023315 -0.014856047928333282 -7.627252489328384e-05 1.4562159776687622e-05 0.0 0.0 0.0 0.0
0.134 -0.06032586470246315 -0.014844581484794617 3.709644079208374e-05 0.00012128707021474838 0.0 0.0 0.0 0.0
0.135 -0.06060101464390755 -0.014975759200751781 5.042180418968201e-05 0.00015681982040405273 0.0 0.0 0.0 0.0
0.136 -0.06062283366918564 -0.015772078186273575 6.193015724420547e-05 -2.5044195353984833e-05 0.0 0.0 0.0 0.0
0.137 -0.06048114597797394 -0.015967650339007378 7.427297532558441e-05 1.8963590264320374e-05 0.0 0.0 0.0 0.0
0.138 -0.06051307171583176 -0.01579149067401886 8.532870560884476e-05 7.1106478571891785e-06 0.0 0.0 0.0 0.0
0.139 -0.060608625411987305 -0.01580490730702877 1.285504549741745e-05 7.035024464130402e-05 0.0 0.0 0.0 0.0
0.14 -0.061633240431547165 -0.015658410266041756 -0.0001153377816081047 -3.961380571126938e-05 0.0 0.0 0.0 0.0
0.141 -0.06078461930155754 -0.015903601422905922 6.735604256391525e-05 0.00011103786528110504 0.0 0.0 0.0 0.0
0.142 -0.060725558549165726 -0.016215145587921143 0.00010695401579141617 -2.5187619030475616e-05 0.0 0.0 0.0 0.0
0.143 -0.06137488782405853 -0.016423838213086128 -2.260413020849228e-05 -2.3393891751766205e-05 0.0 0.0 0.0 0.0
0.144 -0.06106292083859444 -0.01677345111966133 7.086805999279022e-05 2.239365130662918e-05 0.0 0.0 0.0 0.0
0.145 -0.06128685921430588 -0.016160989180207253 -5.873385816812515e-05 -4.416704177856445e-05 0.0 0.0 0.0 0.0
0.146 -0.060754597187042236 -0.016452418640255928 0.00012325681746006012 2.5612302124500275e-05 0.0 0.0 0.0 0.0
0.147 -0.06097680330276489 -0.015925351530313492 7.878057658672333e-05 0.00014433450996875763 0.0 0.0 0.0 0.0
0.148 -0.06156066060066223 -0.01715756766498089 -1.976359635591507e-05 -5.877576768398285e-06 0.0 0.0 0.0 0.0
0.149 -0.061236172914505005 -0.016039526090025902 -4.178285598754883e-05 7.722247391939163e-05 0.0 0.0 0.0 0.0
0.15 -0.061044275760650635 -0.017339183017611504 0.00012360792607069016 2.282019704580307e-05 0.0 0.0 0.0 0.0
0.151 -0.06139760836958885 -0.016981104388833046 -4.031229764223099e-05 -5.9802085161209106e-05 0.0 0.0 0.0 0.0
0.152 -0.06208844855427742 -0.017124276608228683 -3.8506463170051575e-05 -0.00012082047760486603 0.0 0.0 0.0 0.0
0.153 -0.06141733005642891 -0.016936149448156357 -8.082017302513123e-05 -2.1657906472682953e-05 0.0 0.0 0.0 0.0
0.154 -0.06156426668167114 -0.01745431311428547 -1.534540206193924e-05 -3.8945116102695465e-05 0.0 0.0 0.0 0.0
0.155 -0.06097697466611862 -0.01702658273279667 7.75335356593132e-05 -1.0664574801921844e-05 0.0 0.0 0.0 0.0
0.156 -0.06097259372472763 -0.01686188019812107 -1.4188699424266815e-05 0.0001459931954741478 0.0 0.0 0.0 0.0
0.157 -0.06177351623773575 -0.01656859740614891 5.05959615111351e-05 2.189725637435913e-05 0.0 0.0 0.0 0.0
0.158 -0.0626726746559143 -0.01696721464395523 -3.233179450035095e-05 -0.00011187698692083359 0.0 0.0 0.0 0.0
0.159 -0.061421822756528854 -0.017709167674183846 9.6835196018219e-05 -6.855465471744537e-05 0.0 0.0 0.0 0.0
0.16 -0.06140880659222603 -0.01679111272096634 0.0001420527696609497 3.3260323107242584e-05 0.0 0.0 0.0 0.0
0.161 -0.062490738928318024 -0.017619965597987175 -2.014636993408203e-05 2.207048237323761e-05 0.0 0.0 0.0 0.0
0.162 -0.06107478588819504 -0.018014712259173393 -6.824638694524765e-05 4.9066729843616486e-05 0.0 0.0 0.0 0.0
0.163 -0.061165567487478256 -0.017589358612895012 -1.783575862646103e-05 3.117229789495468e-05 0.0 0.0 0.0 0.0
0.164 -0.06236346811056137 -0.017927397042512894 1.5459954738616943e-05 8.80565494298935e-06 0.0 0.0 0.0 0.0
0.165 -0.06163526326417923 -0.0173672866076231 -4.914961755275726e-05 0.00010239612311124802 0.0 0.0 0.0 0.0
0.166 -0.06151367723941803 -0.01735827699303627 -0.00016259588301181793 -5.589239299297333e-05 0.0 0.0 0.0 0.0
0.167 -0.061877962201833725 -0.018328288570046425 5.406513810157776e-05 -3.683660179376602e-05 0.0 0.0 0.0 0.0
0.168 -0.061776045709848404 -0.01858365722000599 3.306195139884949e-05 4.5942142605781555e-06 0.0 0.0 0.0 0.0
0.169 -0.06179749220609665 -0.017278268933296204 -0.0001270044595003128 -1.012161374092102e-05 0.0 0.0 0.0 0.0
0.17 -0.06253235787153244 -0.01846129260957241 -1.3209879398345947e-05 -0.00010666623711585999 0.0 0.0 0.0 0.0
0.171 -0.06225711479783058 -0.01861642487347126 9.89232212305069e-05 -0.00014213752001523972 0.0 0.0 0.0 0.0
0.172 -0.06179402023553848 -0.018905282020568848 4.471000283956528e-05 5.164928734302521e-05 0.0 0.0 0.0 0.0
0.173 -0.06180728226900101 -0.01876460760831833 8.431077003479004e-05 7.72569328546524e-05 0.0 0.0 0.0 0.0
0.174 -0.06224895268678665 -0.018428605049848557 0.00010022148489952087 -5.769822746515274e-05 0.0 0.0 0.0 0.0
0.175 -0.06216704845428467 -0.019009806215763092 8.233729749917984e-05 -0.00013187900185585022 0.0 0.0 0.0 0.0
0.176 -0.062464676797389984 -0.01802719384431839 -9.61078330874443e-05 4.9569644033908844e-05 0.0 0.0 0.0 0.0
0.177 -0.06250037997961044 -0.01895236410200596 8.810590952634811e-05 -4.533957690000534e-05 0.0 0.0 0.0 0.0
0.178 -0.06212998554110527 -0.018589461222290993 9.125284850597382e-05 0.00010059867054224014 0.0 0.0 0.0 0.0
0.179 -0.062420058995485306 -0.01944410428404808 0.00010852329432964325 -8.548051118850708e-05 0.0 0.0 0.0 0.0
