!Created with skrf (http://scikit-rf.org).
# GHz S RI R 50.0 
!freq ReS11 ImS11 ReS21 ImS21 ReS12 ImS12 ReS22 ImS22
0.001 -1.2438654899597168 -0.08884837478399277 0.00015854742377996445 -6.796233355998993e-05 0.0 0.0 0.0 0.0
0.002 -1.1239956617355347 0.0035758940503001213 -9.973347187042236e-05 -8.105207234621048e-05 0.0 0.0 0.0 0.0
0.003 -1.0843801498413086 0.0303213968873024 -2.5871209800243378e-05 -4.314538091421127e-05 0.0 0.0 0.0 0.0
0.004 -1.0690935850143433 0.03717881813645363 -3.880821168422699e-06 -9.368360042572021e-05 0.0 0.0 0.0 0.0
0.005 -1.0540801286697388 0.02884947694838047 3.46330925822258e-05 1.014862209558487e-05 0.0 0.0 0.0 0.0
0.006 -1.0393203496932983 0.028577329590916634 9.91523265838623e-05 5.743280053138733e-05 0.0 0.0 0.0 0.0
0.007 -1.0377564430236816 0.02493872493505478 3.646407276391983e-05 -2.7652829885482788e-05 0.0 0.0 0.0 0.0
0.008 -1.0278472900390625 0.02089426852762699 -7.351953536272049e-05 6.830040365457535e-05 0.0 0.0 0.0 0.0
0.009 -1.0297011137008667 0.019315509125590324 -9.054969996213913e-05 0.0002428833395242691 0.0 0.0 0.0 0.0
0.01 -1.028874158859253 0.014701706357300282 4.369765520095825e-05 0.00013100355863571167 0.0 0.0 0.0 0.0
0.011 -1.0288680791854858 0.010275834240019321 3.2490119338035583e-05 -0.00012488756328821182 0.0 0.0 0.0 0.0
0.012 -1.027478814125061 0.012867657467722893 -9.032059460878372e-05 1.9049271941184998e-05 0.0 0.0 0.0 0.0
0.013 -1.031356930732727 0.01053939200937748 2.2598542273044586e-05 -7.515121251344681e-05 0.0 0.0 0.0 0.0
0.014 -1.027380347251892 0.010910673066973686 -0.00012367591261863708 2.3115426301956177e-05 0.0 0.0 0.0 0.0
0.015 -1.0313993692398071 0.004520378075540066 8.50064679980278e-05 5.940347909927368e-05 0.0 0.0 0.0 0.0
0.016 -1.0264296531677246 0.009094459936022758 3.290828317403793e-05 8.402764797210693e-05 0.0 0.0 0.0 0.0
0.017 -1.0331990718841553 0.006169370375573635 -1.1492520570755005e-06 -1.1764466762542725e-05 0.0 0.0 0.0 0.0
0.018 -1.0346382856369019 0.007739011198282242 5.1602721214294434e-05 -8.798018097877502e-05 0.0 0.0 0.0 0.0
0.019 -1.032226800918579 0.00979495607316494 -0.00015753135085105896 -2.123415470123291e-05 0.0 0.0 0.0 0.0
0.02 -1.0310163497924805 0.005537649616599083 2.0878389477729797e-05 0.00011284928768873215 0.0 0.0 0.0 0.0
0.021 -1.0314990282058716 0.0031497152522206306 0.00013793352991342545 -2.977997064590454e-05 0.0 0.0 0.0 0.0
0.022 -1.0400413274765015 0.004595025442540646 0.00013324152678251266 -3.7146732211112976e-05 0.0 0.0 0.0 0.0
0.023 -1.039117455482483 0.0015315469354391098 4.225783050060272e-05 -3.420468419790268e-05 0.0 0.0 0.0 0.0
0.024 -1.0337108373641968 0.0017911875620484352 9.46996733546257e-05 0.00016713980585336685 0.0 0.0 0.0 0.0
0.025 -1.0402376651763916 0.004028705880045891 0.00017289910465478897 -1.6937963664531708e-05 0.0 0.0 0.0 0.0
0.026 -1.0392297506332397 0.006726862862706184 -0.00015866383910179138 -8.442439138889313e-06 0.0 0.0 0.0 0.0
0.027 -1.0381470918655396 0.0074134329333901405 -4.2088329792022705e-05 0.00011782906949520111 0.0 0.0 0.0 0.0
0.028 -1.034814715385437 0.0059946319088339806 -4.2953528463840485e-05 7.031206041574478e-05 0.0 0.0 0.0 0.0
0.029 -1.044012427330017 0.003407352603971958 0.00020960252732038498 -1.9241124391555786e-05 0.0 0.0 0.0 0.0
0.03 -1.044171929359436 0.00450991652905941 -1.40313059091568e-05 -7.233861833810806e-05 0.0 0.0 0.0 0.0
0.031 -1.0445576906204224 0.00561129953712225 2.6728957891464233e-06 -0.00013450812548398972 0.0 0.0 0.0 0.0
0.032 -1.040292739868164 0.005478543229401112 9.101442992687225e-05 0.00011009816080331802 0.0 0.0 0.0 0.0
0.033 -1.0428152084350586 0.008606133051216602 9.159557521343231e-06 -1.5221536159515381e-05 0.0 0.0 0.0 0.0
0.034 -1.042445421218872 0.01043157372623682 -0.00013905856758356094 -3.273598849773407e-05 0.0 0.0 0.0 0.0
0.035 -1.0430210828781128 0.012375804595649242 3.0761584639549255e-05 8.317921310663223e-05 0.0 0.0 0.0 0.0
0.036 -1.0436736345291138 0.005547628737986088 0.00010784994810819626 5.800556391477585e-05 0.0 0.0 0.0 0.0
0.037 -1.0448510646820068 0.005878467112779617 -3.3124350011348724e-05 -0.00011688284575939178 0.0 0.0 0.0 0.0
0.038 -1.0476763248443604 0.0075134169310331345 -6.901100277900696e-05 7.168576121330261e-05 0.0 0.0 0.0 0.0
0.039 -1.0479044914245605 0.014033982530236244 -3.471504896879196e-05 -4.4493936002254486e-05 0.0 0.0 0.0 0.0
0.04 -1.0429699420928955 0.013594429939985275 5.967635661363602e-05 3.87607142329216e-05 0.0 0.0 0.0 0.0
0.041 -1.0433274507522583 0.016116442158818245 -0.00017210282385349274 0.0001004273071885109 0.0 0.0 0.0 0.0
0.042 -1.0430735349655151 0.011079820804297924 1.7881393432617188e-07 7.606018334627151e-05 0.0 0.0 0.0 0.0
0.043 -1.0453952550888062 0.008634474128484726 0.00019028782844543457 -6.49038702249527e-06 0.0 0.0 0.0 0.0
0.044 -1.0519452095031738 0.012702912092208862 -4.916079342365265e-05 -0.0001576058566570282 0.0 0.0 0.0 0.0
0.045 -1.0466288328170776 0.015611447393894196 2.132728695869446e-06 -6.80265948176384e-05 0.0 0.0 0.0 0.0
0.046 -1.0461249351501465 0.017134282737970352 -1.0217539966106415e-05 0.00015055015683174133 0.0 0.0 0.0 0.0
0.047 -1.045109510421753 0.0171677116304636 -9.925663471221924e-05 0.0001368718221783638 0.0 0.0 0.0 0.0
0.048 -1.0438450574874878 0.013985437341034412 3.709178417921066e-05 0.0001379121094942093 0.0 0.0 0.0 0.0
0.049 -1.052836537361145 0.016985377296805382 -5.3256750106811523e-05 6.874091923236847e-06 0.0 0.0 0.0 0.0
0.05 -1.0527517795562744 0.01846071146428585 -2.730824053287506e-05 6.240792572498322e-05 0.0 0.0 0.0 0.0
0.051 -1.0475327968597412 0.016009842976927757 3.6143697798252106e-05 0.00012481119483709335 0.0 0.0 0.0 0.0
0.052 -1.0486363172531128 0.016769271343946457 -3.011617809534073e-05 0.00010628905147314072 0.0 0.0 0.0 0.0
0.053 -1.0544687509536743 0.01563645899295807 4.764646291732788e-06 4.854518920183182e-05 0.0 0.0 0.0 0.0
0.054 -1.051613450050354 0.023086179047822952 -5.4473988711833954e-05 2.796947956085205e-05 0.0 0.0 0.0 0.0
0.055 -1.0502934455871582 0.023639561608433723 -4.1464343667030334e-05 3.810226917266846e-05 0.0 0.0 0.0 0.0
0.056 -1.0494461059570312 0.01985960081219673 0.00021088216453790665 0.0003351327031850815 0.0 0.0 0.0 0.0
0.057 -1.052354097366333 0.016868645325303078 0.00015239417552947998 5.6813471019268036e-05 0.0 0.0 0.0 0.0
0.058 -1.056141972541809 0.020908664911985397 -0.00011273566633462906 5.193985998630524e-06 0.0 0.0 0.0 0.0
0.059 -1.0507851839065552 0.026405172422528267 -6.086379289627075e-05 0.00010229460895061493 0.0 0.0 0.0 0.0
0.06 -1.0489275455474854 0.02414580062031746 -2.905074506998062e-05 -1.2177973985671997e-05 0.0 0.0 0.0 0.0
0.061 -1.050197958946228 0.025178050622344017 -2.4227425456047058e-05 0.00011215358972549438 0.0 0.0 0.0 0.0
0.062 -1.0532991886138916 0.026133738458156586 -0.00011725630611181259 0.00011870358139276505 0.0 0.0 0.0 0.0
0.063 -1.0515087842941284 0.02285603992640972 0.00026673730462789536 2.5425106287002563e-05 0.0 0.0 0.0 0.0
0.064 -1.0562459230422974 0.023416463285684586 0.00016990955919027328 -9.00905579328537e-05 0.0 0.0 0.0 0.0
0.065 -1.0552958250045776 0.027402950450778008 1.3931654393672943e-05 4.67030331492424e-05 0.0 0.0 0.0 0.0
0.066 -1.057752251625061 0.03213869035243988 -6.456859409809113e-05 -0.00017642881721258163 0.0 0.0 0.0 0.0
0.067 -1.0547665357589722 0.03246084973216057 5.323439836502075e-06 9.188894182443619e-05 0.0 0.0 0.0 0.0
0.068 -1.0523313283920288 0.02959574945271015 6.446149200201035e-05 0.00012810248881578445 0.0 0.0 0.0 0.0
0.069 -1.0576547384262085 0.02592734806239605 4.9826689064502716e-05 0.000154934823513031 0.0 0.0 0.0 0.0
0.07 -1.057838797569275 0.027694357559084892 7.711723446846008e-05 8.387770503759384e-05 0.0 0.0 0.0 0.0
0.071 -1.062896490097046 0.03235720470547676 0.00010054279118776321 -0.0001934552565217018 0.0 0.0 0.0 0.0
0.072 -1.061404824256897 0.03533550351858139 -1.9077211618423462e-05 -7.852539420127869e-05 0.0 0.0 0.0 0.0
0.073 -1.0600297451019287 0.035649415105581284 -7.438845932483673e-05 -6.628409028053284e-05 0.0 0.0 0.0 0.0
0.074 -1.0609811544418335 0.0370347686111927 1.663248986005783e-05 5.378667265176773e-05 0.0 0.0 0.0 0.0
0.075 -1.0560492277145386 0.03664082661271095 2.232380211353302e-05 2.926122397184372e-05 0.0 0.0 0.0 0.0
0.076 -1.0581036806106567 0.03197856247425079 6.234459578990936e-05 0.00014126766473054886 0.0 0.0 0.0 0.0
0.077 -1.057724952697754 0.031824685633182526 0.00013085082173347473 1.1233612895011902e-05 0.0 0.0 0.0 0.0
0.078 -1.0631146430969238 0.03341107442975044 2.488400787115097e-05 -9.223725646734238e-05 0.0 0.0 0.0 0.0
0.079 -1.0638742446899414 0.03464710712432861 4.752352833747864e-05 -1.6636215150356293e-05 0.0 0.0 0.0 0.0
0.08 -1.0627692937850952 0.036969415843486786 -6.986409425735474e-05 8.655712008476257e-05 0.0 0.0 0.0 0.0
0.081 -1.0596392154693604 0.04148772731423378 -0.00015545636415481567 0.00013463199138641357 0.0 0.0 0.0 0.0
0.082 -1.062127947807312 0.04112811014056206 -3.399048000574112e-05 -8.613988757133484e-05 0.0 0.0 0.0 0.0
0.083 -1.0576024055480957 0.044156551361083984 -0.00011161994189023972 3.7682242691516876e-05 0.0 0.0 0.0 0.0
0.084 -1.0628529787063599 0.036716561764478683 0.00015295203775167465 0.0001308489590883255 0.0 0.0 0.0 0.0
0.085 -1.0628015995025635 0.039017073810100555 0.00010613538324832916 -0.00011700484901666641 0.0 0.0 0.0 0.0
0.086 -1.0632290840148926 0.0461428128182888 4.764646291732788e-05 -2.771243453025818e-05 0.0 0.0 0.0 0.0
0.087 -1.0654504299163818 0.04533958435058594 -0.00011957064270973206 3.343448042869568e-06 0.0 0.0 0.0 0.0
0.088 -1.0625602006912231 0.04913308098912239 -9.699258953332901e-05 3.199838101863861e-05 0.0 0.0 0.0 0.0
0.089 -1.0672270059585571 0.04632411524653435 -0.00014234986156225204 1.21239572763443e-05 0.0 0.0 0.0 0.0
0.09 -1.0623021125793457 0.047643084079027176 0.00010361708700656891 5.689263343811035e-05 0.0 0.0 0.0 0.0
0.091 -1.065506935119629 0.0493885837495327 -3.261025995016098e-05 -3.879517316818237e-05 0.0 0.0 0.0 0.0
0.092 -1.066750168800354 0.05145517364144325 -4.2955391108989716e-05 -2.53189355134964e-05 0.0 0.0 0.0 0.0
0.093 -1.0592902898788452 0.04984969273209572 -6.953440606594086e-05 -6.765034049749374e-05 0.0 0.0 0.0 0.0
0.094 -1.0619596242904663 0.04588642343878746 8.544325828552246e-05 0.00014356430619955063 0.0 0.0 0.0 0.0
0.095 -1.060942530632019 0.046341221779584885 -4.939734935760498e-06 1.5601515769958496e-05 0.0 0.0 0.0 0.0
0.096 -1.0654839277267456 0.05055220425128937 3.8110651075839996e-05 -9.640399366617203e-05 0.0 0.0 0.0 0.0
0.097 -1.0615793466567993 0.05347068980336189 -0.00011629145592451096 -6.157159805297852e-05 0.0 0.0 0.0 0.0
0.098 -1.0590440034866333 0.050272390246391296 6.844382733106613e-05 0.00023220479488372803 0.0 0.0 0.0 0.0
0.099 -1.0638463497161865 0.049982063472270966 8.926820009946823e-05 6.125960499048233e-05 0.0 0.0 0.0 0.0
0.1 -1.0643205642700195 0.05114489793777466 6.041582673788071e-05 -2.0003877580165863e-05 0.0 0.0 0.0 0.0
0.101 -0.9912990927696228 0.043224453926086426 -3.6631710827350616e-05 -8.515454828739166e-05 0.0 0.0 0.0 0.0
0.102 -0.9881812334060669 0.04330885037779808 6.81653618812561e-05 1.2062489986419678e-05 0.0 0.0 0.0 0.0
0.103 -0.9905621409416199 0.043426934629678726 -0.00013739988207817078 8.482858538627625e-05 0.0 0.0 0.0 0.0
0.104 -0.991904616355896 0.04457050934433937 3.9750710129737854e-05 -6.993301212787628e-05 0.0 0.0 0.0 0.0
0.105 -0.9914788603782654 0.04284690320491791 0.0001238929107785225 -3.336183726787567e-05 0.0 0.0 0.0 0.0
0.106 -0.9927449226379395 0.04437561705708504 6.91339373588562e-05 -8.70218500494957e-05 0.0 0.0 0.0 0.0
0.107 -0.9918464422225952 0.04519207775592804 -6.517674773931503e-05 8.605793118476868e-05 0.0 0.0 0.0 0.0
0.108 -0.993653416633606 0.04588431864976883 0.00015710201114416122 -0.00012235436588525772 0.0 0.0 0.0 0.0
0.109 -0.9927635192871094 0.04630596563220024 -0.0001692911610007286 -0.00012703891843557358 0.0 0.0 0.0 0.0
0.11 -0.9937626719474792 0.04481101036071777 4.672352224588394e-05 5.786307156085968e-05 0.0 0.0 0.0 0.0
0.111 -0.9934071898460388 0.04724619537591934 -9.767897427082062e-05 -3.846362233161926e-06 0.0 0.0 0.0 0.0
0.112 -0.9942159652709961 0.0445125512778759 -5.7835131883621216e-05 0.00011415872722864151 0.0 0.0 0.0 0.0
0.113 -0.996337354183197 0.04742402955889702 -4.5493245124816895e-05 -7.246341556310654e-05 0.0 0.0 0.0 0.0
0.114 -0.9941884279251099 0.04886602610349655 -0.00011076778173446655 -6.822124123573303e-05 0.0 0.0 0.0 0.0
0.115 -0.9966164827346802 0.04715137183666229 0.0001190677285194397 -0.00010538380593061447 0.0 0.0 0.0 0.0
0.116 -0.9981182813644409 0.04901818558573723 -6.857793778181076e-05 -5.1344744861125946e-05 0.0 0.0 0.0 0.0
0.117 -0.997444748878479 0.04921657592058182 -7.082615047693253e-05 -0.00012327730655670166 0.0 0.0 0.0 0.0
0.118 -0.9993560910224915 0.049573227763175964 2.33333557844162e-05 -2.9306858777999878e-05 0.0 0.0 0.0 0.0
0.119 -0.9988024830818176 0.04981722682714462 -0.00011224113404750824 3.743264824151993e-05 0.0 0.0 0.0 0.0
0.12 -0.9992054104804993 0.05213455110788345 -8.509401232004166e-05 -6.002932786941528e-05 0.0 0.0 0.0 0.0
0.121 -0.9998623132705688 0.050071921199560165 6.695743650197983e-05 -0.00010121986269950867 0.0 0.0 0.0 0.0
0.122 -1.0001261234283447 0.04923531413078308 2.2605061531066895e-05 -8.331611752510071e-05 0.0 0.0 0.0 0.0
0.123 -1.0002690553665161 0.0524146668612957 -0.0001417575404047966 4.0937215089797974e-05 0.0 0.0 0.0 0.0
0.124 -1.001568078994751 0.05204056203365326 -7.11558386683464e-05 -9.289756417274475e-05 0.0 0.0 0.0 0.0
0.125 -0.9990659356117249 0.05223027989268303 8.972082287073135e-05 7.767137140035629e-05 0.0 0.0 0.0 0.0
0.126 -1.0020922422409058 0.052004747092723846 5.684699863195419e-05 -8.64984467625618e-05 0.0 0.0 0.0 0.0
0.127 -1.0016573667526245 0.05360117554664612 -0.0001750010997056961 -0.00010921712964773178 0.0 0.0 0.0 0.0
0.128 -1.0030754804611206 0.05556056648492813 -1.444295048713684e-05 4.429183900356293e-05 0.0 0.0 0.0 0.0
0.129 -1.002751111984253 0.05400371178984642 3.177672624588013e-05 -0.00016642827540636063 0.0 0.0 0.0 0.0
0.13 -1.002264380455017 0.05575632303953171 -3.448035567998886e-05 6.292574107646942e-05 0.0 0.0 0.0 0.0
0.131 -1.00349760055542 0.05497073754668236 -3.279373049736023e-05 3.655068576335907e-05 0.0 0.0 0.0 0.0
0.132 -1.0035024881362915 0.05660318583250046 -2.900604158639908e-05 2.4866312742233276e-06 0.0 0.0 0.0 0.0
0.133 -1.0025964975357056 0.05566595867276192 2.3837201297283173e-05 1.317821443080902e-06 0.0 0.0 0.0 0.0
0.134 -1.005744457244873 0.056100089102983475 0.0001382138580083847 1.2855976819992065e-05 0.0 0.0 0.0 0.0
0.135 -1.004125714302063 0.056141242384910583 0.00011659041047096252 -0.00014168303459882736 0.0 0.0 0.0 0.0
0.136 -1.008203148841858 0.05808035656809807 0.0001095309853553772 -8.235778659582138e-05 0.0 0.0 0.0 0.0
0.137 -1.0045394897460938 0.05838359519839287 7.871072739362717e-05 -3.4652650356292725e-05 0.0 0.0 0.0 0.0
0.138 -1.0066274404525757 0.05935892462730408 -2.433639019727707e-05 -0.00010812189429998398 0.0 0.0 0.0 0.0
0.139 -1.0071041584014893 0.05824534222483635 0.00012716930359601974 -5.957204848527908e-05 0.0 0.0 0.0 0.0
0.14 -1.0086857080459595 0.05877496674656868 0.00013694725930690765 3.0547380447387695e-07 0.0 0.0 0.0 0.0
0.141 -1.0066686868667603 0.06170886754989624 -8.973199874162674e-05 -7.716100662946701e-05 0.0 0.0 0.0 0.0
0.142 -1.008469820022583 0.06133973225951195 -4.0444545447826385e-05 4.903879016637802e-05 0.0 0.0 0.0 0.0
0.143 -1.0079894065856934 0.06091025471687317 7.3201023042202e-05 -1.8688850104808807e-05 0.0 0.0 0.0 0.0
0.144 -1.0101830959320068 0.06180579215288162 -2.7805566787719727e-05 -9.768735617399216e-05 0.0 0.0 0.0 0.0
0.145 -1.0082993507385254 0.06241430714726448 -0.00013368390500545502 -4.601292312145233e-05 0.0 0.0 0.0 0.0
0.146 -1.0100456476211548 0.06461376696825027 -0.00010221637785434723 5.0943344831466675e-06 0.0 0.0 0.0 0.0
0.147 -1.0106372833251953 0.06600873917341232 -0.00010006595402956009 -7.172860205173492e-05 0.0 0.0 0.0 0.0
0.148 -1.0120410919189453 0.0634509027004242 6.798654794692993e-05 5.271006375551224e-05 0.0 0.0 0.0 0.0
0.149 -1.0130559206008911 0.06507676094770432 2.7203932404518127e-06 -7.0926733314991e-05 0.0 0.0 0.0 0.0
0.15 -1.0121843814849854 0.06734424084424973 -0.00020894315093755722 -0.000156317837536335 0.0 0.0 0.0 0.0
0.151 -1.0123051404953003 0.06915417313575745 -0.00011472497135400772 1.3940967619419098e-05 0.0 0.0 0.0 0.0
0.152 -1.0130616426467896 0.06765114516019821 9.18656587600708e-06 4.9602240324020386e-05 0.0 0.0 0.0 0.0
0.153 -1.0131038427352905 0.07046722620725632 -7.30324536561966e-05 -9.368173778057098e-05 0.0 0.0 0.0 0.0
0.154 -1.0146065950393677 0.06993581354618073 -0.00014926400035619736 8.867494761943817e-05 0.0 0.0 0.0 0.0
0.155 -1.0170214176177979 0.07049553096294403 8.697621524333954e-06 -0.00016727857291698456 0.0 0.0 0.0 0.0
0.156 -1.0156455039978027 0.06935842335224152 3.4854747354984283e-05 -0.00021145213395357132 0.0 0.0 0.0 0.0
0.157 -1.0163246393203735 0.06938115507364273 9.561516344547272e-05 1.0188668966293335e-06 0.0 0.0 0.0 0.0
0.158 -1.0156962871551514 0.06994796544313431 0.00012649502605199814 4.925578832626343e-05 0.0 0.0 0.0 0.0
0.159 -1.017924427986145 0.070769764482975 -3.4537166357040405e-05 -0.00023132562637329102 0.0 0.0 0.0 0.0
0.16 -1.0158976316452026 0.07175002247095108 5.92842698097229e-05 7.091555744409561e-05 0.0 0.0 0.0 0.0
0.161 -1.0169119834899902 0.07409417629241943 -1.6481615602970123e-05 0.00010379310697317123 0.0 0.0 0.0 0.0
0.162 -1.0180245637893677 0.07333005219697952 3.5451725125312805e-05 -0.00013911817222833633 0.0 0.0 0.0 0.0
0.163 -1.0194720029830933 0.07683233171701431 -2.838578075170517e-05 -1.803506165742874e-05 0.0 0.0 0.0 0.0
0.164 -1.0184675455093384 0.0751756876707077 0.00011753011494874954 1.7010606825351715e-05 0.0 0.0 0.0 0.0
0.165 -1.022106647491455 0.07657847553491592 -0.00010621640831232071 -0.00015885662287473679 0.0 0.0 0.0 0.0
0.166 -1.020690679550171 0.07768148928880692 -2.9616057872772217e-05 9.629875421524048e-06 0.0 0.0 0.0 0.0
0.167 -1.023327112197876 0.07905342429876328 -4.2146071791648865e-05 -2.0790845155715942e-05 0.0 0.0 0.0 0.0
0.168 -1.0215619802474976 0.0767909362912178 0.00016846135258674622 -0.00027878303080797195 0.0 0.0 0.0 0.0
0.169 -1.0214725732803345 0.07975900173187256 -2.2360123693943024e-05 8.469074964523315e-05 0.0 0.0 0.0 0.0
0.17 -1.0231221914291382 0.07862573862075806 3.673043102025986e-05 -2.1243467926979065e-06 0.0 0.0 0.0 0.0
0.171 -1.0236092805862427 0.07946764677762985 0.0001864153891801834 -9.472575038671494e-05 0.0 0.0 0.0 0.0
0.172 -1.0221936702728271 0.0798710286617279 8.579250425100327e-05 2.6280991733074188e-05 0.0 0.0 0.0 0.0
0.173 -1.0229672193527222 0.08194542676210403 -1.3707205653190613e-05 0.00012991763651371002 0.0 0.0 0.0 0.0
0.174 -1.0232211351394653 0.08127628266811371 4.66126948595047e-05 2.796761691570282e-06 0.0 0.0 0.0 0.0
0.175 -1.026728630065918 0.08244796097278595 -6.952229887247086e-05 7.895752787590027e-06 0.0 0.0 0.0 0.0
0.176 -1.0257295370101929 0.0832931324839592 -0.00012474041432142258 3.29846516251564e-05 0.0 0.0 0.0 0.0
0.177 -1.0261799097061157 0.08393505960702896 9.85981896519661e-05 5.2848830819129944e-05 0.0 0.0 0.0 0.0
0.178 -1.0245933532714844 0.08518020063638687 2.072937786579132e-05 0.00014329049736261368 0.0 0.0 0.0 0.0
0.179 -1.0282065868377686 0.0845365896821022 4.227925091981888e-05 -0.00010392069816589355 0.0 0.0 0.0 0.0
0.18 -1.0278725624084473 0.08801604807376862 -6.307568401098251e-05 7.091090083122253e-06 0.0 0.0 0.0 0.0
0.181 -1.0298576354980469 0.08684851974248886 4.320591688156128e-05 -4.610791802406311e-05 0.0 0.0 0.0 0.0
0.182 -1.0278031826019287 0.08732031285762787 0.0002261139452457428 3.357790410518646e-05 0.0 0.0 0.0 0.0
0.183 -1.0306288003921509 0.09064313024282455 -4.968512803316116e-05 -6.01448118686676e-05 0.0 0.0 0.0 0.0
0.184 -1.0298449993133545 0.09090267866849899 -9.955186396837234e-05 -4.861503839492798e-06 0.0 0.0 0.0 0.0
