!Created with skrf (http://scikit-rf.org).
# GHz S RI R 50.0 
!freq ReS11 ImS11 ReS21 ImS21 ReS12 ImS12 ReS22 ImS22
0.001 -0.1517026126384735 -0.06041352450847626 1.3228695392608643 -0.03680857643485069 0.0 0.0 0.0 0.0
0.002 -0.10848402976989746 -0.004835695959627628 1.1268376111984253 -0.08717475831508636 0.0 0.0 0.0 0.0
0.003 -0.09274961054325104 0.010434037074446678 1.0722681283950806 -0.09979835152626038 0.0 0.0 0.0 0.0
0.004 -0.08120033890008926 0.0160631462931633 1.0361660718917847 -0.09809111058712006 0.0 0.0 0.0 0.0
0.005 -0.0736430212855339 0.015451059676706791 1.0180586576461792 -0.08872223645448685 0.0 0.0 0.0 0.0
0.006 -0.06880464404821396 0.014829130843281746 1.0031489133834839 -0.0860852375626564 0.0 0.0 0.0 0.0
0.007 -0.06504520773887634 0.013829385861754417 0.9953212141990662 -0.08150242269039154 0.0 0.0 0.0 0.0
0.008 -0.06439854949712753 0.012144277803599834 0.9907580018043518 -0.08156284689903259 0.0 0.0 0.0 0.0
0.009 -0.062400933355093 0.010427573695778847 0.9865661859512329 -0.0796559751033783 0.0 0.0 0.0 0.0
0.01 -0.06176605075597763 0.009508361108601093 0.9866959452629089 -0.08019263297319412 0.0 0.0 0.0 0.0
0.011 -0.060520756989717484 0.008661547675728798 0.9785119891166687 -0.07993568480014801 0.0 0.0 0.0 0.0
0.012 -0.05966442450881004 0.006780619733035564 0.9845152497291565 -0.08033931255340576 0.0 0.0 0.0 0.0
0.013 -0.05900537222623825 0.0066552963107824326 0.9785458445549011 -0.07936158031225204 0.0 0.0 0.0 0.0
0.014 -0.059282608330249786 0.005728621035814285 0.982688844203949 -0.08477238565683365 0.0 0.0 0.0 0.0
0.015 -0.0592409186065197 0.0059243543073534966 0.979384183883667 -0.08986248821020126 0.0 0.0 0.0 0.0
0.016 -0.05807469040155411 0.00481009017676115 0.982611358165741 -0.09109365940093994 0.0 0.0 0.0 0.0
0.017 -0.05862778425216675 0.005427205003798008 0.9812347888946533 -0.09476449340581894 0.0 0.0 0.0 0.0
0.018 -0.057790644466876984 0.003866240382194519 0.9798417091369629 -0.0952189564704895 0.0 0.0 0.0 0.0
0.019 -0.05790967866778374 0.003160984255373478 0.9811632633209229 -0.10240771621465683 0.0 0.0 0.0 0.0
0.02 -0.05862811207771301 0.0030907560139894485 0.9858994483947754 -0.10783273726701736 0.0 0.0 0.0 0.0
0.021 -0.058300506323575974 0.0026463717222213745 0.9814689755439758 -0.115148164331913 0.0 0.0 0.0 0.0
0.022 -0.058655738830566406 0.0036812033504247665 0.981843113899231 -0.11872978508472443 0.0 0.0 0.0 0.0
0.023 -0.05815500393509865 0.003457094542682171 0.97930908203125 -0.12381475418806076 0.0 0.0 0.0 0.0
0.024 -0.05753324180841446 0.0026554884389042854 0.9825097322463989 -0.12830005586147308 0.0 0.0 0.0 0.0
0.025 -0.05839862674474716 0.0018255244940519333 0.9858171343803406 -0.1327233463525772 0.0 0.0 0.0 0.0
0.026 -0.058378029614686966 0.001554698683321476 0.9830470085144043 -0.13988837599754333 0.0 0.0 0.0 0.0
0.027 -0.058707721531391144 0.0025123367086052895 0.9823519587516785 -0.1471768319606781 0.0 0.0 0.0 0.0
0.028 -0.05783193185925484 0.0022793319076299667 0.9796155691146851 -0.14748363196849823 0.0 0.0 0.0 0.0
0.029 -0.057830069214105606 0.001035875640809536 0.9841051697731018 -0.15556441247463226 0.0 0.0 0.0 0.0
0.03 -0.05837512016296387 0.0013853581622242928 0.9853752851486206 -0.16012327373027802 0.0 0.0 0.0 0.0
0.031 -0.058261360973119736 0.001354943960905075 0.9830991625785828 -0.1694122850894928 0.0 0.0 0.0 0.0
0.032 -0.05842455103993416 0.0017182491719722748 0.9838669300079346 -0.17643553018569946 0.0 0.0 0.0 0.0
0.033 -0.05736811086535454 0.002425532788038254 0.9784340858459473 -0.1778588891029358 0.0 0.0 0.0 0.0
0.034 -0.05706578865647316 0.0010120226070284843 0.9803289175033569 -0.18352006375789642 0.0 0.0 0.0 0.0
0.035 -0.057845693081617355 0.0009014839306473732 0.982202410697937 -0.18831917643547058 0.0 0.0 0.0 0.0
0.036 -0.05818319320678711 0.0016967440024018288 0.9782549738883972 -0.1993934065103531 0.0 0.0 0.0 0.0
0.037 -0.05828255042433739 0.0019854968413710594 0.9777380228042603 -0.2056535929441452 0.0 0.0 0.0 0.0
0.038 -0.057729125022888184 0.002133091911673546 0.9740749597549438 -0.20851190388202667 0.0 0.0 0.0 0.0
0.039 -0.056517280638217926 0.0012416094541549683 0.9777177572250366 -0.21446658670902252 0.0 0.0 0.0 0.0
0.04 -0.05819111317396164 0.0007650190964341164 0.9795024394989014 -0.22185678780078888 0.0 0.0 0.0 0.0
0.041 -0.05732414498925209 0.0006706640124320984 0.9766697883605957 -0.2267564833164215 0.0 0.0 0.0 0.0
0.042 -0.058021169155836105 0.0009444989264011383 0.9796844720840454 -0.23687846958637238 0.0 0.0 0.0 0.0
0.043 -0.05744721740484238 0.0006910860538482666 0.9730064272880554 -0.24331635236740112 0.0 0.0 0.0 0.0
0.044 -0.05666370689868927 0.0013178130611777306 0.9723096489906311 -0.24583421647548676 0.0 0.0 0.0 0.0
0.045 -0.05706867203116417 0.0005076639354228973 0.9751195311546326 -0.2509128451347351 0.0 0.0 0.0 0.0
0.046 -0.056783679872751236 0.00076302420347929 0.9706443548202515 -0.2588217258453369 0.0 0.0 0.0 0.0
0.047 -0.05771653726696968 0.0005433708429336548 0.9732182025909424 -0.2687070667743683 0.0 0.0 0.0 0.0
0.048 -0.055905379354953766 0.0006392095237970352 0.9686295390129089 -0.270014226436615 0.0 0.0 0.0 0.0
0.049 -0.056869134306907654 0.0021683908998966217 0.9683480858802795 -0.28078165650367737 0.0 0.0 0.0 0.0
0.05 -0.05735693871974945 0.0013013295829296112 0.9650294184684753 -0.2887745797634125 0.0 0.0 0.0 0.0
0.051 -0.056053221225738525 0.001116250641644001 0.9636003375053406 -0.28810203075408936 0.0 0.0 0.0 0.0
0.052 -0.05556683614850044 0.0005166912451386452 0.9657702445983887 -0.29502564668655396 0.0 0.0 0.0 0.0
0.053 -0.05623221769928932 -0.0001849280670285225 0.9617066383361816 -0.30477383732795715 0.0 0.0 0.0 0.0
0.054 -0.05630897730588913 0.0016111740842461586 0.9598419666290283 -0.31088683009147644 0.0 0.0 0.0 0.0
0.055 -0.05580182000994682 0.001376996748149395 0.9547231197357178 -0.31825610995292664 0.0 0.0 0.0 0.0
0.056 -0.05533740296959877 0.0006717424839735031 0.9546639323234558 -0.3211584985256195 0.0 0.0 0.0 0.0
0.057 -0.05496462062001228 -0.0005490211769938469 0.9599459171295166 -0.3269175887107849 0.0 0.0 0.0 0.0
0.058 -0.05575687438249588 -0.0002472633495926857 0.9530269503593445 -0.33774229884147644 0.0 0.0 0.0 0.0
0.059 -0.05479184910655022 0.0009914832189679146 0.9515858888626099 -0.34128186106681824 0.0 0.0 0.0 0.0
0.06 -0.05438710004091263 0.0003384845331311226 0.9477530121803284 -0.34362006187438965 0.0 0.0 0.0 0.0
0.061 -0.05459215119481087 0.0011672694236040115 0.9454659223556519 -0.3525397479534149 0.0 0.0 0.0 0.0
0.062 -0.0549570731818676 0.0005254819989204407 0.943626880645752 -0.35980096459388733 0.0 0.0 0.0 0.0
0.063 -0.05386679619550705 0.00038099195808172226 0.9442747831344604 -0.3639231026172638 0.0 0.0 0.0 0.0
0.064 -0.05413975939154625 0.0008802982047200203 0.9418670535087585 -0.3730972707271576 0.0 0.0 0.0 0.0
0.065 -0.053806718438863754 -5.160551518201828e-05 0.9379505515098572 -0.3763708174228668 0.0 0.0 0.0 0.0
0.066 -0.05387742817401886 -0.0001576598733663559 0.9367026090621948 -0.38298818469047546 0.0 0.0 0.0 0.0
0.067 -0.05369693040847778 -0.0009431736543774605 0.9396225810050964 -0.3901629149913788 0.0 0.0 0.0 0.0
0.068 -0.05377834290266037 -0.0011747973039746284 0.9338867664337158 -0.3979969024658203 0.0 0.0 0.0 0.0
0.069 -0.05490681529045105 -0.0005289185792207718 0.9318050742149353 -0.4059729278087616 0.0 0.0 0.0 0.0
0.07 -0.05369194597005844 -1.5223398804664612e-05 0.9247398376464844 -0.4116058349609375 0.0 0.0 0.0 0.0
0.071 -0.0534091517329216 -0.0005265753716230392 0.9242191910743713 -0.4152125120162964 0.0 0.0 0.0 0.0
0.072 -0.05269501358270645 -0.0011487668380141258 0.9260188937187195 -0.41864970326423645 0.0 0.0 0.0 0.0
0.073 -0.05271729454398155 -0.0004894323647022247 0.9205106496810913 -0.42557549476623535 0.0 0.0 0.0 0.0
0.074 -0.05229365825653076 -0.0009783962741494179 0.9196422696113586 -0.4327167272567749 0.0 0.0 0.0 0.0
0.075 -0.05266216769814491 -0.002024698071181774 0.9196757674217224 -0.439237505197525 0.0 0.0 0.0 0.0
0.076 -0.05346148833632469 -0.0013579111546278 0.9146084189414978 -0.4480382204055786 0.0 0.0 0.0 0.0
0.077 -0.05308561027050018 -0.000922677107155323 0.9090628623962402 -0.4559706747531891 0.0 0.0 0.0 0.0
0.078 -0.052931174635887146 -0.0014029573649168015 0.9053468108177185 -0.45609167218208313 0.0 0.0 0.0 0.0
0.079 -0.0530877411365509 -0.0008180709555745125 0.90510094165802 -0.4664492905139923 0.0 0.0 0.0 0.0
0.08 -0.05208614841103554 -0.0015143314376473427 0.8981074094772339 -0.46971577405929565 0.0 0.0 0.0 0.0
0.081 -0.051651619374752045 -0.0026283496990799904 0.8997998237609863 -0.4754757881164551 0.0 0.0 0.0 0.0
0.082 -0.05124593526124954 -0.0016956543549895287 0.8960086703300476 -0.4796520173549652 0.0 0.0 0.0 0.0
0.083 -0.051264017820358276 -0.002781754359602928 0.8956375122070312 -0.4859306216239929 0.0 0.0 0.0 0.0
0.084 -0.05292754992842674 -0.0026509054005146027 0.8936764597892761 -0.49851667881011963 0.0 0.0 0.0 0.0
0.085 -0.05116737261414528 -0.0023063067346811295 0.8844662308692932 -0.500552773475647 0.0 0.0 0.0 0.0
0.086 -0.05037110671401024 -0.003074163571000099 0.8848244547843933 -0.5060020089149475 0.0 0.0 0.0 0.0
0.087 -0.05052632465958595 -0.0034256810322403908 0.8840601444244385 -0.5082837343215942 0.0 0.0 0.0 0.0
0.088 -0.050361886620521545 -0.003102373331785202 0.8794695734977722 -0.514747679233551 0.0 0.0 0.0 0.0
0.089 -0.049980659037828445 -0.0026408592239022255 0.8772405385971069 -0.5215789675712585 0.0 0.0 0.0 0.0
0.09 -0.05015505850315094 -0.004114413633942604 0.8747442960739136 -0.5264489650726318 0.0 0.0 0.0 0.0
0.091 -0.04988855868577957 -0.00405327882617712 0.8701278567314148 -0.5340847969055176 0.0 0.0 0.0 0.0
0.092 -0.050328001379966736 -0.004966731183230877 0.8703057169914246 -0.5383330583572388 0.0 0.0 0.0 0.0
0.093 -0.05041760206222534 -0.004736368544399738 0.8642715215682983 -0.5475049614906311 0.0 0.0 0.0 0.0
0.094 -0.05136025324463844 -0.0031583569943904877 0.860839307308197 -0.5550817847251892 0.0 0.0 0.0 0.0
0.095 -0.050385020673274994 -0.0039548203349113464 0.8514397144317627 -0.5599059462547302 0.0 0.0 0.0 0.0
0.096 -0.050392791628837585 -0.004994199611246586 0.8526590466499329 -0.5658896565437317 0.0 0.0 0.0 0.0
0.097 -0.04914144054055214 -0.004335646517574787 0.848639726638794 -0.5678913593292236 0.0 0.0 0.0 0.0
0.098 -0.049219582229852676 -0.005037188529968262 0.8453186750411987 -0.5734351277351379 0.0 0.0 0.0 0.0
0.099 -0.04938853159546852 -0.006625342182815075 0.8461535573005676 -0.5799885392189026 0.0 0.0 0.0 0.0
0.1 -0.05050577223300934 -0.005415340885519981 0.8390271663665771 -0.6128354072570801 0.0 0.0 0.0 0.0
0.101 -0.04848024249076843 -0.004271421581506729 0.8059254288673401 -0.5950887799263 0.0 0.0 0.0 0.0
0.102 -0.04853011295199394 -0.005321107804775238 0.8034526705741882 -0.5991950035095215 0.0 0.0 0.0 0.0
0.103 -0.047555308789014816 -0.005640644580125809 0.8003196120262146 -0.6037443280220032 0.0 0.0 0.0 0.0
0.104 -0.04840653017163277 -0.005581581965088844 0.7965074181556702 -0.6098615527153015 0.0 0.0 0.0 0.0
0.105 -0.04723801836371422 -0.005389478988945484 0.7920005321502686 -0.6132721304893494 0.0 0.0 0.0 0.0
0.106 -0.04792296886444092 -0.005994555540382862 0.7895723581314087 -0.621334433555603 0.0 0.0 0.0 0.0
0.107 -0.047616079449653625 -0.005740578286349773 0.7849544882774353 -0.6235827803611755 0.0 0.0 0.0 0.0
0.108 -0.04814619570970535 -0.006494524888694286 0.7810990214347839 -0.6315240263938904 0.0 0.0 0.0 0.0
0.109 -0.04773826152086258 -0.006153185851871967 0.7775277495384216 -0.6345804929733276 0.0 0.0 0.0 0.0
0.11 -0.04812039062380791 -0.006474989466369152 0.773171603679657 -0.6417442560195923 0.0 0.0 0.0 0.0
0.111 -0.0474666953086853 -0.007314198650419712 0.7710254192352295 -0.6446051597595215 0.0 0.0 0.0 0.0
0.112 -0.04734330624341965 -0.006998973898589611 0.7647906541824341 -0.6499872803688049 0.0 0.0 0.0 0.0
0.113 -0.046998243778944016 -0.007822020910680294 0.7645319104194641 -0.6538246870040894 0.0 0.0 0.0 0.0
0.114 -0.04773551970720291 -0.0077883340418338776 0.757684051990509 -0.6629244089126587 0.0 0.0 0.0 0.0
0.115 -0.04708851873874664 -0.007875598035752773 0.7553289532661438 -0.6638478636741638 0.0 0.0 0.0 0.0
0.116 -0.04734518751502037 -0.008848663419485092 0.7516877055168152 -0.6724757552146912 0.0 0.0 0.0 0.0
0.117 -0.04687473550438881 -0.008911428973078728 0.7478014230728149 -0.6760308742523193 0.0 0.0 0.0 0.0
0.118 -0.047912221401929855 -0.009024584665894508 0.7433025240898132 -0.6839315891265869 0.0 0.0 0.0 0.0
0.119 -0.047375645488500595 -0.00918307900428772 0.7374849915504456 -0.6867250800132751 0.0 0.0 0.0 0.0
0.12 -0.04732375219464302 -0.009782567620277405 0.7349987030029297 -0.6938083171844482 0.0 0.0 0.0 0.0
0.121 -0.047501031309366226 -0.009095000103116035 0.7291999459266663 -0.6942166090011597 0.0 0.0 0.0 0.0
0.122 -0.0468858927488327 -0.009083371609449387 0.7252577543258667 -0.7001521587371826 0.0 0.0 0.0 0.0
0.123 -0.04667028412222862 -0.010493210516870022 0.7236486673355103 -0.7046387791633606 0.0 0.0 0.0 0.0
0.124 -0.04645482823252678 -0.00991033110767603 0.7175509929656982 -0.710183322429657 0.0 0.0 0.0 0.0
0.125 -0.04673822224140167 -0.011149469763040543 0.713271975517273 -0.7164604067802429 0.0 0.0 0.0 0.0
0.126 -0.047146979719400406 -0.01012171059846878 0.7088294625282288 -0.7203143239021301 0.0 0.0 0.0 0.0
0.127 -0.046270888298749924 -0.011405686847865582 0.7060460448265076 -0.7242491841316223 0.0 0.0 0.0 0.0
0.128 -0.04658005014061928 -0.012167032808065414 0.7028926610946655 -0.7312180399894714 0.0 0.0 0.0 0.0
0.129 -0.04644693434238434 -0.011395898647606373 0.6958881616592407 -0.731896162033081 0.0 0.0 0.0 0.0
0.13 -0.04688543081283569 -0.012707386165857315 0.6935645341873169 -0.7411257028579712 0.0 0.0 0.0 0.0
0.131 -0.04676783084869385 -0.011916999705135822 0.6860895752906799 -0.7419676184654236 0.0 0.0 0.0 0.0
0.132 -0.04685592278838158 -0.013491874560713768 0.6850703358650208 -0.7509621977806091 0.0 0.0 0.0 0.0
0.133 -0.04709935188293457 -0.01322086900472641 0.6780023574829102 -0.7534602284431458 0.0 0.0 0.0 0.0
0.134 -0.04744933173060417 -0.013729246333241463 0.6738535761833191 -0.7604513764381409 0.0 0.0 0.0 0.0
0.135 -0.04745291545987129 -0.013888432644307613 0.6694583296775818 -0.7622426748275757 0.0 0.0 0.0 0.0
0.136 -0.04717741534113884 -0.014226783066987991 0.6652534008026123 -0.769910991191864 0.0 0.0 0.0 0.0
0.137 -0.047240905463695526 -0.013757712207734585 0.6581000685691833 -0.7700544595718384 0.0 0.0 0.0 0.0
0.138 -0.04640612006187439 -0.01382273156195879 0.6556701064109802 -0.7757641673088074 0.0 0.0 0.0 0.0
0.139 -0.047055527567863464 -0.015053316950798035 0.6498819589614868 -0.7806304097175598 0.0 0.0 0.0 0.0
0.14 -0.046335313469171524 -0.014435434713959694 0.6457051038742065 -0.7851848006248474 0.0 0.0 0.0 0.0
0.141 -0.04738275334239006 -0.014880864880979061 0.6398717761039734 -0.7894801497459412 0.0 0.0 0.0 0.0
0.142 -0.04686984792351723 -0.01566970907151699 0.6363539695739746 -0.7936254739761353 0.0 0.0 0.0 0.0
0.143 -0.046561095863580704 -0.01618069037795067 0.6322593688964844 -0.796498715877533 0.0 0.0 0.0 0.0
0.144 -0.047203727066516876 -0.016530316323041916 0.6280472278594971 -0.8019437789916992 0.0 0.0 0.0 0.0
0.145 -0.046467576175928116 -0.01677629165351391 0.6215764284133911 -0.8048393130302429 0.0 0.0 0.0 0.0
0.146 -0.047134265303611755 -0.01647801697254181 0.6160656213760376 -0.8103849291801453 0.0 0.0 0.0 0.0
0.147 -0.04791594669222832 -0.016506770625710487 0.6089580059051514 -0.8172460794448853 0.0 0.0 0.0 0.0
0.148 -0.047113027423620224 -0.01700877770781517 0.60793536901474 -0.8187242746353149 0.0 0.0 0.0 0.0
0.149 -0.0480203814804554 -0.01790834777057171 0.6016051173210144 -0.826386034488678 0.0 0.0 0.0 0.0
0.15 -0.04776705428957939 -0.017348431050777435 0.594340980052948 -0.8274294137954712 0.0 0.0 0.0 0.0
0.151 -0.04732342064380646 -0.017657898366451263 0.5916013121604919 -0.8309033513069153 0.0 0.0 0.0 0.0
0.152 -0.047390516847372055 -0.017916010692715645 0.5865595936775208 -0.8344602584838867 0.0 0.0 0.0 0.0
0.153 -0.04697596654295921 -0.017909308895468712 0.5813215970993042 -0.8399434685707092 0.0 0.0 0.0 0.0
0.154 -0.048011746257543564 -0.018154988065361977 0.5757595896720886 -0.8421823978424072 0.0 0.0 0.0 0.0
0.155 -0.048863232135772705 -0.019087189808487892 0.5680276155471802 -0.8508927822113037 0.0 0.0 0.0 0.0
0.156 -0.04768051579594612 -0.01878579892218113 0.5652406811714172 -0.8504046201705933 0.0 0.0 0.0 0.0
0.157 -0.04842666909098625 -0.018722405657172203 0.5583489537239075 -0.8557903170585632 0.0 0.0 0.0 0.0
0.158 -0.04829693213105202 -0.019890056923031807 0.5542448163032532 -0.8606622219085693 0.0 0.0 0.0 0.0
0.159 -0.04797258973121643 -0.019701993092894554 0.5498509407043457 -0.8642417192459106 0.0 0.0 0.0 0.0
0.16 -0.04914955049753189 -0.01998085528612137 0.5416968464851379 -0.8665521144866943 0.0 0.0 0.0 0.0
0.161 -0.04912929981946945 -0.020997125655412674 0.5366520285606384 -0.8749298453330994 0.0 0.0 0.0 0.0
0.162 -0.04872296005487442 -0.020389657467603683 0.5323997139930725 -0.8743969202041626 0.0 0.0 0.0 0.0
0.163 -0.048527974635362625 -0.021911678835749626 0.5274431705474854 -0.8808078765869141 0.0 0.0 0.0 0.0
0.164 -0.049114078283309937 -0.021401284262537956 0.5211431980133057 -0.8839148879051208 0.0 0.0 0.0 0.0
0.165 -0.048576775938272476 -0.021707715466618538 0.517184853553772 -0.8891465663909912 0.0 0.0 0.0 0.0
0.166 -0.04921792075037956 -0.02101241983473301 0.5104117393493652 -0.8886767029762268 0.0 0.0 0.0 0.0
0.167 -0.0499904602766037 -0.021341176703572273 0.5028322339057922 -0.895290732383728 0.0 0.0 0.0 0.0
0.168 -0.05019994452595711 -0.022369669750332832 0.49778687953948975 -0.8984590768814087 0.0 0.0 0.0 0.0
0.169 -0.05050173029303551 -0.022346261888742447 0.4921973645687103 -0.9045740365982056 0.0 0.0 0.0 0.0
0.17 -0.05021488666534424 -0.022876741364598274 0.4860827922821045 -0.9049876928329468 0.0 0.0 0.0 0.0
0.171 -0.04990116134285927 -0.023472093045711517 0.4830058217048645 -0.9113220572471619 0.0 0.0 0.0 0.0
0.172 -0.0502173937857151 -0.022456714883446693 0.4755224883556366 -0.9104236364364624 0.0 0.0 0.0 0.0
0.173 -0.0500795803964138 -0.024426089599728584 0.47047996520996094 -0.9183874130249023 0.0 0.0 0.0 0.0
0.174 -0.05018697679042816 -0.023427536711096764 0.46513858437538147 -0.9179914593696594 0.0 0.0 0.0 0.0
0.175 -0.05003945901989937 -0.02438577078282833 0.459791362285614 -0.9239789843559265 0.0 0.0 0.0 0.0
0.176 -0.05057781562209129 -0.023938436061143875 0.45185694098472595 -0.9227467775344849 0.0 0.0 0.0 0.0
0.177 -0.05156246945261955 -0.02451690286397934 0.44670569896698 -0.9324392676353455 0.0 0.0 0.0 0.0
0.178 -0.050841059535741806 -0.02399335242807865 0.44102218747138977 -0.9303631782531738 0.0 0.0 0.0 0.0
0.179 -0.05106393247842789 -0.025808298960328102 0.4367494285106659 -0.9384273290634155 0.0 0.0 0.0 0.0
0.18 -0.050912488251924515 -0.025761375203728676 0.4305654466152191 -0.9379574060440063 0.0 0.0 0.0 0.0
0.181 -0.05113958567380905 -0.025485936552286148 0.42363783717155457 -0.9424371123313904 0.0 0.0 0.0 0.0
0.182 -0.05198127403855324 -0.024892577901482582 0.41669708490371704 -0.9424956440925598 0.0 0.0 0.0 0.0
0.183 -0.052248191088438034 -0.02629765123128891 0.4115486741065979 -0.9512818455696106 0.0 0.0 0.0 0.0
0.184 -0.05148641765117645 -0.025666069239377975 0.4055119752883911 -0.9501585364341736 0.0 0.0 0.0 0.0
0.185 -0.05191339924931526 -0.02673594281077385 0.4007570445537567 -0.9564454555511475 0.0 0.0 0.0 0.0
0.186 -0.05188281834125519 -0.02608530968427658 0.393219530582428 -0.9559523463249207 0.0 0.0 0.0 0.0
0.187 -0.05270841345191002 -0.02718789502978325 0.3886461853981018 -0.9614751935005188 0.0 0.0 0.0 0.0
0.188 -0.052618056535720825 -0.02685236930847168 0.3807857632637024 -0.9616824984550476 0.0 0.0 0.0 0.0
0.189 -0.053528062999248505 -0.02593756653368473 0.37355345487594604 -0.9677790999412537 0.0 0.0 0.0 0.0
0.19 -0.05377236381173134 -0.027073509991168976 0.3680100440979004 -0.969220757484436 0.0 0.0 0.0 0.0
0.191 -0.0529177226126194 -0.027606794610619545 0.36249077320098877 -0.9716054201126099 0.0 0.0 0.0 0.0
