!Created with skrf (http://scikit-rf.org).
# GHz S RI R 50.0 
!freq ReS11 ImS11 ReS21 ImS21 ReS12 ImS12 ReS22 ImS22
0.001 -1.2250968217849731 -0.025368785485625267 -3.3468008041381836e-05 4.738662391901016e-05 0.0 0.0 0.0 0.0
0.002 -1.084693193435669 0.1306571513414383 0.0001723719760775566 -0.00010942202061414719 0.0 0.0 0.0 0.0
0.003 -1.0314326286315918 0.21569916605949402 -2.9713846743106842e-05 0.00012693367898464203 0.0 0.0 0.0 0.0
0.004 -0.9934129118919373 0.273792028427124 0.00013059936463832855 -0.0001359935849905014 0.0 0.0 0.0 0.0
0.005 -0.9643323421478271 0.3269641101360321 -1.788698136806488e-05 -1.0435469448566437e-05 0.0 0.0 0.0 0.0
0.006 -0.9309011101722717 0.37673327326774597 -9.084958583116531e-05 -8.42185690999031e-05 0.0 0.0 0.0 0.0
0.007 -0.9060056209564209 0.4195575416088104 0.00013110507279634476 -0.0001680878922343254 0.0 0.0 0.0 0.0
0.008 -0.8724779486656189 0.46791237592697144 1.2203119695186615e-05 0.0001924680545926094 0.0 0.0 0.0 0.0
0.009 -0.8416414856910706 0.5090934038162231 2.7679838240146637e-05 6.585009396076202e-05 0.0 0.0 0.0 0.0
0.01 -0.8125454187393188 0.5524570941925049 7.445923984050751e-06 0.00021064281463623047 0.0 0.0 0.0 0.0
0.011 -0.7787026762962341 0.5924632549285889 -1.364387571811676e-06 -2.3079104721546173e-05 0.0 0.0 0.0 0.0
0.012 -0.7394318580627441 0.6359080076217651 -5.26895746588707e-05 0.00015744101256132126 0.0 0.0 0.0 0.0
0.013 -0.7065134048461914 0.6772274971008301 7.98078253865242e-05 -0.00024019088596105576 0.0 0.0 0.0 0.0
0.014 -0.6630147695541382 0.7116398215293884 8.0084428191185e-05 4.155002534389496e-05 0.0 0.0 0.0 0.0
0.015 -0.6233845949172974 0.7444930076599121 2.132076770067215e-05 7.974915206432343e-06 0.0 0.0 0.0 0.0
0.016 -0.5831903219223022 0.7782571911811829 -4.891958087682724e-05 -4.063267260789871e-05 0.0 0.0 0.0 0.0
0.017 -0.5318780541419983 0.807780385017395 -0.00010368227958679199 0.00010763201862573624 0.0 0.0 0.0 0.0
0.018 -0.48707330226898193 0.8359451293945312 0.00013382919132709503 7.867533713579178e-05 0.0 0.0 0.0 0.0
0.019 -0.4353209435939789 0.8624898791313171 -8.995272219181061e-05 2.7095898985862732e-05 0.0 0.0 0.0 0.0
0.02 -0.38705796003341675 0.8852530121803284 8.398666977882385e-05 -3.349967300891876e-05 0.0 0.0 0.0 0.0
0.021 -0.33209118247032166 0.9073110818862915 9.444914758205414e-05 -0.0002728421241044998 0.0 0.0 0.0 0.0
0.022 -0.2781434953212738 0.9213244318962097 -4.280172288417816e-05 0.0002463366836309433 0.0 0.0 0.0 0.0
0.023 -0.22497320175170898 0.9368507862091064 -0.00020071864128112793 9.486544877290726e-05 0.0 0.0 0.0 0.0
0.024 -0.1699688881635666 0.9456666707992554 0.00013330020010471344 3.604218363761902e-05 0.0 0.0 0.0 0.0
0.025 -0.11446696519851685 0.9565920233726501 -0.00015690363943576813 0.00025613512843847275 0.0 0.0 0.0 0.0
0.026 -0.05796145647764206 0.9556331634521484 -0.00015399232506752014 7.298309355974197e-05 0.0 0.0 0.0 0.0
0.027 -0.0033867741003632545 0.9559962749481201 -0.00027102790772914886 9.644217789173126e-05 0.0 0.0 0.0 0.0
0.028 0.05527418851852417 0.957280695438385 4.970841109752655e-05 0.00018869061022996902 0.0 0.0 0.0 0.0
0.029 0.11172118782997131 0.9491848349571228 -0.00026798248291015625 0.00015262793749570847 0.0 0.0 0.0 0.0
0.03 0.16882191598415375 0.9442000389099121 -0.00018771924078464508 0.00012118089944124222 0.0 0.0 0.0 0.0
0.031 0.22698482871055603 0.9280946850776672 2.8391368687152863e-05 0.00027009937912225723 0.0 0.0 0.0 0.0
0.032 0.27945053577423096 0.9116095900535583 2.0986422896385193e-05 0.0006274795159697533 0.0 0.0 0.0 0.0
0.033 0.3345834016799927 0.8935236930847168 0.0003277314826846123 0.00029122550040483475 0.0 0.0 0.0 0.0
0.034 0.3883133828639984 0.8691645264625549 0.00026451796293258667 0.00024644937366247177 0.0 0.0 0.0 0.0
0.035 0.4392213821411133 0.8473721742630005 0.00017597805708646774 0.00020091049373149872 0.0 0.0 0.0 0.0
0.036 0.48925548791885376 0.8149526715278625 0.0003774752840399742 0.00043034087866544724 0.0 0.0 0.0 0.0
0.037 0.5388847589492798 0.782090961933136 0.0004947325214743614 0.0002729305997490883 0.0 0.0 0.0 0.0
0.038 0.5883220434188843 0.7487849593162537 0.0004494497552514076 0.0002790195867419243 0.0 0.0 0.0 0.0
0.039 0.6312068700790405 0.7089903950691223 0.0004787519574165344 0.0002004345878958702 0.0 0.0 0.0 0.0
0.04 0.6745771765708923 0.6714828014373779 0.0004376443102955818 0.0003727693110704422 0.0 0.0 0.0 0.0
0.041 0.7138760685920715 0.6266623735427856 0.00033934880048036575 0.00032965466380119324 0.0 0.0 0.0 0.0
0.042 0.7493271231651306 0.5819552540779114 0.0007808022201061249 0.0004023537039756775 0.0 0.0 0.0 0.0
0.043 0.7864146828651428 0.5361391305923462 0.0006583323702216148 0.0002689734101295471 0.0 0.0 0.0 0.0
0.044 0.8188097476959229 0.48340243101119995 0.0005689635872840881 0.00036803632974624634 0.0 0.0 0.0 0.0
0.045 0.8427804708480835 0.4342367351055145 0.0008164746686816216 -0.00019726622849702835 0.0 0.0 0.0 0.0
0.046 0.8707026243209839 0.3775908648967743 0.0009411657229065895 -5.9489160776138306e-05 0.0 0.0 0.0 0.0
0.047 0.8932206034660339 0.32319357991218567 0.0011106040328741074 -0.00020775943994522095 0.0 0.0 0.0 0.0
0.048 0.9113892912864685 0.26579728722572327 0.0013121683150529861 -0.0003344649448990822 0.0 0.0 0.0 0.0
0.049 0.9265918731689453 0.21032369136810303 0.0008718706667423248 -0.0005376683548092842 0.0 0.0 0.0 0.0
0.05 0.9367939829826355 0.1512785255908966 0.0011398131027817726 -0.00048172567039728165 0.0 0.0 0.0 0.0
0.051 0.94915771484375 0.09451989084482193 0.0011987565085291862 -0.0006113974377512932 0.0 0.0 0.0 0.0
0.052 0.951617419719696 0.03376036509871483 0.0012196749448776245 -0.001148720271885395 0.0 0.0 0.0 0.0
0.053 0.9479133486747742 -0.025543149560689926 0.001077660359442234 -0.001284548081457615 0.0 0.0 0.0 0.0
0.054 0.9470779299736023 -0.0868736281991005 0.001081962138414383 -0.001361669972538948 0.0 0.0 0.0 0.0
0.055 0.9391444325447083 -0.1435045450925827 0.001006978563964367 -0.0015046680346131325 0.0 0.0 0.0 0.0
0.056 0.9337483048439026 -0.2016531229019165 0.00078606978058815 -0.0018128622323274612 0.0 0.0 0.0 0.0
0.057 0.918060839176178 -0.26328516006469727 0.0004911255091428757 -0.0020331554114818573 0.0 0.0 0.0 0.0
0.058 0.8977424502372742 -0.31716522574424744 5.741976201534271e-05 -0.0021714111790060997 0.0 0.0 0.0 0.0
0.059 0.87748783826828 -0.3716433644294739 -0.00018674787133932114 -0.0021116826683282852 0.0 0.0 0.0 0.0
0.06 0.8572657704353333 -0.42616796493530273 -0.00042961351573467255 -0.0023352866992354393 0.0 0.0 0.0 0.0
0.061 0.833879828453064 -0.4778900146484375 -0.0006577819585800171 -0.0021054642274975777 0.0 0.0 0.0 0.0
0.062 0.8008729219436646 -0.5265398621559143 -0.001081632450222969 -0.0019902298226952553 0.0 0.0 0.0 0.0
0.063 0.7664768099784851 -0.5784410238265991 -0.001086532138288021 -0.0019244058057665825 0.0 0.0 0.0 0.0
0.064 0.7309219241142273 -0.6197514533996582 -0.0016859713941812515 -0.0019087018445134163 0.0 0.0 0.0 0.0
0.065 0.6964625716209412 -0.6678134799003601 -0.0016436520963907242 -0.0020234202966094017 0.0 0.0 0.0 0.0
0.066 0.6523278951644897 -0.7097315788269043 -0.0019237920641899109 -0.001778930425643921 0.0 0.0 0.0 0.0
0.067 0.6085864305496216 -0.7472794651985168 -0.0026617953553795815 -0.0013482170179486275 0.0 0.0 0.0 0.0
0.068 0.5670673251152039 -0.7780653834342957 -0.002689652144908905 -0.0008501512929797173 0.0 0.0 0.0 0.0
0.069 0.5187158584594727 -0.8110378384590149 -0.003794396296143532 -0.0010729813948273659 0.0 0.0 0.0 0.0
0.07 0.47352778911590576 -0.840158224105835 -0.002990162931382656 -0.000745515339076519 0.0 0.0 0.0 0.0
0.071 0.4259704053401947 -0.8743582367897034 -0.0032515469938516617 0.0002442197874188423 0.0 0.0 0.0 0.0
0.072 0.37175115942955017 -0.8977499604225159 -0.0025022048503160477 5.736667662858963e-05 0.0 0.0 0.0 0.0
0.073 0.32059744000434875 -0.9165169596672058 -0.002526465803384781 0.00043989159166812897 0.0 0.0 0.0 0.0
0.074 0.2678568363189697 -0.9391922950744629 -0.002251710742712021 0.0005253395065665245 0.0 0.0 0.0 0.0
0.075 0.2096749246120453 -0.9484197497367859 -0.002811170183122158 0.0005758302286267281 0.0 0.0 0.0 0.0
0.076 0.1622554212808609 -0.958124041557312 -0.0025894679129123688 0.0009575122967362404 0.0 0.0 0.0 0.0
0.077 0.10772035270929337 -0.9662741422653198 -0.002666860818862915 0.0012270854786038399 0.0 0.0 0.0 0.0
0.078 0.052660904824733734 -0.9750730395317078 -0.002568255178630352 0.001319587230682373 0.0 0.0 0.0 0.0
0.079 -2.9644928872585297e-05 -0.9760141968727112 -0.0023488886654376984 0.001722489483654499 0.0 0.0 0.0 0.0
0.08 -0.05566532164812088 -0.9798696041107178 -0.0021973317489027977 0.0019581234082579613 0.0 0.0 0.0 0.0
0.081 -0.11700383573770523 -0.9735221266746521 -0.002287978306412697 0.002197408117353916 0.0 0.0 0.0 0.0
0.082 -0.1684570163488388 -0.9696526527404785 -0.0020436961203813553 0.0023333821445703506 0.0 0.0 0.0 0.0
0.083 -0.22404631972312927 -0.9549475312232971 -0.0017562387511134148 0.002790973521769047 0.0 0.0 0.0 0.0
0.084 -0.2669502794742584 -0.9418518543243408 -0.0014808783307671547 0.002965053543448448 0.0 0.0 0.0 0.0
0.085 -0.3204355239868164 -0.9310840368270874 -0.0010853968560695648 0.00306783989071846 0.0 0.0 0.0 0.0
0.086 -0.3766380846500397 -0.9096668362617493 -0.0008156495168805122 0.0031509175896644592 0.0 0.0 0.0 0.0
0.087 -0.4269947409629822 -0.8894056677818298 -0.00055670365691185 0.0033706147223711014 0.0 0.0 0.0 0.0
0.088 -0.4727940857410431 -0.8654880523681641 -0.0003408202901482582 0.0036620497703552246 0.0 0.0 0.0 0.0
0.089 -0.5207333564758301 -0.8413557410240173 2.1746382117271423e-05 0.003712039440870285 0.0 0.0 0.0 0.0
0.09 -0.5633796453475952 -0.8084477186203003 0.0005400115624070168 0.003586417995393276 0.0 0.0 0.0 0.0
0.091 -0.6049450039863586 -0.7788282036781311 0.0013637356460094452 0.0030588144436478615 0.0 0.0 0.0 0.0
0.092 -0.6469111442565918 -0.7439828515052795 0.0008243853226304054 0.002651497721672058 0.0 0.0 0.0 0.0
0.093 -0.6809554100036621 -0.7089492678642273 0.0016286419704556465 0.0030629485845565796 0.0 0.0 0.0 0.0
0.094 -0.7171724438667297 -0.6795909404754639 0.0017329128459095955 0.0030513890087604523 0.0 0.0 0.0 0.0
0.095 -0.7547486424446106 -0.6412436962127686 0.0020963549613952637 0.0027574049308896065 0.0 0.0 0.0 0.0
0.096 -0.7891639471054077 -0.5924718379974365 0.0026124054566025734 0.0025121932849287987 0.0 0.0 0.0 0.0
0.097 -0.8143554925918579 -0.5526040196418762 0.0017759203910827637 0.002437184564769268 0.0 0.0 0.0 0.0
0.098 -0.8432812094688416 -0.5123358368873596 0.002760341390967369 0.0025082090869545937 0.0 0.0 0.0 0.0
0.099 -0.8740788698196411 -0.46843257546424866 0.0029682302847504616 0.0021410146728157997 0.0 0.0 0.0 0.0
0.1 -0.8975164294242859 -0.4203435778617859 0.0032570958137512207 0.0017996663227677345 0.0 0.0 0.0 0.0
0.101 -0.8534479141235352 -0.3436678946018219 0.003387010656297207 0.0013411464169621468 0.0 0.0 0.0 0.0
0.102 -0.8707109093666077 -0.30089259147644043 0.0034379754215478897 0.0010140910744667053 0.0 0.0 0.0 0.0
0.103 -0.8824188113212585 -0.2583838105201721 0.003723996691405773 0.0008829263970255852 0.0 0.0 0.0 0.0
0.104 -0.8931712508201599 -0.2128862738609314 0.0038218246772885323 0.0005862228572368622 0.0 0.0 0.0 0.0
0.105 -0.9043416976928711 -0.16920678317546844 0.004111608490347862 -1.2613832950592041e-05 0.0 0.0 0.0 0.0
0.106 -0.9105277061462402 -0.12079921364784241 0.004046165384352207 -0.00040835607796907425 0.0 0.0 0.0 0.0
0.107 -0.9153785705566406 -0.0782938301563263 0.004014407284557819 -0.0011552013456821442 0.0 0.0 0.0 0.0
0.108 -0.9182552099227905 -0.030191486701369286 0.003757685422897339 -0.0013982653617858887 0.0 0.0 0.0 0.0
0.109 -0.9174870252609253 0.015206897631287575 0.003703468479216099 -0.00204502884298563 0.0 0.0 0.0 0.0
0.11 -0.9167267680168152 0.06094551831483841 0.0034079626202583313 -0.0024604247882962227 0.0 0.0 0.0 0.0
0.111 -0.912117600440979 0.10914690047502518 0.0027472423389554024 -0.0026646368205547333 0.0 0.0 0.0 0.0
0.112 -0.9054502844810486 0.15267395973205566 0.0025716694071888924 -0.0028931694105267525 0.0 0.0 0.0 0.0
0.113 -0.8978335857391357 0.19798429310321808 0.002190462313592434 -0.0032102512195706367 0.0 0.0 0.0 0.0
0.114 -0.8879310488700867 0.24630782008171082 0.001761152409017086 -0.003427984192967415 0.0 0.0 0.0 0.0
0.115 -0.8721033334732056 0.28992846608161926 0.0009470665827393532 -0.003250530920922756 0.0 0.0 0.0 0.0
0.116 -0.857588529586792 0.33218374848365784 0.0008299434557557106 -0.0031493427231907845 0.0 0.0 0.0 0.0
0.117 -0.8379480242729187 0.37673327326774597 0.00031848251819610596 -0.003052089363336563 0.0 0.0 0.0 0.0
0.118 -0.8195239305496216 0.42209160327911377 -1.0797753930091858e-05 -0.0029512057080864906 0.0 0.0 0.0 0.0
0.119 -0.7956695556640625 0.46242961287498474 -0.00026540644466876984 -0.002576957456767559 0.0 0.0 0.0 0.0
0.12 -0.7739440202713013 0.5028651356697083 -0.00037282612174749374 -0.002436302602291107 0.0 0.0 0.0 0.0
0.121 -0.7456926107406616 0.5449222326278687 -0.0005515404045581818 -0.002053460106253624 0.0 0.0 0.0 0.0
0.122 -0.7148975729942322 0.5820185542106628 -0.00034581776708364487 -0.0017398456111550331 0.0 0.0 0.0 0.0
0.123 -0.6833261847496033 0.6206769347190857 1.920759677886963e-05 -0.0013780612498521805 0.0 0.0 0.0 0.0
0.124 -0.6505885124206543 0.6550902128219604 0.0002460675314068794 -0.0016026068478822708 0.0 0.0 0.0 0.0
0.125 -0.615752100944519 0.6893517971038818 0.0006247935816645622 -0.001983329653739929 0.0 0.0 0.0 0.0
0.126 -0.5768317580223083 0.7221876978874207 0.00030588358640670776 -0.0022599035874009132 0.0 0.0 0.0 0.0
0.127 -0.5368037223815918 0.7518384456634521 0.00013645179569721222 -0.0025349408388137817 0.0 0.0 0.0 0.0
0.128 -0.49678391218185425 0.7785027027130127 2.2298656404018402e-05 -0.0028127869591116905 0.0 0.0 0.0 0.0
0.129 -0.4525987505912781 0.8065078258514404 -0.0003432277590036392 -0.002980640158057213 0.0 0.0 0.0 0.0
0.13 -0.40921539068222046 0.8292046785354614 -0.00082432571798563 -0.0029627960175275803 0.0 0.0 0.0 0.0
0.131 -0.36206722259521484 0.8505489230155945 -0.0010897843167185783 -0.0029513202607631683 0.0 0.0 0.0 0.0
0.132 -0.3140406310558319 0.8677892684936523 -0.0012652380391955376 -0.002870663069188595 0.0 0.0 0.0 0.0
0.133 -0.2662147581577301 0.8850473165512085 -0.0015659695491194725 -0.0029412684962153435 0.0 0.0 0.0 0.0
0.134 -0.21680136024951935 0.897637128829956 -0.0019655516371130943 -0.0029135849326848984 0.0 0.0 0.0 0.0
0.135 -0.16520527005195618 0.9096880555152893 -0.0022878702729940414 -0.002919485792517662 0.0 0.0 0.0 0.0
0.136 -0.11462412774562836 0.9150872826576233 -0.0030257180333137512 -0.0026805540546774864 0.0 0.0 0.0 0.0
0.137 -0.06240583211183548 0.9213189482688904 -0.0034064166247844696 -0.0022638486698269844 0.0 0.0 0.0 0.0
0.138 -0.009630240499973297 0.9221093058586121 -0.0035031819716095924 -0.0017826687544584274 0.0 0.0 0.0 0.0
0.139 0.043038878589868546 0.9209470152854919 -0.0035926634445786476 -0.0012622429057955742 0.0 0.0 0.0 0.0
0.14 0.0944385677576065 0.9158587455749512 -0.003762819804251194 -0.0008472101762890816 0.0 0.0 0.0 0.0
0.141 0.14630889892578125 0.9102392792701721 -0.003581494092941284 -0.000642336905002594 0.0 0.0 0.0 0.0
0.142 0.1989584118127823 0.897462010383606 -0.003736967220902443 -0.00014905165880918503 0.0 0.0 0.0 0.0
0.143 0.2504335045814514 0.8857713341712952 -0.0037883901968598366 0.00030330196022987366 0.0 0.0 0.0 0.0
0.144 0.3005303144454956 0.8688725829124451 -0.0034836893901228905 0.0005321437492966652 0.0 0.0 0.0 0.0
0.145 0.34932273626327515 0.8487749099731445 -0.003313753753900528 0.0007943641394376755 0.0 0.0 0.0 0.0
0.146 0.3986588418483734 0.8277813196182251 -0.003254272975027561 0.0009637949988245964 0.0 0.0 0.0 0.0
0.147 0.4456741511821747 0.8019254207611084 -0.0031774844974279404 0.0014092354103922844 0.0 0.0 0.0 0.0
0.148 0.4900415539741516 0.775291383266449 -0.0031360965222120285 0.001862192526459694 0.0 0.0 0.0 0.0
0.149 0.5342385768890381 0.7435662150382996 -0.0030869990587234497 0.0019508441910147667 0.0 0.0 0.0 0.0
0.15 0.5758233070373535 0.7106515169143677 -0.0027949241921305656 0.001934693194925785 0.0 0.0 0.0 0.0
0.151 0.6147840619087219 0.6757592558860779 -0.0025136396288871765 0.0026074256747961044 0.0 0.0 0.0 0.0
0.152 0.6542405486106873 0.638944149017334 -0.0023575471714138985 0.002911539748311043 0.0 0.0 0.0 0.0
0.153 0.6881979703903198 0.5985127091407776 -0.0017350884154438972 0.0031051309779286385 0.0 0.0 0.0 0.0
0.154 0.7217462062835693 0.5579439401626587 -0.0015526870265603065 0.0031698262318968773 0.0 0.0 0.0 0.0
0.155 0.750571608543396 0.5122575163841248 -0.0011178823187947273 0.003366534598171711 0.0 0.0 0.0 0.0
0.156 0.7804578542709351 0.46719712018966675 -0.0007910784333944321 0.003221653401851654 0.0 0.0 0.0 0.0
0.157 0.8057136535644531 0.4212380647659302 -0.0005081817507743835 0.0034636296331882477 0.0 0.0 0.0 0.0
0.158 0.8291839957237244 0.37479329109191895 -0.00015768222510814667 0.003642512485384941 0.0 0.0 0.0 0.0
0.159 0.8453048467636108 0.3245508372783661 0.00020298734307289124 0.003286951221525669 0.0 0.0 0.0 0.0
0.16 0.8646191358566284 0.275298535823822 0.0006669368594884872 0.0034557143226265907 0.0 0.0 0.0 0.0
0.161 0.875871479511261 0.2252524346113205 0.001207573339343071 0.002882985398173332 0.0 0.0 0.0 0.0
0.162 0.8883366584777832 0.17437385022640228 0.002317952923476696 0.0034252814948558807 0.0 0.0 0.0 0.0
0.163 0.8943784236907959 0.12211821973323822 0.0015835752710700035 0.0027168942615389824 0.0 0.0 0.0 0.0
0.164 0.8998126983642578 0.07252661883831024 0.0019548796117305756 0.0025567039847373962 0.0 0.0 0.0 0.0
0.165 0.9017989039421082 0.020844554528594017 0.0024592801928520203 0.0020889099687337875 0.0 0.0 0.0 0.0
0.166 0.901050865650177 -0.030010804533958435 0.0027350271120667458 0.0016123196110129356 0.0 0.0 0.0 0.0
0.167 0.8977728486061096 -0.0795307606458664 0.0028622904792428017 0.0013298876583576202 0.0 0.0 0.0 0.0
0.168 0.8909938335418701 -0.13032138347625732 0.0029219016432762146 0.0007474133744835854 0.0 0.0 0.0 0.0
0.169 0.8828997611999512 -0.1788816899061203 0.0027682380750775337 0.0003272322937846184 0.0 0.0 0.0 0.0
0.17 0.8706709742546082 -0.2263818234205246 0.002531875856220722 -0.00026027392596006393 0.0 0.0 0.0 0.0
0.171 0.8573974967002869 -0.2759610712528229 0.0022288979962468147 -0.0004575643688440323 0.0 0.0 0.0 0.0
0.172 0.8386748433113098 -0.3199651837348938 0.0018524015322327614 -0.0005778055638074875 0.0 0.0 0.0 0.0
0.173 0.8219578862190247 -0.3685849905014038 0.0015138695016503334 -0.0009370055049657822 0.0 0.0 0.0 0.0
0.174 0.7982457280158997 -0.40911412239074707 0.0011732280254364014 -0.0008113989606499672 0.0 0.0 0.0 0.0
0.175 0.7754672765731812 -0.45343542098999023 0.0007881214842200279 -0.0009853681549429893 0.0 0.0 0.0 0.0
0.176 0.7512092590332031 -0.49165982007980347 0.0005644233897328377 -0.0007263245061039925 0.0 0.0 0.0 0.0
0.177 0.7224476933479309 -0.5326003432273865 0.00039978884160518646 -0.0008195331320166588 0.0 0.0 0.0 0.0
0.178 0.695223867893219 -0.5668367147445679 0.000495673157274723 -0.0005015302449464798 0.0 0.0 0.0 0.0
0.179 0.6620134115219116 -0.6060681939125061 0.00031484104692935944 -0.0005957530811429024 0.0 0.0 0.0 0.0
0.18 0.6298132538795471 -0.6367525458335876 9.767431765794754e-05 -0.0006375759840011597 0.0 0.0 0.0 0.0
0.181 0.5969775319099426 -0.6700209975242615 0.000185512937605381 -0.0004567829892039299 0.0 0.0 0.0 0.0
0.182 0.5606048107147217 -0.6989246606826782 1.7583370208740234e-05 -0.0003585861995816231 0.0 0.0 0.0 0.0
0.183 0.5256285071372986 -0.7290602326393127 -7.679685950279236e-06 -0.00041723810136318207 0.0 0.0 0.0 0.0
0.184 0.488710880279541 -0.7556754946708679 0.00016036629676818848 -0.0002079196274280548 0.0 0.0 0.0 0.0
0.185 0.4499005079269409 -0.7788473963737488 3.260187804698944e-05 -0.0003799246624112129 0.0 0.0 0.0 0.0
0.186 0.41009068489074707 -0.8010409474372864 -0.00012134760618209839 -0.00010617077350616455 0.0 0.0 0.0 0.0
0.187 0.3710419535636902 -0.8194411993026733 -6.857607513666153e-05 0.00021080579608678818 0.0 0.0 0.0 0.0
