!Created with skrf (http://scikit-rf.org).
# GHz S RI R 50.0 
!freq ReS11 ImS11 ReS21 ImS21 ReS12 ImS12 ReS22 ImS22
0.001 0.12474992871284485 0.35941144824028015 0.9615471959114075 -0.5189293026924133 0.0 0.0 0.0 0.0
0.002 0.4313894510269165 0.4116940498352051 0.5067487359046936 -0.5505725145339966 0.0 0.0 0.0 0.0
0.003 0.6234644055366516 0.33940747380256653 0.2932985723018646 -0.4904477894306183 0.0 0.0 0.0 0.0
0.004 0.734063446521759 0.23733143508434296 0.1865842342376709 -0.4201123118400574 0.0 0.0 0.0 0.0
0.005 0.7860000729560852 0.14081339538097382 0.1298234909772873 -0.35374483466148376 0.0 0.0 0.0 0.0
0.006 0.8114071488380432 0.05148574709892273 0.10338126122951508 -0.3040712773799896 0.0 0.0 0.0 0.0
0.007 0.821273148059845 -0.025522101670503616 0.0827556848526001 -0.27280572056770325 0.0 0.0 0.0 0.0
0.008 0.8259386420249939 -0.09072833508253098 0.07081246376037598 -0.2514170706272125 0.0 0.0 0.0 0.0
0.009 0.8199629187583923 -0.15062135457992554 0.05823215842247009 -0.2346002161502838 0.0 0.0 0.0 0.0
0.01 0.8144164681434631 -0.20858198404312134 0.04832533746957779 -0.22406457364559174 0.0 0.0 0.0 0.0
0.011 0.803995668888092 -0.26095491647720337 0.03728551045060158 -0.213534414768219 0.0 0.0 0.0 0.0
0.012 0.7870911359786987 -0.3090926706790924 0.026321612298488617 -0.20394594967365265 0.0 0.0 0.0 0.0
0.013 0.7692515850067139 -0.3574104309082031 0.01602395623922348 -0.19644221663475037 0.0 0.0 0.0 0.0
0.014 0.7553942799568176 -0.40269729495048523 0.007641042582690716 -0.18964973092079163 0.0 0.0 0.0 0.0
0.015 0.7361008524894714 -0.45084741711616516 -0.0004854956641793251 -0.1823047697544098 0.0 0.0 0.0 0.0
0.016 0.7121757864952087 -0.4930523931980133 -0.009411652572453022 -0.1751774698495865 0.0 0.0 0.0 0.0
0.017 0.6903796792030334 -0.5327184796333313 -0.016457101330161095 -0.16819900274276733 0.0 0.0 0.0 0.0
0.018 0.6618621945381165 -0.5765097141265869 -0.024699807167053223 -0.16145974397659302 0.0 0.0 0.0 0.0
0.019 0.6303961873054504 -0.6128091216087341 -0.03164202719926834 -0.15474474430084229 0.0 0.0 0.0 0.0
0.02 0.5977151989936829 -0.6489739418029785 -0.03856149688363075 -0.14667968451976776 0.0 0.0 0.0 0.0
0.021 0.5651727914810181 -0.6815068125724792 -0.04362263157963753 -0.13908885419368744 0.0 0.0 0.0 0.0
0.022 0.5350196361541748 -0.7177144885063171 -0.048532210290431976 -0.13307127356529236 0.0 0.0 0.0 0.0
0.023 0.4959201514720917 -0.7453440427780151 -0.05311383306980133 -0.12543953955173492 0.0 0.0 0.0 0.0
0.024 0.4543580710887909 -0.7717386484146118 -0.05783303081989288 -0.11801793426275253 0.0 0.0 0.0 0.0
0.025 0.4176614582538605 -0.7977807521820068 -0.06011056527495384 -0.11216713488101959 0.0 0.0 0.0 0.0
0.026 0.37506985664367676 -0.8232731819152832 -0.06404688954353333 -0.10563091188669205 0.0 0.0 0.0 0.0
0.027 0.32844799757003784 -0.842136561870575 -0.06511884927749634 -0.09819993376731873 0.0 0.0 0.0 0.0
0.028 0.2878919243812561 -0.8636581897735596 -0.0674578920006752 -0.0926976278424263 0.0 0.0 0.0 0.0
0.029 0.2431754767894745 -0.8787709474563599 -0.06928782165050507 -0.08637312799692154 0.0 0.0 0.0 0.0
0.03 0.19745846092700958 -0.8905960917472839 -0.07081598043441772 -0.0802982971072197 0.0 0.0 0.0 0.0
0.031 0.15401604771614075 -0.8994461894035339 -0.07154972851276398 -0.07482623308897018 0.0 0.0 0.0 0.0
0.032 0.10880359262228012 -0.9061323404312134 -0.07191149145364761 -0.06948313117027283 0.0 0.0 0.0 0.0
0.033 0.060482557862997055 -0.9162424206733704 -0.07295150309801102 -0.06451600790023804 0.0 0.0 0.0 0.0
0.034 0.016282394528388977 -0.9233693480491638 -0.07347909361124039 -0.059842076152563095 0.0 0.0 0.0 0.0
0.035 -0.030667629092931747 -0.921381950378418 -0.07359012961387634 -0.054769162088632584 0.0 0.0 0.0 0.0
0.036 -0.07104913890361786 -0.9215407967567444 -0.07315221428871155 -0.05052465945482254 0.0 0.0 0.0 0.0
0.037 -0.11795835942029953 -0.9183436036109924 -0.07285964488983154 -0.046040818095207214 0.0 0.0 0.0 0.0
0.038 -0.1660265475511551 -0.9138457179069519 -0.07271669805049896 -0.042083531618118286 0.0 0.0 0.0 0.0
0.039 -0.21117378771305084 -0.9053177833557129 -0.07215677946805954 -0.03793022781610489 0.0 0.0 0.0 0.0
0.04 -0.2532426416873932 -0.8899011015892029 -0.07114087790250778 -0.033641036599874496 0.0 0.0 0.0 0.0
0.041 -0.2981911301612854 -0.8793389201164246 -0.07066885381937027 -0.03046802245080471 0.0 0.0 0.0 0.0
0.042 -0.33773472905158997 -0.86440110206604 -0.06953679770231247 -0.027055993676185608 0.0 0.0 0.0 0.0
0.043 -0.378290593624115 -0.8525576591491699 -0.06882481276988983 -0.023973671719431877 0.0 0.0 0.0 0.0
0.044 -0.420167475938797 -0.8349995017051697 -0.06772485375404358 -0.02095618285238743 0.0 0.0 0.0 0.0
0.045 -0.4619678854942322 -0.8111571669578552 -0.06687811017036438 -0.01780674420297146 0.0 0.0 0.0 0.0
0.046 -0.49910858273506165 -0.788879930973053 -0.06569691747426987 -0.01512060221284628 0.0 0.0 0.0 0.0
0.047 -0.5339994430541992 -0.7637404203414917 -0.06416495144367218 -0.01238921657204628 0.0 0.0 0.0 0.0
0.048 -0.5672318339347839 -0.742052435874939 -0.06299156695604324 -0.009900915436446667 0.0 0.0 0.0 0.0
0.049 -0.6084858179092407 -0.7104514837265015 -0.061729222536087036 -0.007384424097836018 0.0 0.0 0.0 0.0
0.05 -0.640673041343689 -0.6829760074615479 -0.06057865172624588 -0.005088223144412041 0.0 0.0 0.0 0.0
0.051 -0.6690042018890381 -0.6565607786178589 -0.05902549996972084 -0.0033268537372350693 0.0 0.0 0.0 0.0
0.052 -0.6983689069747925 -0.6248025298118591 -0.057660676538944244 -0.0013492191210389137 0.0 0.0 0.0 0.0
0.053 -0.7312226295471191 -0.5916311740875244 -0.05653822422027588 0.0007089003920555115 0.0 0.0 0.0 0.0
0.054 -0.7580500841140747 -0.5534111857414246 -0.054911058396101 0.002802218310534954 0.0 0.0 0.0 0.0
0.055 -0.7783298492431641 -0.5188164710998535 -0.053393419831991196 0.0043174829334020615 0.0 0.0 0.0 0.0
0.056 -0.801031768321991 -0.4864252805709839 -0.05208342522382736 0.005711786448955536 0.0 0.0 0.0 0.0
0.057 -0.8238765597343445 -0.4515857696533203 -0.05055847764015198 0.00699158851057291 0.0 0.0 0.0 0.0
0.058 -0.8463901281356812 -0.4093318581581116 -0.049311961978673935 0.008549399673938751 0.0 0.0 0.0 0.0
0.059 -0.8605557680130005 -0.3703940212726593 -0.04767278581857681 0.010033213533461094 0.0 0.0 0.0 0.0
0.06 -0.8755102157592773 -0.3344067633152008 -0.04627285897731781 0.010981311090290546 0.0 0.0 0.0 0.0
0.061 -0.8906627297401428 -0.29434606432914734 -0.04488867521286011 0.012209341861307621 0.0 0.0 0.0 0.0
0.062 -0.9019562602043152 -0.250864177942276 -0.043451108038425446 0.013293682597577572 0.0 0.0 0.0 0.0
0.063 -0.9152417778968811 -0.21401719748973846 -0.04208182916045189 0.01435683574527502 0.0 0.0 0.0 0.0
0.064 -0.9258939623832703 -0.1726427525281906 -0.0407143235206604 0.01500860508531332 0.0 0.0 0.0 0.0
0.065 -0.9276166558265686 -0.12563668191432953 -0.03912147134542465 0.015831034630537033 0.0 0.0 0.0 0.0
0.066 -0.933131217956543 -0.08646377921104431 -0.038155414164066315 0.016572898253798485 0.0 0.0 0.0 0.0
0.067 -0.9342948198318481 -0.04477351903915405 -0.03642754629254341 0.017245696857571602 0.0 0.0 0.0 0.0
0.068 -0.9379193782806396 -0.0034661106765270233 -0.03527102246880531 0.017731279134750366 0.0 0.0 0.0 0.0
0.069 -0.9392575025558472 0.04052889719605446 -0.03396080434322357 0.01829306036233902 0.0 0.0 0.0 0.0
0.07 -0.9332160353660583 0.08533387631177902 -0.032642655074596405 0.018778840079903603 0.0 0.0 0.0 0.0
0.071 -0.9265802502632141 0.1273920089006424 -0.031302254647016525 0.01911395974457264 0.0 0.0 0.0 0.0
0.072 -0.9187676906585693 0.16743862628936768 -0.03000263124704361 0.01963142305612564 0.0 0.0 0.0 0.0
0.073 -0.9087085127830505 0.21090592443943024 -0.02866053394973278 0.019901471212506294 0.0 0.0 0.0 0.0
0.074 -0.9008186459541321 0.2495654970407486 -0.02757848985493183 0.0200741458684206 0.0 0.0 0.0 0.0
0.075 -0.8862435221672058 0.2914884388446808 -0.02625259943306446 0.020156865939497948 0.0 0.0 0.0 0.0
0.076 -0.8746157884597778 0.3347459137439728 -0.0251367948949337 0.020138410851359367 0.0 0.0 0.0 0.0
0.077 -0.8564068675041199 0.3750794231891632 -0.02404552511870861 0.020225003361701965 0.0 0.0 0.0 0.0
0.078 -0.8344882726669312 0.4123281240463257 -0.022890372201800346 0.02045973762869835 0.0 0.0 0.0 0.0
0.079 -0.8159947395324707 0.44999128580093384 -0.0218073520809412 0.020237084478139877 0.0 0.0 0.0 0.0
0.08 -0.7927246689796448 0.48717620968818665 -0.020663239061832428 0.019908912479877472 0.0 0.0 0.0 0.0
0.081 -0.7711033821105957 0.5209579467773438 -0.019844546914100647 0.019857998937368393 0.0 0.0 0.0 0.0
0.082 -0.7446792125701904 0.5561164021492004 -0.01898253709077835 0.01949355937540531 0.0 0.0 0.0 0.0
0.083 -0.7191445827484131 0.5870155096054077 -0.017917100340127945 0.019093552604317665 0.0 0.0 0.0 0.0
0.084 -0.6876908540725708 0.6245046257972717 -0.017064036801457405 0.01868671178817749 0.0 0.0 0.0 0.0
0.085 -0.6559860110282898 0.6526666879653931 -0.01621243543922901 0.018160011619329453 0.0 0.0 0.0 0.0
0.086 -0.6249808073043823 0.6822928786277771 -0.015603899955749512 0.01794585771858692 0.0 0.0 0.0 0.0
0.087 -0.5929226875305176 0.7091377377510071 -0.014777903445065022 0.017334237694740295 0.0 0.0 0.0 0.0
0.088 -0.5573777556419373 0.734291672706604 -0.014139123260974884 0.01658351719379425 0.0 0.0 0.0 0.0
0.089 -0.5234361290931702 0.7623742818832397 -0.013946355320513248 0.01599527709186077 0.0 0.0 0.0 0.0
0.09 -0.48413437604904175 0.784284234046936 -0.013344118371605873 0.015058989636600018 0.0 0.0 0.0 0.0
0.091 -0.4452856183052063 0.8062499761581421 -0.013103409670293331 0.014669178053736687 0.0 0.0 0.0 0.0
0.092 -0.4078518748283386 0.8256205320358276 -0.01292604673653841 0.013612239621579647 0.0 0.0 0.0 0.0
0.093 -0.36744505167007446 0.843245804309845 -0.01275378093123436 0.012687024660408497 0.0 0.0 0.0 0.0
0.094 -0.3245519995689392 0.8623616099357605 -0.012768711894750595 0.01188037171959877 0.0 0.0 0.0 0.0
0.095 -0.2827115058898926 0.8741964101791382 -0.012966866604983807 0.010913994163274765 0.0 0.0 0.0 0.0
0.096 -0.2376377433538437 0.8846336603164673 -0.01382371224462986 0.010836102068424225 0.0 0.0 0.0 0.0
0.097 -0.1980309784412384 0.8935533761978149 -0.012953726574778557 0.009258518926799297 0.0 0.0 0.0 0.0
0.098 -0.1529533416032791 0.9049407243728638 -0.014172141440212727 0.008269280195236206 0.0 0.0 0.0 0.0
0.099 -0.10459909588098526 0.9093159437179565 -0.015035668388009071 0.007349992170929909 0.0 0.0 0.0 0.0
0.1 -0.04271220788359642 0.9240348935127258 -0.016025589779019356 0.00685356929898262 0.0 0.0 0.0 0.0
0.101 -0.029272956773638725 0.9022881984710693 -0.01684560254216194 0.005156100727617741 0.0 0.0 0.0 0.0
0.102 0.030472900718450546 0.9039528965950012 -0.018257880583405495 0.004676192067563534 0.0 0.0 0.0 0.0
0.103 0.07609141618013382 0.9015944600105286 -0.019845617935061455 0.004279757849872112 0.0 0.0 0.0 0.0
0.104 0.12131832540035248 0.8991630673408508 -0.021835461258888245 0.0037065334618091583 0.0 0.0 0.0 0.0
0.105 0.16860608756542206 0.8908600211143494 -0.023964598774909973 0.0036082016304135323 0.0 0.0 0.0 0.0
0.106 0.21542298793792725 0.8836271166801453 -0.026517868041992188 0.0035464707762002945 0.0 0.0 0.0 0.0
0.107 0.260195791721344 0.871616542339325 -0.028955725952982903 0.0037072254344820976 0.0 0.0 0.0 0.0
0.108 0.3066437840461731 0.8580304980278015 -0.03218409791588783 0.004662090912461281 0.0 0.0 0.0 0.0
0.109 0.3524940013885498 0.8399240970611572 -0.0349222831428051 0.005654275417327881 0.0 0.0 0.0 0.0
0.11 0.3968394696712494 0.8213534951210022 -0.03810093179345131 0.007439948618412018 0.0 0.0 0.0 0.0
0.111 0.43987059593200684 0.7974260449409485 -0.04124000668525696 0.009745812974870205 0.0 0.0 0.0 0.0
0.112 0.4821491539478302 0.7721350789070129 -0.04441270977258682 0.012740286067128181 0.0 0.0 0.0 0.0
0.113 0.5235164165496826 0.7462754845619202 -0.04736148566007614 0.016068780794739723 0.0 0.0 0.0 0.0
0.114 0.5626397132873535 0.7150736451148987 -0.04989224672317505 0.020310619845986366 0.0 0.0 0.0 0.0
0.115 0.600898802280426 0.6815556287765503 -0.05202809348702431 0.025042762979865074 0.0 0.0 0.0 0.0
0.116 0.6345118880271912 0.6487416625022888 -0.053803153336048126 0.030306175351142883 0.0 0.0 0.0 0.0
0.117 0.6714313626289368 0.6096726059913635 -0.054836876690387726 0.03628365695476532 0.0 0.0 0.0 0.0
0.118 0.6986357569694519 0.5709636211395264 -0.055138446390628815 0.042397476732730865 0.0 0.0 0.0 0.0
0.119 0.7277989387512207 0.5312294363975525 -0.05460229888558388 0.049142271280288696 0.0 0.0 0.0 0.0
0.12 0.7535063028335571 0.48921284079551697 -0.05308469757437706 0.055914491415023804 0.0 0.0 0.0 0.0
0.121 0.7783029079437256 0.4461277425289154 -0.050192732363939285 0.06288321316242218 0.0 0.0 0.0 0.0
0.122 0.7969903945922852 0.40108823776245117 -0.0463871993124485 0.06902061402797699 0.0 0.0 0.0 0.0
0.123 0.812954843044281 0.35703685879707336 -0.04169350862503052 0.07476843148469925 0.0 0.0 0.0 0.0
0.124 0.8278641700744629 0.31202432513237 -0.036442939192056656 0.07950077950954437 0.0 0.0 0.0 0.0
0.125 0.8391128182411194 0.2677685022354126 -0.03075934574007988 0.0841975063085556 0.0 0.0 0.0 0.0
0.126 0.8482717871665955 0.22155308723449707 -0.024146558716893196 0.08767511695623398 0.0 0.0 0.0 0.0
0.127 0.8543555736541748 0.17655280232429504 -0.017706990242004395 0.0903530940413475 0.0 0.0 0.0 0.0
0.128 0.8604377508163452 0.132926806807518 -0.011117443442344666 0.09238966554403305 0.0 0.0 0.0 0.0
0.129 0.8614621758460999 0.08924482762813568 -0.004559316672384739 0.09353478997945786 0.0 0.0 0.0 0.0
0.13 0.8619655966758728 0.04476035013794899 0.0019273161888122559 0.09407009929418564 0.0 0.0 0.0 0.0
0.131 0.860847532749176 0.0021431436762213707 0.008016908541321754 0.09441913664340973 0.0 0.0 0.0 0.0
0.132 0.8573561906814575 -0.04149250686168671 0.014350076206028461 0.09410489350557327 0.0 0.0 0.0 0.0
0.133 0.8515880107879639 -0.08251216262578964 0.020377416163682938 0.09345017373561859 0.0 0.0 0.0 0.0
0.134 0.8466660976409912 -0.12463711947202682 0.0263292845338583 0.09230850636959076 0.0 0.0 0.0 0.0
0.135 0.8360059857368469 -0.16529740393161774 0.032209448516368866 0.09060131758451462 0.0 0.0 0.0 0.0
0.136 0.8245713710784912 -0.20753967761993408 0.037811946123838425 0.08838758617639542 0.0 0.0 0.0 0.0
0.137 0.8107069134712219 -0.24597664177417755 0.04286981001496315 0.08597379177808762 0.0 0.0 0.0 0.0
0.138 0.7976192235946655 -0.28423041105270386 0.04783010855317116 0.08323796838521957 0.0 0.0 0.0 0.0
0.139 0.782292902469635 -0.32178857922554016 0.05248502641916275 0.07998333871364594 0.0 0.0 0.0 0.0
0.14 0.7646480798721313 -0.35982653498649597 0.056745197623968124 0.07691868394613266 0.0 0.0 0.0 0.0
0.141 0.7466645240783691 -0.39601975679397583 0.0606929250061512 0.0737457424402237 0.0 0.0 0.0 0.0
0.142 0.7251365780830383 -0.4332793354988098 0.06466090679168701 0.07012445479631424 0.0 0.0 0.0 0.0
0.143 0.7018726468086243 -0.4657134413719177 0.06775116175413132 0.06662100553512573 0.0 0.0 0.0 0.0
0.144 0.6784191727638245 -0.49784934520721436 0.07110574841499329 0.06312181800603867 0.0 0.0 0.0 0.0
0.145 0.6542654633522034 -0.5265794396400452 0.07375424355268478 0.05916811153292656 0.0 0.0 0.0 0.0
0.146 0.627770185470581 -0.5584309697151184 0.07679608464241028 0.05532870814204216 0.0 0.0 0.0 0.0
0.147 0.6020091772079468 -0.5885114073753357 0.07918950170278549 0.051501404494047165 0.0 0.0 0.0 0.0
0.148 0.5730053186416626 -0.6144037246704102 0.08135771006345749 0.047232650220394135 0.0 0.0 0.0 0.0
0.149 0.5451200008392334 -0.6406185030937195 0.0834243968129158 0.04350357502698898 0.0 0.0 0.0 0.0
0.15 0.5109386444091797 -0.6675580143928528 0.08575011789798737 0.03893936425447464 0.0 0.0 0.0 0.0
0.151 0.48016148805618286 -0.6899867057800293 0.08680857717990875 0.034993406385183334 0.0 0.0 0.0 0.0
0.152 0.44770917296409607 -0.7112739682197571 0.08826963603496552 0.030777381733059883 0.0 0.0 0.0 0.0
0.153 0.41419631242752075 -0.7296329140663147 0.08928508311510086 0.02653990127146244 0.0 0.0 0.0 0.0
0.154 0.38047289848327637 -0.748875617980957 0.09039080888032913 0.022785745561122894 0.0 0.0 0.0 0.0
0.155 0.34733736515045166 -0.7662621140480042 0.09124848991632462 0.018863890320062637 0.0 0.0 0.0 0.0
0.156 0.3111894428730011 -0.7804816365242004 0.09178722649812698 0.014553111046552658 0.0 0.0 0.0 0.0
0.157 0.27589109539985657 -0.7954361438751221 0.09219413250684738 0.01061179954558611 0.0 0.0 0.0 0.0
0.158 0.24006524682044983 -0.8075354099273682 0.09281449764966965 0.00683429092168808 0.0 0.0 0.0 0.0
0.159 0.20136995613574982 -0.8175216913223267 0.09287994354963303 0.00248787272721529 0.0 0.0 0.0 0.0
0.16 0.16572293639183044 -0.82476806640625 0.09266527742147446 -0.0013954127207398415 0.0 0.0 0.0 0.0
0.161 0.1290673017501831 -0.8298153281211853 0.09299836307764053 -0.005448541603982449 0.0 0.0 0.0 0.0
0.162 0.09250447899103165 -0.8375760316848755 0.09265304356813431 -0.00946764089167118 0.0 0.0 0.0 0.0
0.163 0.05138002336025238 -0.8423826098442078 0.09185910224914551 -0.013236102648079395 0.0 0.0 0.0 0.0
0.164 0.01654929481446743 -0.8411056995391846 0.09103403985500336 -0.0165216363966465 0.0 0.0 0.0 0.0
0.165 -0.01872664876282215 -0.8434143662452698 0.09072457253932953 -0.02054029330611229 0.0 0.0 0.0 0.0
0.166 -0.05597031116485596 -0.8408846855163574 0.08964868634939194 -0.02422850765287876 0.0 0.0 0.0 0.0
0.167 -0.09357354789972305 -0.8402642607688904 0.08882150053977966 -0.02790950983762741 0.0 0.0 0.0 0.0
0.168 -0.13143368065357208 -0.835877001285553 0.08776639401912689 -0.03148484230041504 0.0 0.0 0.0 0.0
0.169 -0.16948221623897552 -0.8311716914176941 0.0867474377155304 -0.03547370806336403 0.0 0.0 0.0 0.0
0.17 -0.20514823496341705 -0.8207617998123169 0.08510074019432068 -0.03861897438764572 0.0 0.0 0.0 0.0
0.171 -0.24135443568229675 -0.8106634616851807 0.08370191603899002 -0.042345572263002396 0.0 0.0 0.0 0.0
0.172 -0.27498114109039307 -0.8026856184005737 0.08230939507484436 -0.04548761993646622 0.0 0.0 0.0 0.0
0.173 -0.31069228053092957 -0.7887375354766846 0.08058445900678635 -0.04907366260886192 0.0 0.0 0.0 0.0
0.174 -0.34389445185661316 -0.774255633354187 0.07870141416788101 -0.05213547125458717 0.0 0.0 0.0 0.0
0.175 -0.3782365024089813 -0.7620923519134521 0.07721374928951263 -0.0556810200214386 0.0 0.0 0.0 0.0
0.176 -0.4124148190021515 -0.7426455020904541 0.07475403696298599 -0.058923352509737015 0.0 0.0 0.0 0.0
0.177 -0.44317108392715454 -0.7268375158309937 0.0732126235961914 -0.06226583197712898 0.0 0.0 0.0 0.0
0.178 -0.47703516483306885 -0.7059558629989624 0.07044383883476257 -0.0652744472026825 0.0 0.0 0.0 0.0
0.179 -0.5038518309593201 -0.6868022084236145 0.06844508647918701 -0.06826786696910858 0.0 0.0 0.0 0.0
0.18 -0.5354864597320557 -0.6657517552375793 0.06600610166788101 -0.07136382907629013 0.0 0.0 0.0 0.0
0.181 -0.5626159310340881 -0.6404833197593689 0.06312606483697891 -0.07390148937702179 0.0 0.0 0.0 0.0
0.182 -0.5939497351646423 -0.6166117787361145 0.0604386031627655 -0.0772567093372345 0.0 0.0 0.0 0.0
0.183 -0.6176161170005798 -0.5921303033828735 0.05824114382266998 -0.07983428239822388 0.0 0.0 0.0 0.0
0.184 -0.6427747011184692 -0.5633209347724915 0.05494188889861107 -0.08244093507528305 0.0 0.0 0.0 0.0
0.185 -0.66765958070755 -0.5362586379051208 0.05188623443245888 -0.08532148599624634 0.0 0.0 0.0 0.0
0.186 -0.6928864121437073 -0.5080306529998779 0.04878932237625122 -0.08798231929540634 0.0 0.0 0.0 0.0
0.187 -0.7137171626091003 -0.4771571755409241 0.045295991003513336 -0.09029089659452438 0.0 0.0 0.0 0.0
0.188 -0.7345596551895142 -0.4431714713573456 0.041562844067811966 -0.09258505702018738 0.0 0.0 0.0 0.0
0.189 -0.7541238069534302 -0.4132758378982544 0.038568273186683655 -0.09498455375432968 0.0 0.0 0.0 0.0
0.19 -0.7744712233543396 -0.379679411649704 0.0342995785176754 -0.09722848236560822 0.0 0.0 0.0 0.0
0.191 -0.787810742855072 -0.3457624614238739 0.030684730038046837 -0.09897389262914658 0.0 0.0 0.0 0.0
0.192 -0.8024483919143677 -0.30885183811187744 0.02679741196334362 -0.10090606659650803 0.0 0.0 0.0 0.0
0.193 -0.8164198398590088 -0.27219119668006897 0.022741736844182014 -0.10225150734186172 0.0 0.0 0.0 0.0
