!Created with skrf (http://scikit-rf.org).
# GHz S RI R 50.0 
!freq ReS11 ImS11 ReS21 ImS21 ReS12 ImS12 ReS22 ImS22
0.001 1.0519845485687256 -0.057526443153619766 2.8386712074279785e-06 0.00022417400032281876 0.0 0.0 0.0 0.0
0.002 0.9924212098121643 -0.10313146561384201 -1.869071274995804e-05 -7.601175457239151e-05 0.0 0.0 0.0 0.0
0.003 0.9823676347732544 -0.15718892216682434 -2.3725442588329315e-05 -0.00017219316214323044 0.0 0.0 0.0 0.0
0.004 0.977688193321228 -0.2046717256307602 9.162910282611847e-05 3.990251570940018e-05 0.0 0.0 0.0 0.0
0.005 0.9592386484146118 -0.25597187876701355 -3.695208579301834e-05 -1.46450474858284e-05 0.0 0.0 0.0 0.0
0.006 0.952701985836029 -0.3049546778202057 0.00021318718791007996 6.888061761856079e-06 0.0 0.0 0.0 0.0
0.007 0.9294344782829285 -0.3458452820777893 8.82195308804512e-05 -2.9554590582847595e-05 0.0 0.0 0.0 0.0
0.008 0.9094980955123901 -0.3963325321674347 0.0001153312623500824 -1.5011057257652283e-05 0.0 0.0 0.0 0.0
0.009 0.8944915533065796 -0.4408542215824127 3.984197974205017e-06 0.00013940408825874329 0.0 0.0 0.0 0.0
0.01 0.8664848208427429 -0.48688533902168274 0.0001495787873864174 0.00017684325575828552 0.0 0.0 0.0 0.0
0.011 0.8400433659553528 -0.525600016117096 2.7635134756565094e-05 0.00012853927910327911 0.0 0.0 0.0 0.0
0.012 0.8147493600845337 -0.5710195899009705 0.00018756836652755737 3.965012729167938e-05 0.0 0.0 0.0 0.0
0.013 0.7869038581848145 -0.6083243489265442 0.00027562305331230164 0.00015535298734903336 0.0 0.0 0.0 0.0
0.014 0.7553495764732361 -0.6504157781600952 0.0002148803323507309 0.0001451997086405754 0.0 0.0 0.0 0.0
0.015 0.71788090467453 -0.6842216849327087 5.043111741542816e-06 3.170222043991089e-05 0.0 0.0 0.0 0.0
0.016 0.6882686614990234 -0.7236958742141724 0.00017042458057403564 6.494298577308655e-05 0.0 0.0 0.0 0.0
0.017 0.6501773595809937 -0.74908447265625 -1.3171695172786713e-05 -1.011136919260025e-05 0.0 0.0 0.0 0.0
0.018 0.6146600246429443 -0.7854925990104675 0.0001542419195175171 9.744521230459213e-05 0.0 0.0 0.0 0.0
0.019 0.5761181116104126 -0.8142683506011963 5.003251135349274e-05 9.068381041288376e-05 0.0 0.0 0.0 0.0
0.02 0.5325806736946106 -0.8430417776107788 -0.00018145795911550522 -8.106790482997894e-05 0.0 0.0 0.0 0.0
0.021 0.48668789863586426 -0.8685170412063599 -0.00016928836703300476 6.483495235443115e-05 0.0 0.0 0.0 0.0
0.022 0.44920942187309265 -0.8858458995819092 -0.0003087632358074188 0.0001899106428027153 0.0 0.0 0.0 0.0
0.023 0.40610525012016296 -0.9097795486450195 -0.00023323111236095428 0.00028097257018089294 0.0 0.0 0.0 0.0
0.024 0.3570407032966614 -0.9316826462745667 -0.0006123241037130356 0.00044253841042518616 0.0 0.0 0.0 0.0
0.025 0.3138546049594879 -0.9415706992149353 -0.000646272674202919 0.0007736757397651672 0.0 0.0 0.0 0.0
0.026 0.2727607488632202 -0.961968719959259 -0.0005787992849946022 0.0013075945898890495 0.0 0.0 0.0 0.0
0.027 0.22262215614318848 -0.9757037162780762 -0.00024673808366060257 0.0017869584262371063 0.0 0.0 0.0 0.0
0.028 0.17321191728115082 -0.9819937944412231 0.0004832986742258072 0.0024588126689195633 0.0 0.0 0.0 0.0
0.029 0.1260451078414917 -0.9868871569633484 0.001342526637017727 0.0020707696676254272 0.0 0.0 0.0 0.0
0.03 0.08185752481222153 -0.9904459714889526 0.001969102770090103 0.0015501370653510094 0.0 0.0 0.0 0.0
0.031 0.0361907035112381 -0.9982773065567017 0.002012450248003006 0.001259995624423027 0.0 0.0 0.0 0.0
0.032 -0.015875667333602905 -0.9941030740737915 0.0015842355787754059 0.000566910021007061 0.0 0.0 0.0 0.0
0.033 -0.05775052681565285 -0.9976440072059631 0.002262425608932972 0.00043661799281835556 0.0 0.0 0.0 0.0
0.034 -0.11127805709838867 -0.9978865385055542 0.0023802071809768677 0.00028610602021217346 0.0 0.0 0.0 0.0
0.035 -0.15661749243736267 -0.9880490303039551 0.0023888573050498962 0.00014281366020441055 0.0 0.0 0.0 0.0
0.036 -0.19788998365402222 -0.9781665205955505 0.0022344235330820084 6.217882037162781e-05 0.0 0.0 0.0 0.0
0.037 -0.2431700974702835 -0.9660723805427551 0.0024688728153705597 -8.8508240878582e-05 0.0 0.0 0.0 0.0
0.038 -0.28757011890411377 -0.9565831422805786 0.0028626322746276855 -0.00038967933505773544 0.0 0.0 0.0 0.0
0.039 -0.33587923645973206 -0.9473944902420044 0.0031453240662813187 -0.0008484357967972755 0.0 0.0 0.0 0.0
0.04 -0.38237282633781433 -0.9233494997024536 0.0030912943184375763 -0.0014222944155335426 0.0 0.0 0.0 0.0
0.041 -0.42196255922317505 -0.9060210585594177 0.0030556535348296165 -0.0022820718586444855 0.0 0.0 0.0 0.0
0.042 -0.4643476605415344 -0.8839295506477356 0.002582419663667679 -0.0020741913467645645 0.0 0.0 0.0 0.0
0.043 -0.49945804476737976 -0.8606197834014893 0.002536366693675518 -0.002538817934691906 0.0 0.0 0.0 0.0
0.044 -0.538253903388977 -0.8452455401420593 0.0027559231966733932 -0.002785957418382168 0.0 0.0 0.0 0.0
0.045 -0.5803680419921875 -0.8171555399894714 0.0020989179611206055 -0.0035823024809360504 0.0 0.0 0.0 0.0
0.046 -0.6154055595397949 -0.7870784997940063 0.001517253927886486 -0.003756115213036537 0.0 0.0 0.0 0.0
0.047 -0.6519818902015686 -0.7561095952987671 0.0012257127091288567 -0.003856200724840164 0.0 0.0 0.0 0.0
0.048 -0.6788700222969055 -0.7250440716743469 0.0007413309067487717 -0.004019518382847309 0.0 0.0 0.0 0.0
0.049 -0.7172501087188721 -0.6983239054679871 0.0006559630855917931 -0.004552477039396763 0.0 0.0 0.0 0.0
0.05 -0.7482693195343018 -0.6655810475349426 0.0001185685396194458 -0.004642135463654995 0.0 0.0 0.0 0.0
0.051 -0.7709899544715881 -0.6256628632545471 -0.00071694515645504 -0.004566301591694355 0.0 0.0 0.0 0.0
0.052 -0.7969850301742554 -0.5918496251106262 -0.0008595706894993782 -0.004752932116389275 0.0 0.0 0.0 0.0
0.053 -0.8226248621940613 -0.5595117807388306 -0.000916442833840847 -0.004980581812560558 0.0 0.0 0.0 0.0
0.054 -0.8525850176811218 -0.5197889804840088 -0.002180475741624832 -0.0056757936254143715 0.0 0.0 0.0 0.0
0.055 -0.8748719692230225 -0.47968098521232605 -0.0030637094751000404 -0.00530069787055254 0.0 0.0 0.0 0.0
0.056 -0.8903788924217224 -0.43917086720466614 -0.003986642695963383 -0.004890440031886101 0.0 0.0 0.0 0.0
0.057 -0.9064329266548157 -0.40325987339019775 -0.0047285305336117744 -0.00445947889238596 0.0 0.0 0.0 0.0
0.058 -0.920610249042511 -0.36561524868011475 -0.005607639439404011 -0.0038650184869766235 0.0 0.0 0.0 0.0
0.059 -0.9389443397521973 -0.31804341077804565 -0.0061195045709609985 -0.0032480331137776375 0.0 0.0 0.0 0.0
0.06 -0.9499721527099609 -0.27494099736213684 -0.006528464145958424 -0.0024236664175987244 0.0 0.0 0.0 0.0
0.061 -0.9621488451957703 -0.23418255150318146 -0.00695169810205698 -0.0013447757810354233 0.0 0.0 0.0 0.0
0.062 -0.9712066650390625 -0.19333516061306 -0.007072238251566887 -0.0007687583565711975 0.0 0.0 0.0 0.0
0.063 -0.9739055633544922 -0.15000522136688232 -0.007201477885246277 0.0003364710137248039 0.0 0.0 0.0 0.0
0.064 -0.9822184443473816 -0.10682719945907593 -0.0070161763578653336 0.0010498426854610443 0.0 0.0 0.0 0.0
0.065 -0.9809929728507996 -0.06646056473255157 -0.0064787473529577255 0.0018704729154706001 0.0 0.0 0.0 0.0
0.066 -0.9817973971366882 -0.023803627118468285 -0.006609577685594559 0.002248317003250122 0.0 0.0 0.0 0.0
0.067 -0.9844205975532532 0.01623952016234398 -0.006455950438976288 0.003269471228122711 0.0 0.0 0.0 0.0
0.068 -0.9822628498077393 0.05956914648413658 -0.005936341360211372 0.004568297415971756 0.0 0.0 0.0 0.0
0.069 -0.9803799986839294 0.1069902777671814 -0.006036791019141674 0.004718020558357239 0.0 0.0 0.0 0.0
0.07 -0.9734071493148804 0.15192602574825287 -0.004762191325426102 0.005780164152383804 0.0 0.0 0.0 0.0
0.071 -0.9598690867424011 0.1936914622783661 -0.004375400021672249 0.006279384717345238 0.0 0.0 0.0 0.0
0.072 -0.9504460096359253 0.23263642191886902 -0.0027188947424292564 0.006410760805010796 0.0 0.0 0.0 0.0
0.073 -0.9362343549728394 0.2761426568031311 -0.0019365623593330383 0.005611899308860302 0.0 0.0 0.0 0.0
0.074 -0.9209749698638916 0.3174242377281189 -0.0017555728554725647 0.0052599068731069565 0.0 0.0 0.0 0.0
0.075 -0.9077237248420715 0.3558356463909149 -0.001981073059141636 0.005906742066144943 0.0 0.0 0.0 0.0
0.076 -0.8917072415351868 0.396215558052063 -0.0013002362102270126 0.006474369205534458 0.0 0.0 0.0 0.0
0.077 -0.8712756633758545 0.438546746969223 -0.0006790449842810631 0.0064628394320607185 0.0 0.0 0.0 0.0
0.078 -0.8480316400527954 0.47798988223075867 -5.016010254621506e-05 0.006771390326321125 0.0 0.0 0.0 0.0
0.079 -0.8260303139686584 0.5122668743133545 0.0007141893729567528 0.006566908210515976 0.0 0.0 0.0 0.0
0.08 -0.80035001039505 0.547615110874176 0.001268915832042694 0.006664172746241093 0.0 0.0 0.0 0.0
0.081 -0.7725849747657776 0.5778102874755859 0.002191883511841297 0.006465700455009937 0.0 0.0 0.0 0.0
0.082 -0.7449020743370056 0.610216498374939 0.002865402027964592 0.006289214827120304 0.0 0.0 0.0 0.0
0.083 -0.7175023555755615 0.6448803544044495 0.0035169506445527077 0.0060124630108475685 0.0 0.0 0.0 0.0
0.084 -0.6858250498771667 0.6776691675186157 0.0041588302701711655 0.0054891062900424 0.0 0.0 0.0 0.0
0.085 -0.6519936919212341 0.7047958970069885 0.004537600092589855 0.0054082851856946945 0.0 0.0 0.0 0.0
0.086 -0.6153473258018494 0.730859637260437 0.005350247956812382 0.004893467761576176 0.0 0.0 0.0 0.0
0.087 -0.5812129378318787 0.7576435208320618 0.005936184898018837 0.004135909490287304 0.0 0.0 0.0 0.0
0.088 -0.5487925410270691 0.7834513783454895 0.006500501185655594 0.0035863276571035385 0.0 0.0 0.0 0.0
0.089 -0.5074790120124817 0.8050363063812256 0.00626833550632 0.0036399969831109047 0.0 0.0 0.0 0.0
0.09 -0.4721516966819763 0.8244690299034119 0.007394103333353996 0.0019285548478364944 0.0 0.0 0.0 0.0
0.091 -0.4320897161960602 0.8475003838539124 0.007461301051080227 0.0006051752716302872 0.0 0.0 0.0 0.0
0.092 -0.3921135663986206 0.8622197508811951 0.0073898956179618835 -0.000592418946325779 0.0 0.0 0.0 0.0
0.093 -0.3503706455230713 0.8818041682243347 0.006617177277803421 -0.0006798738613724709 0.0 0.0 0.0 0.0
0.094 -0.3115653097629547 0.8950923681259155 0.00631686020642519 -0.001183459535241127 0.0 0.0 0.0 0.0
0.095 -0.2635315954685211 0.9074583649635315 0.006157527677714825 -0.0014493297785520554 0.0 0.0 0.0 0.0
0.096 -0.22390921413898468 0.9179094433784485 0.004812011495232582 -0.002024304121732712 0.0 0.0 0.0 0.0
0.097 -0.18210573494434357 0.9211548566818237 0.006572111509740353 -0.003016142174601555 0.0 0.0 0.0 0.0
0.098 -0.13715976476669312 0.9310486316680908 0.0056159887462854385 -0.00331259798258543 0.0 0.0 0.0 0.0
0.099 -0.0907549262046814 0.9349660277366638 0.00578208826482296 -0.0038780830800533295 0.0 0.0 0.0 0.0
0.1 -0.047770388424396515 0.9344346523284912 0.005014839582145214 -0.004558634012937546 0.0 0.0 0.0 0.0
0.101 -0.03648129478096962 0.9074495434761047 0.004459892399609089 -0.0051407599821686745 0.0 0.0 0.0 0.0
0.102 0.011885933578014374 0.9084370732307434 0.0035686464980244637 -0.005655546672642231 0.0 0.0 0.0 0.0
0.103 0.05607341229915619 0.9089966416358948 0.0033396482467651367 -0.005902355536818504 0.0 0.0 0.0 0.0
0.104 0.0990472137928009 0.9038704037666321 0.0025236960500478745 -0.006334895268082619 0.0 0.0 0.0 0.0
0.105 0.14491687715053558 0.8994727730751038 0.0015876339748501778 -0.006902256980538368 0.0 0.0 0.0 0.0
0.106 0.18780501186847687 0.8919073343276978 0.0004414208233356476 -0.006853792816400528 0.0 0.0 0.0 0.0
0.107 0.23370371758937836 0.8839133381843567 -0.0006378721445798874 -0.006739437580108643 0.0 0.0 0.0 0.0
0.108 0.2761511504650116 0.8708391189575195 -0.001567191444337368 -0.006146406754851341 0.0 0.0 0.0 0.0
0.109 0.32134050130844116 0.8574892282485962 -0.0021736416965723038 -0.005510447546839714 0.0 0.0 0.0 0.0
0.11 0.36376112699508667 0.8392230868339539 -0.0029127877205610275 -0.004968517459928989 0.0 0.0 0.0 0.0
0.111 0.4069729745388031 0.8224050402641296 -0.0034404797479510307 -0.004066571593284607 0.0 0.0 0.0 0.0
0.112 0.4478241801261902 0.7993425726890564 -0.003314357250928879 -0.0034418869763612747 0.0 0.0 0.0 0.0
0.113 0.48972055315971375 0.7768855690956116 -0.003848646767437458 -0.00286896713078022 0.0 0.0 0.0 0.0
0.114 0.5282949209213257 0.7499958872795105 -0.0035817017778754234 -0.0020953817293047905 0.0 0.0 0.0 0.0
0.115 0.5674700736999512 0.7231783270835876 -0.0034587206318974495 -0.0015493771061301231 0.0 0.0 0.0 0.0
0.116 0.6025549173355103 0.6914952993392944 -0.0032837409526109695 -0.0011043231934309006 0.0 0.0 0.0 0.0
0.117 0.6388444900512695 0.6597256064414978 -0.0029962174594402313 -0.0006032148376107216 0.0 0.0 0.0 0.0
0.118 0.6724020838737488 0.6245357394218445 -0.0024639377370476723 -0.00038540642708539963 0.0 0.0 0.0 0.0
0.119 0.7036278247833252 0.5898613929748535 -0.002290056087076664 -0.0003192741423845291 0.0 0.0 0.0 0.0
0.12 0.7336400151252747 0.5506910681724548 -0.0019706543534994125 -3.0419789254665375e-05 0.0 0.0 0.0 0.0
0.121 0.7606526613235474 0.5117977857589722 -0.001565449871122837 8.52532684803009e-06 0.0 0.0 0.0 0.0
0.122 0.7873389720916748 0.4707357883453369 -0.001376335509121418 -0.0004311269149184227 0.0 0.0 0.0 0.0
0.123 0.8076799511909485 0.42903295159339905 -0.0010393215343356133 -0.0003110840916633606 0.0 0.0 0.0 0.0
0.124 0.8288701772689819 0.38721489906311035 -0.0011991867795586586 -0.000721869058907032 0.0 0.0 0.0 0.0
0.125 0.8478377461433411 0.34301477670669556 -0.001182938925921917 -0.0011124704033136368 0.0 0.0 0.0 0.0
0.126 0.8630627393722534 0.2983015477657318 -0.001492018811404705 -0.0012164991348981857 0.0 0.0 0.0 0.0
0.127 0.8761201500892639 0.2520503103733063 -0.0017555998638272285 -0.0011320393532514572 0.0 0.0 0.0 0.0
0.128 0.8874527812004089 0.20714835822582245 -0.0020636171102523804 -0.0010300977155566216 0.0 0.0 0.0 0.0
0.129 0.8963044881820679 0.16171866655349731 -0.0021199416369199753 -0.0009557800367474556 0.0 0.0 0.0 0.0
0.13 0.9053317904472351 0.11399354785680771 -0.0022213468328118324 -0.000670095905661583 0.0 0.0 0.0 0.0
0.131 0.9061819314956665 0.0679483637213707 -0.0024232743307948112 -0.000677870586514473 0.0 0.0 0.0 0.0
0.132 0.9101957678794861 0.020389549434185028 -0.0024352893233299255 -0.0003609387204051018 0.0 0.0 0.0 0.0
0.133 0.907920241355896 -0.026015888899564743 -0.002479385584592819 -0.00027101486921310425 0.0 0.0 0.0 0.0
0.134 0.9054287075996399 -0.06953145563602448 -0.002798735164105892 -3.480538725852966e-05 0.0 0.0 0.0 0.0
0.135 0.8998304605484009 -0.11692623049020767 -0.002852034755051136 0.0002769939601421356 0.0 0.0 0.0 0.0
0.136 0.8930479288101196 -0.1620730757713318 -0.0027666492387652397 0.0007333848625421524 0.0 0.0 0.0 0.0
0.137 0.8826984763145447 -0.20824286341667175 -0.0029463935643434525 0.0008700210601091385 0.0 0.0 0.0 0.0
0.138 0.8703397512435913 -0.2504829168319702 -0.00273272767663002 0.0011609448119997978 0.0 0.0 0.0 0.0
0.139 0.8566203713417053 -0.2928413152694702 -0.0023215999826788902 0.0017058169469237328 0.0 0.0 0.0 0.0
0.14 0.8398115038871765 -0.33510756492614746 -0.002252032049000263 0.0018356619402766228 0.0 0.0 0.0 0.0
0.141 0.8250672817230225 -0.3768896162509918 -0.0020069507881999016 0.001977921463549137 0.0 0.0 0.0 0.0
0.142 0.801729142665863 -0.4170383810997009 -0.0015694592148065567 0.002058243378996849 0.0 0.0 0.0 0.0
0.143 0.7791526317596436 -0.45502325892448425 -0.0014871824532747269 0.002149336040019989 0.0 0.0 0.0 0.0
0.144 0.7556488513946533 -0.4920545518398285 -0.001296517439186573 0.0022682854905724525 0.0 0.0 0.0 0.0
0.145 0.7302152514457703 -0.5280944108963013 -0.0009393151849508286 0.0023030079901218414 0.0 0.0 0.0 0.0
0.146 0.7053206562995911 -0.563959002494812 -0.0007632244378328323 0.0021215127781033516 0.0 0.0 0.0 0.0
0.147 0.678848147392273 -0.5990063548088074 -0.0005956981331110001 0.0021309228613972664 0.0 0.0 0.0 0.0
0.148 0.6462357640266418 -0.6267420053482056 -0.00034521520137786865 0.002015276812016964 0.0 0.0 0.0 0.0
0.149 0.6187967658042908 -0.6600181460380554 -0.00022078212350606918 0.002026147209107876 0.0 0.0 0.0 0.0
0.15 0.5837801098823547 -0.6876550316810608 -0.0002043507993221283 0.0019875476136803627 0.0 0.0 0.0 0.0
0.151 0.5507045388221741 -0.7136246562004089 -0.0001303078606724739 0.0018734075129032135 0.0 0.0 0.0 0.0
0.152 0.5157639980316162 -0.7395532131195068 -7.152650505304337e-05 0.0018889186903834343 0.0 0.0 0.0 0.0
0.153 0.48223504424095154 -0.7606211304664612 0.00023711007088422775 0.001954934559762478 0.0 0.0 0.0 0.0
0.154 0.44556522369384766 -0.7837769389152527 0.000658813863992691 0.0016633057966828346 0.0 0.0 0.0 0.0
0.155 0.4094952344894409 -0.8045703172683716 0.0005994774401187897 0.0016771992668509483 0.0 0.0 0.0 0.0
0.156 0.372609943151474 -0.8222628235816956 0.0007671881467103958 0.001596301794052124 0.0 0.0 0.0 0.0
0.157 0.335052490234375 -0.8377268314361572 0.0006128009408712387 0.0015078848227858543 0.0 0.0 0.0 0.0
0.158 0.29556459188461304 -0.8539036512374878 0.0009542582556605339 0.0013380413874983788 0.0 0.0 0.0 0.0
0.159 0.2566233277320862 -0.8639562129974365 0.0007396386936306953 0.0014808736741542816 0.0 0.0 0.0 0.0
0.16 0.21783946454524994 -0.8766689300537109 0.0008994750678539276 0.0010477835312485695 0.0 0.0 0.0 0.0
0.161 0.17932215332984924 -0.8844065070152283 0.0013440381735563278 0.0010799337178468704 0.0 0.0 0.0 0.0
0.162 0.13842105865478516 -0.8939441442489624 0.0005810633301734924 0.0009598974138498306 0.0 0.0 0.0 0.0
0.163 0.09944955259561539 -0.8975780010223389 0.0012229420244693756 0.0009794384241104126 0.0 0.0 0.0 0.0
0.164 0.05712775141000748 -0.9004217386245728 0.001134234480559826 0.0009822100400924683 0.0 0.0 0.0 0.0
0.165 0.017706677317619324 -0.9037421941757202 0.0010391399264335632 0.0007594255730509758 0.0 0.0 0.0 0.0
0.166 -0.02184944599866867 -0.9068657159805298 0.0011980170384049416 0.0005108769983053207 0.0 0.0 0.0 0.0
0.167 -0.060037627816200256 -0.9024052023887634 0.0010804357007145882 0.0004421379417181015 0.0 0.0 0.0 0.0
0.168 -0.10137327015399933 -0.9026083946228027 0.0011088307946920395 0.00024935975670814514 0.0 0.0 0.0 0.0
0.169 -0.13910751044750214 -0.8923997282981873 0.0010456042364239693 0.0002211080864071846 0.0 0.0 0.0 0.0
0.17 -0.17745405435562134 -0.8910563588142395 0.0009020045399665833 0.00020701345056295395 0.0 0.0 0.0 0.0
0.171 -0.2172268033027649 -0.8816571235656738 0.0008168648928403854 0.0001286705955862999 0.0 0.0 0.0 0.0
0.172 -0.25322017073631287 -0.8714667558670044 0.0008553247898817062 0.00013588834553956985 0.0 0.0 0.0 0.0
0.173 -0.29254311323165894 -0.8614206314086914 0.0008362419903278351 0.00022850465029478073 0.0 0.0 0.0 0.0
0.174 -0.3293137848377228 -0.8502476811408997 0.0009153503924608231 0.0001527676358819008 0.0 0.0 0.0 0.0
0.175 -0.365490198135376 -0.8343073725700378 0.0010502301156520844 3.191176801919937e-05 0.0 0.0 0.0 0.0
0.176 -0.40012305974960327 -0.817214846611023 0.0007535265758633614 0.00033261068165302277 0.0 0.0 0.0 0.0
0.177 -0.4372235834598541 -0.7993174195289612 0.0008082762360572815 -0.00012223795056343079 0.0 0.0 0.0 0.0
0.178 -0.4685761630535126 -0.7818410992622375 0.0007689623162150383 0.00016594771295785904 0.0 0.0 0.0 0.0
0.179 -0.5017937421798706 -0.7612963914871216 0.0005760909989476204 0.00019239354878664017 0.0 0.0 0.0 0.0
0.18 -0.5340175032615662 -0.7406718134880066 0.0007032183930277824 0.00012820865958929062 0.0 0.0 0.0 0.0
0.181 -0.5671549439430237 -0.7151427268981934 0.0006047366186976433 -0.00012314599007368088 0.0 0.0 0.0 0.0
0.182 -0.5972732305526733 -0.6918713450431824 0.000575600191950798 0.00035804975777864456 0.0 0.0 0.0 0.0
0.183 -0.6281771659851074 -0.6694613695144653 0.0007119076326489449 0.00017822161316871643 0.0 0.0 0.0 0.0
0.184 -0.6546222567558289 -0.6408846974372864 0.0007543433457612991 5.709007382392883e-06 0.0 0.0 0.0 0.0
0.185 -0.6847114562988281 -0.6143876314163208 0.0007663927972316742 0.00027653854340314865 0.0 0.0 0.0 0.0
0.186 -0.7102310657501221 -0.5837536454200745 0.0007807090878486633 0.00030217040330171585 0.0 0.0 0.0 0.0
0.187 -0.7357774376869202 -0.5537427067756653 0.00046179816126823425 -0.0001915832981467247 0.0 0.0 0.0 0.0
0.188 -0.7566013336181641 -0.5237968564033508 0.0010429956018924713 5.161948502063751e-05 0.0 0.0 0.0 0.0
