!Created with skrf (http://scikit-rf.org).
# GHz S RI R 50.0 
!freq ReS11 ImS11 ReS21 ImS21 ReS12 ImS12 ReS22 ImS22
0.001 -0.14420121908187866 -0.04999880865216255 0.00018528010696172714 -0.00014528818428516388 0.0 0.0 0.0 0.0
0.002 -0.10175533592700958 0.009527190588414669 4.0978193283081055e-07 -0.00021329987794160843 0.0 0.0 0.0 0.0
0.003 -0.08342719078063965 0.026069117709994316 0.00010463874787092209 -3.869272768497467e-05 0.0 0.0 0.0 0.0
0.004 -0.06999973207712173 0.03467857837677002 5.857087671756744e-06 -1.3617798686027527e-05 0.0 0.0 0.0 0.0
0.005 -0.0609443299472332 0.03861493617296219 -4.484597593545914e-05 -8.158013224601746e-05 0.0 0.0 0.0 0.0
0.006 -0.05251894146203995 0.03981386497616768 -5.0039030611515045e-05 -5.304813385009766e-06 0.0 0.0 0.0 0.0
0.007 -0.04670652002096176 0.04227530211210251 -0.0001395726576447487 -3.358907997608185e-05 0.0 0.0 0.0 0.0
0.008 -0.041876550763845444 0.04246271401643753 6.912369281053543e-05 9.197555482387543e-05 0.0 0.0 0.0 0.0
0.009 -0.03713574633002281 0.04451420530676842 5.9655867516994476e-05 9.599048644304276e-05 0.0 0.0 0.0 0.0
0.01 -0.032389119267463684 0.04428338631987572 0.0002993345260620117 -6.778910756111145e-05 0.0 0.0 0.0 0.0
0.011 -0.029187342151999474 0.04484107717871666 6.374809890985489e-05 8.021946996450424e-05 0.0 0.0 0.0 0.0
0.012 -0.023767167702317238 0.0463639460504055 2.2905878722667694e-05 0.00022522453218698502 0.0 0.0 0.0 0.0
0.013 -0.02094677835702896 0.04739430919289589 -0.00018162187188863754 0.00012372341006994247 0.0 0.0 0.0 0.0
0.014 -0.015953199937939644 0.047599002718925476 1.0341405868530273e-05 0.0001237187534570694 0.0 0.0 0.0 0.0
0.015 -0.011565647087991238 0.046920862048864365 4.761945456266403e-05 -9.271688759326935e-05 0.0 0.0 0.0 0.0
0.016 -0.008405529893934727 0.04714614152908325 0.00010222010314464569 3.6413781344890594e-05 0.0 0.0 0.0 0.0
0.017 -0.0029149260371923447 0.04695029556751251 -3.3816322684288025e-06 0.00012768618762493134 0.0 0.0 0.0 0.0
0.018 0.002296402119100094 0.04667362943291664 3.5711564123630524e-05 2.0881183445453644e-05 0.0 0.0 0.0 0.0
0.019 0.005724548362195492 0.045430589467287064 -2.605002373456955e-05 0.00014781951904296875 0.0 0.0 0.0 0.0
0.02 0.009995725005865097 0.04531284421682358 -5.1137059926986694e-05 4.0862709283828735e-05 0.0 0.0 0.0 0.0
0.021 0.01537637785077095 0.04422539100050926 -0.00015037879347801208 1.911912113428116e-05 0.0 0.0 0.0 0.0
0.022 0.02010926604270935 0.04203372821211815 -0.00018958095461130142 0.0002491297200322151 0.0 0.0 0.0 0.0
0.023 0.02500154823064804 0.04050613194704056 -0.00012027006596326828 0.00048378948122262955 0.0 0.0 0.0 0.0
0.024 0.0283819530159235 0.037721432745456696 -0.00026262179017066956 0.00034644175320863724 0.0 0.0 0.0 0.0
0.025 0.03347201272845268 0.035144370049238205 -0.0003634067252278328 0.0005763852968811989 0.0 0.0 0.0 0.0
0.026 0.03769223019480705 0.03176584467291832 -0.00020706094801425934 0.0007929187268018723 0.0 0.0 0.0 0.0
0.027 0.04138660430908203 0.029174430295825005 -0.00010094232857227325 0.0008248994126915932 0.0 0.0 0.0 0.0
0.028 0.04476895555853844 0.025537211447954178 8.840672671794891e-05 0.0012952303513884544 0.0 0.0 0.0 0.0
0.029 0.0495515801012516 0.02170196734368801 0.0007539177313446999 0.0012439154088497162 0.0 0.0 0.0 0.0
0.03 0.05419665575027466 0.017537318170070648 0.001040223054587841 0.0010595759376883507 0.0 0.0 0.0 0.0
0.031 0.057561833411455154 0.013348985463380814 0.0011430894955992699 0.0008365698158740997 0.0 0.0 0.0 0.0
0.032 0.060044609010219574 0.008033905178308487 0.0013397075235843658 0.0008133165538311005 0.0 0.0 0.0 0.0
0.033 0.06439440697431564 0.0025220755487680435 0.0013736672699451447 0.00025238562375307083 0.0 0.0 0.0 0.0
0.034 0.06650738418102264 -0.0027303798124194145 0.0013184547424316406 0.000112864188849926 0.0 0.0 0.0 0.0
0.035 0.06784633547067642 -0.007940832525491714 0.0014204448089003563 -2.4878419935703278e-05 0.0 0.0 0.0 0.0
0.036 0.07133255153894424 -0.012957951985299587 0.0011981111019849777 -0.00020541250705718994 0.0 0.0 0.0 0.0
0.037 0.07311029732227325 -0.019705502316355705 0.001384533941745758 4.2986124753952026e-05 0.0 0.0 0.0 0.0
0.038 0.07600846886634827 -0.02608809433877468 0.001523338258266449 -0.00017859134823083878 0.0 0.0 0.0 0.0
0.039 0.0762275755405426 -0.03272188454866409 0.0015416257083415985 -0.0004294905811548233 0.0 0.0 0.0 0.0
0.04 0.07583733648061752 -0.03842465206980705 0.0017335833981633186 -0.000720541924238205 0.0 0.0 0.0 0.0
0.041 0.07688665390014648 -0.04604530707001686 0.0016112849116325378 -0.0009807143360376358 0.0 0.0 0.0 0.0
0.042 0.07775640487670898 -0.05217369273304939 0.0016738930717110634 -0.001342305913567543 0.0 0.0 0.0 0.0
0.043 0.0777592584490776 -0.058635443449020386 0.0014225905761122704 -0.001229587011039257 0.0 0.0 0.0 0.0
0.044 0.07696972787380219 -0.06659883260726929 0.0014171618968248367 -0.0015970682725310326 0.0 0.0 0.0 0.0
0.045 0.07523511350154877 -0.07248543947935104 0.0011287936940789223 -0.00213070772588253 0.0 0.0 0.0 0.0
0.046 0.07266929745674133 -0.07973834127187729 0.0008260989561676979 -0.0021126288920640945 0.0 0.0 0.0 0.0
0.047 0.07129611819982529 -0.08701323717832565 0.0007259165868163109 -0.002190317027270794 0.0 0.0 0.0 0.0
0.048 0.07080038636922836 -0.09410569071769714 0.0006278427317738533 -0.0022093839943408966 0.0 0.0 0.0 0.0
0.049 0.0669887438416481 -0.10193522274494171 0.0005108751356601715 -0.0025336313992738724 0.0 0.0 0.0 0.0
0.05 0.06302829831838608 -0.1082979366183281 7.2515569627285e-05 -0.0027795322239398956 0.0 0.0 0.0 0.0
0.051 0.060519639402627945 -0.11423083394765854 -0.0002569854259490967 -0.00260763056576252 0.0 0.0 0.0 0.0
0.052 0.05650486424565315 -0.12181758880615234 -0.000401446595788002 -0.0028397943824529648 0.0 0.0 0.0 0.0
0.053 0.05062007158994675 -0.1295454353094101 -0.000702940858900547 -0.0030992086976766586 0.0 0.0 0.0 0.0
0.054 0.04570251703262329 -0.13476572930812836 -0.001272600144147873 -0.003188229165971279 0.0 0.0 0.0 0.0
0.055 0.04076557606458664 -0.14068536460399628 -0.0017902422696352005 -0.0028950655832886696 0.0 0.0 0.0 0.0
0.056 0.036239009350538254 -0.14602847397327423 -0.002136398106813431 -0.002860862761735916 0.0 0.0 0.0 0.0
0.057 0.029601288959383965 -0.15347200632095337 -0.0025896020233631134 -0.002725152298808098 0.0 0.0 0.0 0.0
0.058 0.021602030843496323 -0.15860897302627563 -0.002983778715133667 -0.0024627437815070152 0.0 0.0 0.0 0.0
0.059 0.015523543581366539 -0.16248440742492676 -0.0034788670018315315 -0.0018294639885425568 0.0 0.0 0.0 0.0
0.06 0.008912621065974236 -0.16771452128887177 -0.0035100411623716354 -0.0014262301847338676 0.0 0.0 0.0 0.0
0.061 0.0019404217600822449 -0.17180775105953217 -0.0039347093552351 -0.0008754199370741844 0.0 0.0 0.0 0.0
0.062 -0.005971824750304222 -0.1756770759820938 -0.003760598599910736 -0.00041695404797792435 0.0 0.0 0.0 0.0
0.063 -0.01476135291159153 -0.18102146685123444 -0.0037181973457336426 -7.285177707672119e-05 0.0 0.0 0.0 0.0
0.064 -0.02227226085960865 -0.18277819454669952 -0.003853105939924717 0.0006385780870914459 0.0 0.0 0.0 0.0
0.065 -0.030914761126041412 -0.18661615252494812 -0.0033209621906280518 0.0009663263335824013 0.0 0.0 0.0 0.0
0.066 -0.040485985577106476 -0.1902763843536377 -0.003605126403272152 0.0009319540113210678 0.0 0.0 0.0 0.0
0.067 -0.05051698908209801 -0.19194509088993073 -0.0036033103242516518 0.0017676744610071182 0.0 0.0 0.0 0.0
0.068 -0.059990935027599335 -0.19183602929115295 -0.0038878973573446274 0.0015659788623452187 0.0 0.0 0.0 0.0
0.069 -0.06947179138660431 -0.1923040747642517 -0.002583637833595276 0.0028791213408112526 0.0 0.0 0.0 0.0
0.07 -0.0773690938949585 -0.19286245107650757 -0.0025997748598456383 0.0027793003246188164 0.0 0.0 0.0 0.0
0.071 -0.08626607060432434 -0.1935632824897766 -0.002767031081020832 0.0025936365127563477 0.0 0.0 0.0 0.0
0.072 -0.09670523554086685 -0.1936723291873932 -0.001696065068244934 0.0031507378444075584 0.0 0.0 0.0 0.0
0.073 -0.10729102045297623 -0.19280442595481873 -0.0011958163231611252 0.0030993958935141563 0.0 0.0 0.0 0.0
0.074 -0.11622845381498337 -0.19091802835464478 -0.00104550551623106 0.002896677702665329 0.0 0.0 0.0 0.0
0.075 -0.12731990218162537 -0.18867354094982147 -0.0013393275439739227 0.0029327059164643288 0.0 0.0 0.0 0.0
0.076 -0.13721972703933716 -0.18474118411540985 -0.001065489836037159 0.0032201120629906654 0.0 0.0 0.0 0.0
0.077 -0.14589793980121613 -0.18085993826389313 -0.0007410924881696701 0.003446199931204319 0.0 0.0 0.0 0.0
0.078 -0.15497873723506927 -0.17879344522953033 -0.00027742423117160797 0.003574526868760586 0.0 0.0 0.0 0.0
0.079 -0.165076345205307 -0.1732226461172104 -5.216151475906372e-05 0.0036113057285547256 0.0 0.0 0.0 0.0
0.08 -0.1732761263847351 -0.1691817343235016 0.0003962237387895584 0.003605966456234455 0.0 0.0 0.0 0.0
0.081 -0.18392787873744965 -0.16529326140880585 0.0007146783173084259 0.003514629788696766 0.0 0.0 0.0 0.0
0.082 -0.19180075824260712 -0.15945765376091003 0.0009630247950553894 0.003553137183189392 0.0 0.0 0.0 0.0
0.083 -0.2014418989419937 -0.15189272165298462 0.0013594385236501694 0.003133237361907959 0.0 0.0 0.0 0.0
0.084 -0.20975331962108612 -0.14364635944366455 0.001667897216975689 0.00322561152279377 0.0 0.0 0.0 0.0
0.085 -0.2159285545349121 -0.13697108626365662 0.0018055420368909836 0.003161035478115082 0.0 0.0 0.0 0.0
0.086 -0.22518520057201385 -0.13076964020729065 0.002333393320441246 0.0030428050085902214 0.0 0.0 0.0 0.0
0.087 -0.23261813819408417 -0.12238629907369614 0.0025998763740062714 0.002818141132593155 0.0 0.0 0.0 0.0
0.088 -0.24009856581687927 -0.11301665753126144 0.0029762452468276024 0.002355179749429226 0.0 0.0 0.0 0.0
0.089 -0.2453579306602478 -0.1034846305847168 0.0029248781502246857 0.0019436832517385483 0.0 0.0 0.0 0.0
0.09 -0.25228801369667053 -0.09495964646339417 0.003423679620027542 0.0017387885600328445 0.0 0.0 0.0 0.0
0.091 -0.2589980363845825 -0.08463500440120697 0.0037630274891853333 0.0012015961110591888 0.0 0.0 0.0 0.0
0.092 -0.26471230387687683 -0.07376998662948608 0.002761632204055786 0.0004903450608253479 0.0 0.0 0.0 0.0
0.093 -0.26907020807266235 -0.060951586812734604 0.003453395329415798 0.0007043518126010895 0.0 0.0 0.0 0.0
0.094 -0.27256304025650024 -0.05020671710371971 0.0033438922837376595 0.0005504554137587547 0.0 0.0 0.0 0.0
0.095 -0.2750772535800934 -0.039207205176353455 0.003492235206067562 8.706655353307724e-05 0.0 0.0 0.0 0.0
0.096 -0.2786078453063965 -0.02662089094519615 0.0036626672372221947 0.0003342125564813614 0.0 0.0 0.0 0.0
0.097 -0.2811419367790222 -0.016985910013318062 0.0032601309940218925 -0.0007281536236405373 0.0 0.0 0.0 0.0
0.098 -0.2844870388507843 -0.004925090819597244 0.0034332964569330215 -0.0005732513964176178 0.0 0.0 0.0 0.0
0.099 -0.2864120900630951 0.008530105464160442 0.0034451717510819435 -0.0009344536811113358 0.0 0.0 0.0 0.0
0.1 -0.29023241996765137 0.028154999017715454 0.003382861614227295 -0.0014584846794605255 0.0 0.0 0.0 0.0
0.101 -0.2753584086894989 0.036336787045001984 0.0031352443620562553 -0.001559065654873848 0.0 0.0 0.0 0.0
0.102 -0.2754548192024231 0.050454266369342804 0.0030988063663244247 -0.0018763523548841476 0.0 0.0 0.0 0.0
0.103 -0.27481770515441895 0.06193076819181442 0.002777569927275181 -0.0022908737882971764 0.0 0.0 0.0 0.0
0.104 -0.2716428339481354 0.0741332396864891 0.0027406001463532448 -0.0023461123928427696 0.0 0.0 0.0 0.0
0.105 -0.26998355984687805 0.08578179031610489 0.0025843633338809013 -0.0030029769986867905 0.0 0.0 0.0 0.0
0.106 -0.26557686924934387 0.09802886098623276 0.002217755652964115 -0.0031793080270290375 0.0 0.0 0.0 0.0
0.107 -0.26183804869651794 0.11091656237840652 0.0018000304698944092 -0.003334183245897293 0.0 0.0 0.0 0.0
0.108 -0.25792935490608215 0.12234422564506531 0.0012542344629764557 -0.0035891756415367126 0.0 0.0 0.0 0.0
0.109 -0.2532082796096802 0.13488838076591492 0.0005890326574444771 -0.0035640113055706024 0.0 0.0 0.0 0.0
0.11 -0.24769599735736847 0.14633917808532715 0.0003711394965648651 -0.003723551519215107 0.0 0.0 0.0 0.0
0.111 -0.24026861786842346 0.15803788602352142 -0.0001521063968539238 -0.003351445309817791 0.0 0.0 0.0 0.0
0.112 -0.23393039405345917 0.16969509422779083 -0.0005567213520407677 -0.0034631723538041115 0.0 0.0 0.0 0.0
0.113 -0.22502174973487854 0.1803329735994339 -0.0009570149704813957 -0.003352208063006401 0.0 0.0 0.0 0.0
0.114 -0.21780706942081451 0.19204063713550568 -0.0012525180354714394 -0.003009994514286518 0.0 0.0 0.0 0.0
0.115 -0.20821955800056458 0.20207467675209045 -0.0016343742609024048 -0.002607785165309906 0.0 0.0 0.0 0.0
0.116 -0.19802819192409515 0.21250823140144348 -0.0017884261906147003 -0.00222965981811285 0.0 0.0 0.0 0.0
0.117 -0.18808132410049438 0.2214122712612152 -0.0018434477970004082 -0.001997380517423153 0.0 0.0 0.0 0.0
0.118 -0.17716002464294434 0.23129771649837494 -0.0019479570910334587 -0.001603422686457634 0.0 0.0 0.0 0.0
0.119 -0.16551780700683594 0.23954786360263824 -0.001881372183561325 -0.0012238873168826103 0.0 0.0 0.0 0.0
0.12 -0.15361838042736053 0.24751126766204834 -0.0018243193626403809 -0.000773387961089611 0.0 0.0 0.0 0.0
0.121 -0.14030519127845764 0.2556358277797699 -0.0015240227803587914 -0.00042565539479255676 0.0 0.0 0.0 0.0
0.122 -0.12805067002773285 0.26262804865837097 -0.001073724590241909 -0.00036425143480300903 0.0 0.0 0.0 0.0
0.123 -0.1141599789261818 0.26932090520858765 -0.0009250007569789886 -0.0005048811435699463 0.0 0.0 0.0 0.0
0.124 -0.09996859729290009 0.275308758020401 -0.000687883235514164 -0.0008327793329954147 0.0 0.0 0.0 0.0
0.125 -0.085357666015625 0.2794261872768402 -0.0005610156804323196 -0.001069171354174614 0.0 0.0 0.0 0.0
0.126 -0.07021946460008621 0.2830883264541626 -0.0006943382322788239 -0.001220420002937317 0.0 0.0 0.0 0.0
0.127 -0.05591914430260658 0.2868650257587433 -0.0009404849261045456 -0.0012797778472304344 0.0 0.0 0.0 0.0
0.128 -0.04059947654604912 0.2899603843688965 -0.001374884508550167 -0.001558549702167511 0.0 0.0 0.0 0.0
0.129 -0.02515101432800293 0.29095783829689026 -0.0012746704742312431 -0.0014002425596117973 0.0 0.0 0.0 0.0
0.13 -0.008906715549528599 0.29214271903038025 -0.0017435476183891296 -0.0011195531114935875 0.0 0.0 0.0 0.0
0.131 0.006481736898422241 0.2924005091190338 -0.0017955563962459564 -0.001131315715610981 0.0 0.0 0.0 0.0
0.132 0.023221254348754883 0.2917217016220093 -0.00191463902592659 -0.0007836213335394859 0.0 0.0 0.0 0.0
0.133 0.03886430338025093 0.2899162769317627 -0.00206203106790781 -0.0007232110947370529 0.0 0.0 0.0 0.0
0.134 0.05371950939297676 0.2876351475715637 -0.002092493698000908 -0.0007565226405858994 0.0 0.0 0.0 0.0
0.135 0.07008423656225204 0.2849530577659607 -0.0022775698453187943 -0.00040485989302396774 0.0 0.0 0.0 0.0
0.136 0.0859423279762268 0.28108254075050354 -0.0025687534362077713 -4.1507184505462646e-05 0.0 0.0 0.0 0.0
0.137 0.10205329209566116 0.27669963240623474 -0.0026550516486167908 -1.2325122952461243e-05 0.0 0.0 0.0 0.0
0.138 0.11768879741430283 0.27129510045051575 -0.0026972508057951927 0.0003894474357366562 0.0 0.0 0.0 0.0
0.139 0.13310201466083527 0.26451560854911804 -0.002436477690935135 0.000655454583466053 0.0 0.0 0.0 0.0
0.14 0.14720271527767181 0.257450133562088 -0.002317517064511776 0.0009897490963339806 0.0 0.0 0.0 0.0
0.141 0.16313134133815765 0.2488662153482437 -0.0020010117441415787 0.0011870628222823143 0.0 0.0 0.0 0.0
0.142 0.17662076652050018 0.23991341888904572 -0.0019668396562337875 0.0013211732730269432 0.0 0.0 0.0 0.0
0.143 0.1912645399570465 0.23122884333133698 -0.0019386662170290947 0.0015030419453978539 0.0 0.0 0.0 0.0
0.144 0.2041681408882141 0.22049644589424133 -0.0017240121960639954 0.001689668744802475 0.0 0.0 0.0 0.0
0.145 0.2179107666015625 0.20967841148376465 -0.0014500422403216362 0.0016524670645594597 0.0 0.0 0.0 0.0
0.146 0.23101599514484406 0.19677554070949554 -0.0010852599516510963 0.0017099035903811455 0.0 0.0 0.0 0.0
0.147 0.24312758445739746 0.18392397463321686 -0.0010126037523150444 0.001789705827832222 0.0 0.0 0.0 0.0
0.148 0.25389963388442993 0.17101366817951202 -0.0010644225403666496 0.00199763011187315 0.0 0.0 0.0 0.0
0.149 0.26598161458969116 0.15736162662506104 -0.0007337713614106178 0.00204385444521904 0.0 0.0 0.0 0.0
0.15 0.2755190432071686 0.14261984825134277 -0.0005502104759216309 0.001969924196600914 0.0 0.0 0.0 0.0
0.151 0.2850706875324249 0.1281653195619583 -0.0006683794781565666 0.0020486246794462204 0.0 0.0 0.0 0.0
0.152 0.29326850175857544 0.11170607060194016 -0.0003047129139304161 0.002077166922390461 0.0 0.0 0.0 0.0
0.153 0.30203038454055786 0.09623118489980698 -5.596969276666641e-05 0.002254592254757881 0.0 0.0 0.0 0.0
0.154 0.30822405219078064 0.07942964136600494 9.150616824626923e-05 0.0019572293385863304 0.0 0.0 0.0 0.0
0.155 0.31458842754364014 0.06282114237546921 0.00014123599976301193 0.0019311243668198586 0.0 0.0 0.0 0.0
0.156 0.32047832012176514 0.04460616409778595 0.0005310159176588058 0.001728307455778122 0.0 0.0 0.0 0.0
0.157 0.3245725631713867 0.02715676836669445 0.0007178774103522301 0.001970057375729084 0.0 0.0 0.0 0.0
0.158 0.32794976234436035 0.009618689306080341 0.0007886579260230064 0.0017829043790698051 0.0 0.0 0.0 0.0
0.159 0.33057641983032227 -0.008679031394422054 0.0007939552888274193 0.001710972748696804 0.0 0.0 0.0 0.0
0.16 0.3337959051132202 -0.027947522699832916 0.0012768683955073357 0.001405937597155571 0.0 0.0 0.0 0.0
0.161 0.3332659900188446 -0.04524681717157364 0.0008112573996186256 0.0012298217043280602 0.0 0.0 0.0 0.0
0.162 0.3347548544406891 -0.06404612213373184 0.0021705934777855873 0.0012442460283637047 0.0 0.0 0.0 0.0
0.163 0.3327203691005707 -0.08177998661994934 0.001599499024450779 0.0011332370340824127 0.0 0.0 0.0 0.0
0.164 0.3308272063732147 -0.10210022330284119 0.0015322919934988022 0.0006480887532234192 0.0 0.0 0.0 0.0
0.165 0.32840093970298767 -0.11885888874530792 0.0017577605322003365 0.0005567129701375961 0.0 0.0 0.0 0.0
0.166 0.32427674531936646 -0.13744401931762695 0.001645626500248909 0.00035729631781578064 0.0 0.0 0.0 0.0
0.167 0.31861525774002075 -0.15641306340694427 0.0015963027253746986 -2.034008502960205e-05 0.0 0.0 0.0 0.0
0.168 0.3148767352104187 -0.17375466227531433 0.001348302699625492 -5.8906152844429016e-05 0.0 0.0 0.0 0.0
0.169 0.307354599237442 -0.1925436407327652 0.0015119556337594986 -0.0004345197230577469 0.0 0.0 0.0 0.0
0.17 0.2998431921005249 -0.21015074849128723 0.0011767521500587463 -0.0005592796951532364 0.0 0.0 0.0 0.0
0.171 0.2918111979961395 -0.22692221403121948 0.0010043168440461159 -0.0005791326984763145 0.0 0.0 0.0 0.0
0.172 0.2837401032447815 -0.2434723824262619 0.000835697166621685 -0.0004919245839118958 0.0 0.0 0.0 0.0
0.173 0.2728831470012665 -0.25962281227111816 0.0006040791049599648 -0.0006732158362865448 0.0 0.0 0.0 0.0
0.174 0.2630065679550171 -0.2758471369743347 0.0005936352536082268 -0.0004095211625099182 0.0 0.0 0.0 0.0
0.175 0.25131767988204956 -0.2899158000946045 0.00032132677733898163 -0.0003401022404432297 0.0 0.0 0.0 0.0
0.176 0.23780694603919983 -0.30458685755729675 0.0002023587003350258 -0.00039504189044237137 0.0 0.0 0.0 0.0
0.177 0.22567252814769745 -0.31913578510284424 5.593523383140564e-05 -0.00016912538558244705 0.0 0.0 0.0 0.0
0.178 0.2121609002351761 -0.3317614495754242 -1.1444091796875e-05 -0.0003135446459054947 0.0 0.0 0.0 0.0
0.179 0.1977096050977707 -0.3452391028404236 6.988644599914551e-05 -0.00022335350513458252 0.0 0.0 0.0 0.0
0.18 0.18188025057315826 -0.35734543204307556 0.00016679707914590836 -0.0002466263249516487 0.0 0.0 0.0 0.0
0.181 0.16672657430171967 -0.3690482974052429 -9.883195161819458e-06 -0.00021482352167367935 0.0 0.0 0.0 0.0
0.182 0.15159696340560913 -0.379086434841156 6.235390901565552e-05 -0.00011956412345170975 0.0 0.0 0.0 0.0
0.183 0.13341806828975677 -0.38902121782302856 5.772523581981659e-05 -7.921084761619568e-05 0.0 0.0 0.0 0.0
0.184 0.11749670654535294 -0.39818432927131653 4.1396357119083405e-05 1.3345852494239807e-05 0.0 0.0 0.0 0.0
0.185 0.09945597499608994 -0.4057462513446808 -0.00012414436787366867 0.00010967440903186798 0.0 0.0 0.0 0.0
