!Created with skrf (http://scikit-rf.org).
# GHz S RI R 50.0 
!freq ReS11 ImS11 ReS21 ImS21 ReS12 ImS12 ReS22 ImS22
0.001 -0.1248321458697319 -0.07196347415447235 1.2198582887649536 -0.23084810376167297 0.0 0.0 0.0 0.0
0.002 -0.07330473512411118 0.010496844537556171 1.0119407176971436 -0.4898444712162018 0.0 0.0 0.0 0.0
0.003 -0.04203932359814644 0.033096298575401306 0.8411474227905273 -0.665820837020874 0.0 0.0 0.0 0.0
0.004 -0.014745199121534824 0.03582346811890602 0.664298951625824 -0.7911200523376465 0.0 0.0 0.0 0.0
0.005 0.005817278288304806 0.026136299595236778 0.4837002754211426 -0.8762789964675903 0.0 0.0 0.0 0.0
0.006 0.01771688461303711 0.010118610225617886 0.30366605520248413 -0.9276034235954285 0.0 0.0 0.0 0.0
0.007 0.021649187430739403 -0.008356940001249313 0.12316154688596725 -0.9489103555679321 0.0 0.0 0.0 0.0
0.008 0.017532357946038246 -0.02599608711898327 -0.051930833607912064 -0.9397733807563782 0.0 0.0 0.0 0.0
0.009 0.00754815898835659 -0.04030126333236694 -0.2211599349975586 -0.9026541113853455 0.0 0.0 0.0 0.0
0.01 -0.006982883438467979 -0.04957693815231323 -0.3790389597415924 -0.8379483222961426 0.0 0.0 0.0 0.0
0.011 -0.02359297312796116 -0.052900299429893494 -0.5212069153785706 -0.747556209564209 0.0 0.0 0.0 0.0
0.012 -0.04009987413883209 -0.0498078316450119 -0.6453238725662231 -0.6351086497306824 0.0 0.0 0.0 0.0
0.013 -0.05408249795436859 -0.04132018983364105 -0.7460139989852905 -0.5017473697662354 0.0 0.0 0.0 0.0
0.014 -0.06394483894109726 -0.028565697371959686 -0.8218745589256287 -0.35359859466552734 0.0 0.0 0.0 0.0
0.015 -0.06853537261486053 -0.013292185962200165 -0.8694553375244141 -0.19497491419315338 0.0 0.0 0.0 0.0
0.016 -0.06727610528469086 0.0020083049312233925 -0.8873350024223328 -0.03056148812174797 0.0 0.0 0.0 0.0
0.017 -0.06060600280761719 0.015400930307805538 -0.8746902346611023 0.13452866673469543 0.0 0.0 0.0 0.0
0.018 -0.049688972532749176 0.025725629180669785 -0.8317099809646606 0.29349175095558167 0.0 0.0 0.0 0.0
0.019 -0.03604200482368469 0.031057877466082573 -0.760526180267334 0.44180479645729065 0.0 0.0 0.0 0.0
0.02 -0.021698640659451485 0.031041888520121574 -0.6634054183959961 0.5746445059776306 0.0 0.0 0.0 0.0
0.021 -0.008556806482374668 0.02585725672543049 -0.5434558987617493 0.686410129070282 0.0 0.0 0.0 0.0
0.022 0.001333463005721569 0.01626341976225376 -0.40454980731010437 0.7741706371307373 0.0 0.0 0.0 0.0
0.023 0.007013670168817043 0.0039720842614769936 -0.2522915005683899 0.8341553807258606 0.0 0.0 0.0 0.0
0.024 0.007589309476315975 -0.009059451520442963 -0.09229204803705215 0.864920437335968 0.0 0.0 0.0 0.0
0.025 0.003605554811656475 -0.021361639723181725 0.07139135897159576 0.8649352788925171 0.0 0.0 0.0 0.0
0.026 -0.004582085646688938 -0.03103076107800007 0.2316458821296692 0.8350022435188293 0.0 0.0 0.0 0.0
0.027 -0.015616160817444324 -0.036930568516254425 0.38349899649620056 0.775580108165741 0.0 0.0 0.0 0.0
0.028 -0.027609126642346382 -0.03811970725655556 0.5208039283752441 0.6887866854667664 0.0 0.0 0.0 0.0
0.029 -0.03898079693317413 -0.03465479612350464 0.6390779614448547 0.577930748462677 0.0 0.0 0.0 0.0
0.03 -0.047864269465208054 -0.027221113443374634 0.7342071533203125 0.44706210494041443 0.0 0.0 0.0 0.0
0.031 -0.053191110491752625 -0.017152784392237663 0.8046061396598816 0.30095022916793823 0.0 0.0 0.0 0.0
0.032 -0.054117362946271896 -0.005866187624633312 0.8451052904129028 0.14477767050266266 0.0 0.0 0.0 0.0
0.033 -0.050534188747406006 0.004619140177965164 0.8557694554328918 -0.01595105044543743 0.0 0.0 0.0 0.0
0.034 -0.04322605952620506 0.013089658692479134 0.8363077640533447 -0.17591167986392975 0.0 0.0 0.0 0.0
0.035 -0.03312858194112778 0.017928320914506912 0.7871152758598328 -0.32899147272109985 0.0 0.0 0.0 0.0
0.036 -0.021853912621736526 0.01862339675426483 0.7102149724960327 -0.47008347511291504 0.0 0.0 0.0 0.0
0.037 -0.010977520607411861 0.014741563238203526 0.6088719964027405 -0.5939844846725464 0.0 0.0 0.0 0.0
0.038 -0.0022353073582053185 0.006916056387126446 0.4859159290790558 -0.6965259909629822 0.0 0.0 0.0 0.0
0.039 0.002872309647500515 -0.004138171672821045 0.34574905037879944 -0.7743656039237976 0.0 0.0 0.0 0.0
0.04 0.0026494264602661133 -0.015315573662519455 0.19501358270645142 -0.8248753547668457 0.0 0.0 0.0 0.0
0.041 -0.0003290921449661255 -0.026423092931509018 0.03642767295241356 -0.8456032276153564 0.0 0.0 0.0 0.0
0.042 -0.007433087565004826 -0.03603368625044823 -0.12241416424512863 -0.836253821849823 0.0 0.0 0.0 0.0
0.043 -0.01759563945233822 -0.042334891855716705 -0.2768702805042267 -0.796983540058136 0.0 0.0 0.0 0.0
0.044 -0.029268914833664894 -0.04451921209692955 -0.42083412408828735 -0.7299991846084595 0.0 0.0 0.0 0.0
0.045 -0.04098382219672203 -0.04244275018572807 -0.5503237247467041 -0.6372115015983582 0.0 0.0 0.0 0.0
0.046 -0.051043540239334106 -0.03635747730731964 -0.6591911315917969 -0.5216150283813477 0.0 0.0 0.0 0.0
0.047 -0.05808384716510773 -0.027110280469059944 -0.7444038391113281 -0.3882291913032532 0.0 0.0 0.0 0.0
0.048 -0.06142197921872139 -0.0161984134465456 -0.8027499914169312 -0.24115526676177979 0.0 0.0 0.0 0.0
0.049 -0.06051995977759361 -0.005150828510522842 -0.8319044709205627 -0.08611036837100983 0.0 0.0 0.0 0.0
0.05 -0.05580955371260643 0.004638263955712318 -0.8325662612915039 0.07085511088371277 0.0 0.0 0.0 0.0
0.051 -0.04787542298436165 0.011888988316059113 -0.8032655715942383 0.225402370095253 0.0 0.0 0.0 0.0
0.052 -0.038173187524080276 0.015414399094879627 -0.7459587454795837 0.3718090057373047 0.0 0.0 0.0 0.0
0.053 -0.028056826442480087 0.015103344805538654 -0.6618332862854004 0.5043097734451294 0.0 0.0 0.0 0.0
0.054 -0.019052080810070038 0.011111777275800705 -0.5550718903541565 0.619255781173706 0.0 0.0 0.0 0.0
0.055 -0.012584968470036983 0.0040077269077301025 -0.42821845412254333 0.7120939493179321 0.0 0.0 0.0 0.0
0.056 -0.009576218202710152 -0.004739264026284218 -0.286388635635376 0.778689444065094 0.0 0.0 0.0 0.0
0.057 -0.010274527594447136 -0.014008005149662495 -0.13486409187316895 0.8175138831138611 0.0 0.0 0.0 0.0
0.058 -0.014398621395230293 -0.022107727825641632 0.020844053477048874 0.8272659182548523 0.0 0.0 0.0 0.0
0.059 -0.021505001932382584 -0.027758469805121422 0.17560480535030365 0.8073632121086121 0.0 0.0 0.0 0.0
0.06 -0.030000172555446625 -0.03005516156554222 0.32313695549964905 0.7591362595558167 0.0 0.0 0.0 0.0
0.061 -0.03894020617008209 -0.02879197522997856 0.4589952826499939 0.6842432618141174 0.0 0.0 0.0 0.0
0.062 -0.04657541215419769 -0.023874493315815926 0.5789545774459839 0.5852454900741577 0.0 0.0 0.0 0.0
0.063 -0.05174381285905838 -0.016134075820446014 0.6768679022789001 0.4659905433654785 0.0 0.0 0.0 0.0
0.064 -0.053515803068876266 -0.0066787730902433395 0.7516555190086365 0.3298810124397278 0.0 0.0 0.0 0.0
0.065 -0.05139398202300072 0.00298443716019392 0.7992597222328186 0.18283647298812866 0.0 0.0 0.0 0.0
0.066 -0.04561483487486839 0.011483979411423206 0.8184393048286438 0.029326021671295166 0.0 0.0 0.0 0.0
0.067 -0.036795634776353836 0.017389371991157532 0.8081215620040894 -0.12420281767845154 0.0 0.0 0.0 0.0
0.068 -0.02592587098479271 0.019893590360879898 0.7698374390602112 -0.2738478481769562 0.0 0.0 0.0 0.0
0.069 -0.014590535312891006 0.018153363838791847 0.7039572596549988 -0.4125921130180359 0.0 0.0 0.0 0.0
0.07 -0.004216102883219719 0.012436963617801666 0.6133113503456116 -0.5366460084915161 0.0 0.0 0.0 0.0
0.071 0.0035649100318551064 0.0032549966126680374 0.50106281042099 -0.6416088342666626 0.0 0.0 0.0 0.0
0.072 0.007871786132454872 -0.008329681120812893 0.37152573466300964 -0.723022997379303 0.0 0.0 0.0 0.0
0.073 0.008297155611217022 -0.020784270018339157 0.22873257100582123 -0.7790639400482178 0.0 0.0 0.0 0.0
0.074 0.004447919316589832 -0.032676149159669876 0.07910806685686111 -0.8071514964103699 0.0 0.0 0.0 0.0
0.075 -0.0030249664559960365 -0.04284932091832161 -0.07321197539567947 -0.8068876266479492 0.0 0.0 0.0 0.0
0.076 -0.013332623988389969 -0.050019536167383194 -0.22316966950893402 -0.7782190442085266 0.0 0.0 0.0 0.0
0.077 -0.025227554142475128 -0.05332411825656891 -0.36453989148139954 -0.7212079167366028 0.0 0.0 0.0 0.0
0.078 -0.037452809512615204 -0.05263455584645271 -0.49256160855293274 -0.6390787363052368 0.0 0.0 0.0 0.0
0.079 -0.04860018193721771 -0.04755672812461853 -0.6023776531219482 -0.5352703332901001 0.0 0.0 0.0 0.0
0.08 -0.056145764887332916 -0.039439767599105835 -0.6915525794029236 -0.4129115641117096 0.0 0.0 0.0 0.0
0.081 -0.06075609475374222 -0.030412860214710236 -0.7561591267585754 -0.2751306891441345 0.0 0.0 0.0 0.0
0.082 -0.0622430294752121 -0.020716555416584015 -0.7938233613967896 -0.12885922193527222 0.0 0.0 0.0 0.0
0.083 -0.06029292568564415 -0.011569848284125328 -0.8030433058738708 0.022502869367599487 0.0 0.0 0.0 0.0
0.084 -0.05563509091734886 -0.004405081272125244 -0.7829699516296387 0.17229321599006653 0.0 0.0 0.0 0.0
0.085 -0.049265217036008835 0.00033936183899641037 -0.7365861535072327 0.3157612681388855 0.0 0.0 0.0 0.0
0.086 -0.04211762547492981 0.0019330624490976334 -0.6634256839752197 0.44743943214416504 0.0 0.0 0.0 0.0
0.087 -0.03573756664991379 0.0007245363667607307 -0.5673319697380066 0.5636534094810486 0.0 0.0 0.0 0.0
0.088 -0.030817165970802307 -0.0027909008786082268 -0.45142972469329834 0.6592459082603455 0.0 0.0 0.0 0.0
0.089 -0.028107386082410812 -0.007582350634038448 -0.31930437684059143 0.7316105365753174 0.0 0.0 0.0 0.0
0.09 -0.028299806639552116 -0.012641039676964283 -0.1763152927160263 0.7776516675949097 0.0 0.0 0.0 0.0
0.091 -0.030628332868218422 -0.016806919127702713 -0.028129108250141144 0.7959967851638794 0.0 0.0 0.0 0.0
0.092 -0.03480827435851097 -0.01938946731388569 0.12172240018844604 0.7860966324806213 0.0 0.0 0.0 0.0
0.093 -0.039961230009794235 -0.019565772265195847 0.26698699593544006 0.7482388019561768 0.0 0.0 0.0 0.0
0.094 -0.04487612470984459 -0.017185011878609657 0.4019284248352051 0.6842382550239563 0.0 0.0 0.0 0.0
0.095 -0.04844823479652405 -0.012432035990059376 0.5229121446609497 0.5960142016410828 0.0 0.0 0.0 0.0
0.096 -0.049862395972013474 -0.005967165343463421 0.6245773434638977 0.4868871569633484 0.0 0.0 0.0 0.0
0.097 -0.048422809690237045 0.0010463399812579155 0.7041275501251221 0.36059534549713135 0.0 0.0 0.0 0.0
0.098 -0.04435846209526062 0.007738754153251648 0.7585932016372681 0.2220875471830368 0.0 0.0 0.0 0.0
0.099 -0.03746296837925911 0.012637240812182426 0.7855006456375122 0.07563381642103195 0.0 0.0 0.0 0.0
0.1 -0.02852952852845192 0.01589135266840458 0.7886278629302979 -0.09137339144945145 0.0 0.0 0.0 0.0
0.101 -0.018249817192554474 0.01468689925968647 0.730444073677063 -0.225711390376091 0.0 0.0 0.0 0.0
0.102 -0.009198459796607494 0.010526471771299839 0.6743500828742981 -0.3581601679325104 0.0 0.0 0.0 0.0
0.103 -0.0016781706362962723 0.0034783706068992615 0.5948116779327393 -0.47789934277534485 0.0 0.0 0.0 0.0
0.104 0.0031154919415712357 -0.006117183715105057 0.4944678544998169 -0.5803083777427673 0.0 0.0 0.0 0.0
0.105 0.004837946966290474 -0.016826150938868523 0.37660321593284607 -0.6623885631561279 0.0 0.0 0.0 0.0
0.106 0.0031841984018683434 -0.02799513004720211 0.2453760802745819 -0.7200806140899658 0.0 0.0 0.0 0.0
0.107 -0.0019642533734440804 -0.03803519532084465 0.10546199977397919 -0.7525890469551086 0.0 0.0 0.0 0.0
0.108 -0.009973659180104733 -0.04583720490336418 -0.036549560725688934 -0.7581464052200317 0.0 0.0 0.0 0.0
0.109 -0.0197102390229702 -0.05069213733077049 -0.1778111308813095 -0.7370009422302246 0.0 0.0 0.0 0.0
0.11 -0.03033331222832203 -0.052193403244018555 -0.31201818585395813 -0.689649224281311 0.0 0.0 0.0 0.0
0.111 -0.04052785411477089 -0.05064355581998825 -0.4354439377784729 -0.6185138821601868 0.0 0.0 0.0 0.0
0.112 -0.04919957369565964 -0.04588141292333603 -0.5425574779510498 -0.5256138443946838 0.0 0.0 0.0 0.0
0.113 -0.05536279082298279 -0.0393015518784523 -0.6306964159011841 -0.41476643085479736 0.0 0.0 0.0 0.0
0.114 -0.059113290160894394 -0.03148781508207321 -0.6964651942253113 -0.2890971601009369 0.0 0.0 0.0 0.0
0.115 -0.05973481014370918 -0.023895297199487686 -0.7378045916557312 -0.1540176272392273 0.0 0.0 0.0 0.0
0.116 -0.05813228338956833 -0.01734931766986847 -0.7528619170188904 -0.01319615263491869 0.0 0.0 0.0 0.0
0.117 -0.054738789796829224 -0.012439643032848835 -0.7413327693939209 0.1278848797082901 0.0 0.0 0.0 0.0
0.118 -0.05039624124765396 -0.00991211086511612 -0.704120934009552 0.26435843110084534 0.0 0.0 0.0 0.0
0.119 -0.04628917947411537 -0.009405498392879963 -0.6414693593978882 0.3909040093421936 0.0 0.0 0.0 0.0
0.12 -0.04305491968989372 -0.010942598804831505 -0.5566820502281189 0.5040284395217896 0.0 0.0 0.0 0.0
0.121 -0.041551049798727036 -0.013759026303887367 -0.45224884152412415 0.598343551158905 0.0 0.0 0.0 0.0
0.122 -0.04239843785762787 -0.016956210136413574 -0.33186033368110657 0.6719641089439392 0.0 0.0 0.0 0.0
0.123 -0.045391328632831573 -0.01932602934539318 -0.20000076293945312 0.722047746181488 0.0 0.0 0.0 0.0
0.124 -0.049887921661138535 -0.020121945068240166 -0.06121871992945671 0.7456061244010925 0.0 0.0 0.0 0.0
0.125 -0.05503106862306595 -0.01855631358921528 0.07950448989868164 0.7433972954750061 0.0 0.0 0.0 0.0
0.126 -0.0600014366209507 -0.014448694884777069 0.21637602150440216 0.7147065997123718 0.0 0.0 0.0 0.0
0.127 -0.06378950923681259 -0.00796161126345396 0.34608525037765503 0.660740077495575 0.0 0.0 0.0 0.0
0.128 -0.0652688592672348 0.00023552775382995605 0.46348387002944946 0.5841474533081055 0.0 0.0 0.0 0.0
0.129 -0.06393255293369293 0.009408123791217804 0.5638560056686401 0.4872024357318878 0.0 0.0 0.0 0.0
0.13 -0.05927342176437378 0.018676498904824257 0.6444385051727295 0.3725988566875458 0.0 0.0 0.0 0.0
0.131 -0.05153802037239075 0.026404837146401405 0.7025676965713501 0.24556435644626617 0.0 0.0 0.0 0.0
0.132 -0.041197363287210464 0.03174195811152458 0.7357945442199707 0.10993152856826782 0.0 0.0 0.0 0.0
0.133 -0.028850600123405457 0.033801689743995667 0.7429227232933044 -0.02985408715903759 0.0 0.0 0.0 0.0
0.134 -0.016214950010180473 0.03210730105638504 0.7237712144851685 -0.1681346744298935 0.0 0.0 0.0 0.0
0.135 -0.004194905981421471 0.026231205090880394 0.6789050698280334 -0.3006740212440491 0.0 0.0 0.0 0.0
0.136 0.005615634843707085 0.016936685889959335 0.6106109023094177 -0.4224250912666321 0.0 0.0 0.0 0.0
0.137 0.0122899878770113 0.005045591853559017 0.5199896097183228 -0.5287590026855469 0.0 0.0 0.0 0.0
0.138 0.01494439598172903 -0.00828317180275917 0.4115430414676666 -0.6164822578430176 0.0 0.0 0.0 0.0
0.139 0.013530167751014233 -0.02178075723350048 0.2887064814567566 -0.6816716194152832 0.0 0.0 0.0 0.0
0.14 0.008493936620652676 -0.034071993082761765 0.15551069378852844 -0.7230305075645447 0.0 0.0 0.0 0.0
0.141 -4.706159234046936e-05 -0.04404466599225998 0.01709618605673313 -0.7386267185211182 0.0 0.0 0.0 0.0
0.142 -0.01064835861325264 -0.050639715045690536 -0.1204497367143631 -0.727826714515686 0.0 0.0 0.0 0.0
0.143 -0.022442800924181938 -0.053634606301784515 -0.25453969836235046 -0.6916327476501465 0.0 0.0 0.0 0.0
0.144 -0.03384246304631233 -0.05294116958975792 -0.3793180584907532 -0.631346583366394 0.0 0.0 0.0 0.0
0.145 -0.0439218170940876 -0.04903217777609825 -0.48992690443992615 -0.5493670105934143 0.0 0.0 0.0 0.0
0.146 -0.05183694139122963 -0.04252324253320694 -0.5833083391189575 -0.4475513696670532 0.0 0.0 0.0 0.0
0.147 -0.05660894885659218 -0.03469529002904892 -0.6566540002822876 -0.3304477632045746 0.0 0.0 0.0 0.0
0.148 -0.05861614644527435 -0.026565248146653175 -0.7063531875610352 -0.20192286372184753 0.0 0.0 0.0 0.0
0.149 -0.05797837674617767 -0.019029632210731506 -0.7313361167907715 -0.06629712879657745 0.0 0.0 0.0 0.0
0.15 -0.05519488826394081 -0.013029149733483791 -0.7303016185760498 0.0716804787516594 0.0 0.0 0.0 0.0
0.151 -0.05109560117125511 -0.009024874307215214 -0.7037848830223083 0.20687998831272125 0.0 0.0 0.0 0.0
0.152 -0.04674004390835762 -0.007207915186882019 -0.6525601148605347 0.3345792293548584 0.0 0.0 0.0 0.0
0.153 -0.04289548844099045 -0.007302835583686829 -0.5779746770858765 0.4511110782623291 0.0 0.0 0.0 0.0
0.154 -0.04041566327214241 -0.008727237582206726 -0.48321154713630676 0.5504329800605774 0.0 0.0 0.0 0.0
0.155 -0.03941059112548828 -0.010830141603946686 -0.3711506128311157 0.6309045553207397 0.0 0.0 0.0 0.0
0.156 -0.04024939984083176 -0.012891954742372036 -0.24664023518562317 0.6889944672584534 0.0 0.0 0.0 0.0
0.157 -0.042280182242393494 -0.013700754381716251 -0.11327683925628662 0.7220499515533447 0.0 0.0 0.0 0.0
0.158 -0.04528149962425232 -0.01323965284973383 0.024084363132715225 0.7301753163337708 0.0 0.0 0.0 0.0
0.159 -0.04826999455690384 -0.010693928226828575 0.15998291969299316 0.7123453617095947 0.0 0.0 0.0 0.0
0.16 -0.05020808428525925 -0.006524890661239624 0.2904778718948364 0.6690451502799988 0.0 0.0 0.0 0.0
0.161 -0.05069086700677872 -0.0010196976363658905 0.41020506620407104 0.6027296185493469 0.0 0.0 0.0 0.0
0.162 -0.0489373654127121 0.005162387154996395 0.5154172778129578 0.5153036713600159 0.0 0.0 0.0 0.0
0.163 -0.04483991861343384 0.011095031164586544 0.602472722530365 0.40926340222358704 0.0 0.0 0.0 0.0
0.164 -0.03836151584982872 0.015897560864686966 0.6677255034446716 0.28922805190086365 0.0 0.0 0.0 0.0
0.165 -0.029938777908682823 0.018481342121958733 0.7099485993385315 0.15919005870819092 0.0 0.0 0.0 0.0
0.166 -0.020614854991436005 0.018454935401678085 0.7268441319465637 0.022922275587916374 0.0 0.0 0.0 0.0
0.167 -0.01131504587829113 0.015259777195751667 0.7176451086997986 -0.1125275120139122 0.0 0.0 0.0 0.0
0.168 -0.002981766127049923 0.009154116734862328 0.6836341619491577 -0.24500100314617157 0.0 0.0 0.0 0.0
0.169 0.0029004691168665886 0.0006247814744710922 0.6248812079429626 -0.36879783868789673 0.0 0.0 0.0 0.0
0.17 0.006079462356865406 -0.009518688544631004 0.5443848967552185 -0.47891080379486084 0.0 0.0 0.0 0.0
0.171 0.006177201867103577 -0.020379284396767616 0.44472140073776245 -0.5716805458068848 0.0 0.0 0.0 0.0
0.172 0.00305300485342741 -0.03061630204319954 0.32956668734550476 -0.644248366355896 0.0 0.0 0.0 0.0
0.173 -0.003092939965426922 -0.039360739290714264 0.2034805864095688 -0.6942192316055298 0.0 0.0 0.0 0.0
0.174 -0.011426654644310474 -0.04557636380195618 0.06971817463636398 -0.7191868424415588 0.0 0.0 0.0 0.0
0.175 -0.021018534898757935 -0.04879806563258171 -0.06598196178674698 -0.7187467217445374 0.0 0.0 0.0 0.0
0.176 -0.030664246529340744 -0.04881223291158676 -0.1985665112733841 -0.6932227611541748 0.0 0.0 0.0 0.0
0.177 -0.0394105464220047 -0.0457337312400341 -0.3242236375808716 -0.6439010500907898 0.0 0.0 0.0 0.0
0.178 -0.046217914670705795 -0.040480758994817734 -0.4390442967414856 -0.5712220072746277 0.0 0.0 0.0 0.0
0.179 -0.05073898658156395 -0.03360607847571373 -0.5376458764076233 -0.47882965207099915 0.0 0.0 0.0 0.0
0.18 -0.05232393741607666 -0.026153255254030228 -0.6173362731933594 -0.36985063552856445 0.0 0.0 0.0 0.0
0.181 -0.051266297698020935 -0.01937364600598812 -0.6756144762039185 -0.24768781661987305 0.0 0.0 0.0 0.0
0.182 -0.04796785116195679 -0.013861243613064289 -0.7096413373947144 -0.11736162006855011 0.0 0.0 0.0 0.0
0.183 -0.04337020590901375 -0.01060966495424509 -0.7186302542686462 0.017868533730506897 0.0 0.0 0.0 0.0
0.184 -0.03840178623795509 -0.009495201520621777 -0.7024240493774414 0.1518404334783554 0.0 0.0 0.0 0.0
0.185 -0.033881768584251404 -0.010785512626171112 -0.6611310243606567 0.2804783582687378 0.0 0.0 0.0 0.0
0.186 -0.03065197356045246 -0.013780249282717705 -0.5963799953460693 0.39922744035720825 0.0 0.0 0.0 0.0
0.187 -0.029494130983948708 -0.017913056537508965 -0.5107865333557129 0.5033830404281616 0.0 0.0 0.0 0.0
0.188 -0.03034818358719349 -0.02214224264025688 -0.40744447708129883 0.5899239182472229 0.0 0.0 0.0 0.0
0.189 -0.033596742898225784 -0.02536040171980858 -0.28952735662460327 0.6552393436431885 0.0 0.0 0.0 0.0
0.19 -0.03813266381621361 -0.026989294216036797 -0.16192859411239624 0.6972932815551758 0.0 0.0 0.0 0.0
