!Created with skrf (http://scikit-rf.org).
# GHz S RI R 50.0 
!freq ReS11 ImS11 ReS21 ImS21 ReS12 ImS12 ReS22 ImS22
0.001 -0.12505985796451569 -0.060803886502981186 -2.2582709789276123e-05 2.0040199160575867e-05 0.0 0.0 0.0 0.0
0.002 -0.08691240847110748 0.004373388364911079 8.35023820400238e-06 -8.497387170791626e-06 0.0 0.0 0.0 0.0
0.003 -0.0666283443570137 0.02652583085000515 -6.532296538352966e-06 2.803374081850052e-05 0.0 0.0 0.0 0.0
0.004 -0.04916265606880188 0.035668160766363144 -3.8798898458480835e-06 -1.2200325727462769e-06 0.0 0.0 0.0 0.0
0.005 -0.03479050472378731 0.03802141919732094 -1.4182180166244507e-05 2.6040710508823395e-05 0.0 0.0 0.0 0.0
0.006 -0.023046445101499557 0.036939285695552826 1.5033408999443054e-05 -9.269453585147858e-06 0.0 0.0 0.0 0.0
0.007 -0.013361572287976742 0.03360220789909363 7.75698572397232e-06 -6.304122507572174e-06 0.0 0.0 0.0 0.0
0.008 -0.005794838070869446 0.028719890862703323 -2.8870999813079834e-07 -5.395151674747467e-06 0.0 0.0 0.0 0.0
0.009 0.0002339361235499382 0.023252643644809723 -8.20215791463852e-06 -7.152557373046875e-07 0.0 0.0 0.0 0.0
0.01 0.004768808372318745 0.01698952540755272 1.4170072972774506e-05 -8.578412234783173e-06 0.0 0.0 0.0 0.0
0.011 0.007827544584870338 0.0104203587397933 -1.2313947081565857e-05 -2.8386712074279785e-06 0.0 0.0 0.0 0.0
0.012 0.009431008249521255 0.003629830665886402 -4.135072231292725e-06 -2.7474015951156616e-06 0.0 0.0 0.0 0.0
0.013 0.010056753642857075 -0.002934074029326439 2.01445072889328e-06 5.475245416164398e-06 0.0 0.0 0.0 0.0
0.014 0.009557428769767284 -0.009387386962771416 -2.5511719286441803e-05 -1.062639057636261e-05 0.0 0.0 0.0 0.0
0.015 0.007842184975743294 -0.015729408711194992 -1.7142854630947113e-05 -7.892027497291565e-06 0.0 0.0 0.0 0.0
0.016 0.005343014374375343 -0.021291516721248627 1.709815114736557e-05 -2.6552006602287292e-06 0.0 0.0 0.0 0.0
0.017 0.001915103755891323 -0.02647208981215954 -1.0792165994644165e-05 5.636364221572876e-06 0.0 0.0 0.0 0.0
0.018 -0.0022929012775421143 -0.030850235372781754 -9.24617052078247e-06 3.889203071594238e-06 0.0 0.0 0.0 0.0
0.019 -0.0071633076295256615 -0.034393902868032455 -1.1283904314041138e-05 -3.402959555387497e-05 0.0 0.0 0.0 0.0
0.02 -0.012315677478909492 -0.03700483217835426 -2.1455809473991394e-05 -1.2324191629886627e-05 0.0 0.0 0.0 0.0
0.021 -0.017978984862565994 -0.03861416503787041 -1.5032477676868439e-05 6.207264959812164e-06 0.0 0.0 0.0 0.0
0.022 -0.023668956011533737 -0.03928053006529808 -2.647843211889267e-05 1.9581057131290436e-05 0.0 0.0 0.0 0.0
0.023 -0.02939138375222683 -0.0388430617749691 1.6130506992340088e-06 8.707866072654724e-06 0.0 0.0 0.0 0.0
0.024 -0.034840211272239685 -0.0375467948615551 -8.42846930027008e-06 4.634726792573929e-05 0.0 0.0 0.0 0.0
0.025 -0.03985077142715454 -0.03530573844909668 6.876140832901001e-05 0.00014762300997972488 0.0 0.0 0.0 0.0
0.026 -0.04426733776926994 -0.03208661451935768 0.0001161312684416771 -7.54576176404953e-05 0.0 0.0 0.0 0.0
0.027 -0.04785291478037834 -0.02816266007721424 3.0351802706718445e-05 -8.052773773670197e-05 0.0 0.0 0.0 0.0
0.028 -0.05067693069577217 -0.023884331807494164 2.210121601819992e-05 -5.6090764701366425e-05 0.0 0.0 0.0 0.0
0.029 -0.052639998495578766 -0.01923298090696335 -4.684552550315857e-07 -7.786322385072708e-05 0.0 0.0 0.0 0.0
0.03 -0.05374707654118538 -0.014360349625349045 -4.6543776988983154e-05 -7.983297109603882e-05 0.0 0.0 0.0 0.0
0.031 -0.05390606075525284 -0.00944302137941122 -1.6820617020130157e-05 2.7896836400032043e-05 0.0 0.0 0.0 0.0
0.032 -0.05302422121167183 -0.0046553462743759155 -6.373971700668335e-06 -1.447182148694992e-05 0.0 0.0 0.0 0.0
0.033 -0.051212139427661896 -0.0001262938603758812 -2.042856067419052e-05 -2.3616477847099304e-05 0.0 0.0 0.0 0.0
0.034 -0.04879870265722275 0.0038976874202489853 -1.2760981917381287e-05 -1.3916753232479095e-05 0.0 0.0 0.0 0.0
0.035 -0.0454685278236866 0.007299342192709446 1.7282553017139435e-05 -1.8309801816940308e-05 0.0 0.0 0.0 0.0
0.036 -0.041610974818468094 0.009955791756510735 1.2210570275783539e-05 -1.4454126358032227e-06 0.0 0.0 0.0 0.0
0.037 -0.03743159398436546 0.011787920258939266 1.2303702533245087e-05 -2.3536384105682373e-05 0.0 0.0 0.0 0.0
0.038 -0.03294981271028519 0.012824737466871738 -1.3718381524085999e-06 -4.220753908157349e-06 0.0 0.0 0.0 0.0
0.039 -0.028388889506459236 0.012885108590126038 -5.823560059070587e-06 -6.930902600288391e-06 0.0 0.0 0.0 0.0
0.04 -0.023905547335743904 0.012118286453187466 -3.4263357520103455e-06 -5.484558641910553e-06 0.0 0.0 0.0 0.0
0.041 -0.019618956372141838 0.010349159128963947 -1.522805541753769e-05 3.6284327507019043e-06 0.0 0.0 0.0 0.0
0.042 -0.015836000442504883 0.007991847582161427 1.7052516341209412e-06 -1.344829797744751e-06 0.0 0.0 0.0 0.0
0.043 -0.012605587020516396 0.0047674113884568214 -6.536021828651428e-06 9.206123650074005e-06 0.0 0.0 0.0 0.0
0.044 -0.010102528147399426 0.0011938754469156265 -1.062639057636261e-06 5.7248398661613464e-06 0.0 0.0 0.0 0.0
0.045 -0.008272058330476284 -0.00291293952614069 -2.185814082622528e-06 1.3863667845726013e-05 0.0 0.0 0.0 0.0
0.046 -0.007281568832695484 -0.007407419383525848 4.106201231479645e-06 2.9865652322769165e-05 0.0 0.0 0.0 0.0
0.047 -0.0072009507566690445 -0.011858516372740269 -3.725290298461914e-07 2.017989754676819e-05 0.0 0.0 0.0 0.0
0.048 -0.0078004589304327965 -0.01627497933804989 4.049390554428101e-06 3.2553449273109436e-05 0.0 0.0 0.0 0.0
0.049 -0.009328024461865425 -0.02067713625729084 -1.3745389878749847e-05 4.464294761419296e-05 0.0 0.0 0.0 0.0
0.05 -0.011519921943545341 -0.024418696761131287 3.265123814344406e-05 2.1943822503089905e-05 0.0 0.0 0.0 0.0
0.051 -0.014404214918613434 -0.027914132922887802 5.254056304693222e-05 -1.383945345878601e-05 0.0 0.0 0.0 0.0
0.052 -0.017984867095947266 -0.030680246651172638 -5.161389708518982e-06 -9.80030745267868e-06 0.0 0.0 0.0 0.0
0.053 -0.021864457055926323 -0.0327424481511116 -3.416091203689575e-06 8.262693881988525e-06 0.0 0.0 0.0 0.0
0.054 -0.0262261014431715 -0.03393598273396492 -1.8601305782794952e-05 -1.5079043805599213e-05 0.0 0.0 0.0 0.0
0.055 -0.0304831862449646 -0.03435481712222099 8.463859558105469e-06 5.794689059257507e-06 0.0 0.0 0.0 0.0
0.056 -0.03471792861819267 -0.034001000225543976 -6.629154086112976e-06 1.665763556957245e-05 0.0 0.0 0.0 0.0
0.057 -0.03883904963731766 -0.03278364613652229 -9.789131581783295e-06 5.695037543773651e-06 0.0 0.0 0.0 0.0
0.058 -0.04262775182723999 -0.030788004398345947 1.2262724339962006e-05 3.4132972359657288e-06 0.0 0.0 0.0 0.0
0.059 -0.04590073227882385 -0.028156692162156105 1.2009404599666595e-05 2.47173011302948e-06 0.0 0.0 0.0 0.0
0.06 -0.04852139949798584 -0.024982420727610588 8.475035429000854e-08 -5.904585123062134e-07 0.0 0.0 0.0 0.0
0.061 -0.05052528530359268 -0.021492499858140945 -5.362555384635925e-06 1.6537494957447052e-05 0.0 0.0 0.0 0.0
0.062 -0.051725100725889206 -0.017543800175189972 -1.30385160446167e-08 -1.6393139958381653e-05 0.0 0.0 0.0 0.0
0.063 -0.05219259858131409 -0.01341938879340887 7.195398211479187e-06 7.955357432365417e-06 0.0 0.0 0.0 0.0
0.064 -0.05186079442501068 -0.00954839400947094 -2.3227185010910034e-06 9.843148291110992e-06 0.0 0.0 0.0 0.0
0.065 -0.0507800430059433 -0.005717754364013672 1.2711621820926666e-05 4.167668521404266e-06 0.0 0.0 0.0 0.0
0.066 -0.048893000930547714 -0.0021415967494249344 1.7601996660232544e-06 1.507345587015152e-05 0.0 0.0 0.0 0.0
0.067 -0.04623335227370262 0.0009056944400072098 -1.9787810742855072e-05 -1.4450401067733765e-05 0.0 0.0 0.0 0.0
0.068 -0.0431976281106472 0.0034212227910757065 4.4442713260650635e-06 -1.4298595488071442e-05 0.0 0.0 0.0 0.0
0.069 -0.039672013372182846 0.005142463371157646 -2.0507723093032837e-05 -1.4661811292171478e-05 0.0 0.0 0.0 0.0
0.07 -0.035991717129945755 0.006276411935687065 1.387670636177063e-07 -8.546747267246246e-06 0.0 0.0 0.0 0.0
0.071 -0.031941186636686325 0.006690524518489838 2.9428862035274506e-05 -1.0076910257339478e-06 0.0 0.0 0.0 0.0
0.072 -0.028006913140416145 0.006111759692430496 5.191192030906677e-06 -3.279745578765869e-05 0.0 0.0 0.0 0.0
0.073 -0.024335278198122978 0.00499845203012228 9.365379810333252e-06 -3.569759428501129e-06 0.0 0.0 0.0 0.0
0.074 -0.020929502323269844 0.0029774410650134087 2.824142575263977e-05 -2.930406481027603e-05 0.0 0.0 0.0 0.0
0.075 -0.017872916534543037 0.00046607106924057007 3.211386501789093e-05 -3.344845026731491e-05 0.0 0.0 0.0 0.0
0.076 -0.015499471686780453 -0.002772766165435314 -5.957670509815216e-06 -2.7913600206375122e-05 0.0 0.0 0.0 0.0
0.077 -0.013696118257939816 -0.006334260106086731 -8.66968184709549e-06 -3.7884339690208435e-05 0.0 0.0 0.0 0.0
0.078 -0.012635486200451851 -0.01029935758560896 -1.2921169400215149e-05 -1.5849247574806213e-05 0.0 0.0 0.0 0.0
0.079 -0.012236017733812332 -0.01449606753885746 -1.3067387044429779e-05 -3.781355917453766e-05 0.0 0.0 0.0 0.0
0.08 -0.012766175903379917 -0.01852485164999962 -4.4852495193481445e-05 -2.4777837097644806e-05 0.0 0.0 0.0 0.0
0.081 -0.01397168543189764 -0.022460313513875008 -3.8147903978824615e-05 -4.649721086025238e-05 0.0 0.0 0.0 0.0
0.082 -0.01579342782497406 -0.026035839691758156 -6.119534373283386e-05 -1.1751428246498108e-05 0.0 0.0 0.0 0.0
0.083 -0.01837221346795559 -0.029270173981785774 -6.889179348945618e-05 -1.4833174645900726e-05 0.0 0.0 0.0 0.0
0.084 -0.021578948944807053 -0.03199620917439461 -8.277967572212219e-05 3.782752901315689e-05 0.0 0.0 0.0 0.0
0.085 -0.025198636576533318 -0.03397839143872261 -7.828883826732635e-05 3.376137465238571e-05 0.0 0.0 0.0 0.0
0.086 -0.02909153327345848 -0.03508971258997917 -7.565785199403763e-05 6.360094994306564e-05 0.0 0.0 0.0 0.0
0.087 -0.03277627378702164 -0.03547688201069832 -5.467701703310013e-05 6.574392318725586e-05 0.0 0.0 0.0 0.0
0.088 -0.03667914494872093 -0.0352834053337574 -5.6306831538677216e-05 6.01205974817276e-05 0.0 0.0 0.0 0.0
0.089 -0.040453001856803894 -0.03422849625349045 9.151175618171692e-06 6.576627492904663e-05 0.0 0.0 0.0 0.0
0.09 -0.044036224484443665 -0.032608333975076675 1.1819414794445038e-05 0.000120542012155056 0.0 0.0 0.0 0.0
0.091 -0.0472230389714241 -0.03034473955631256 8.785072714090347e-05 0.00013603921979665756 0.0 0.0 0.0 0.0
0.092 -0.04974063113331795 -0.02733251079916954 0.0001770108938217163 6.417185068130493e-05 0.0 0.0 0.0 0.0
0.093 -0.05160520225763321 -0.02419249713420868 0.00014701206237077713 -3.068801015615463e-05 0.0 0.0 0.0 0.0
0.094 -0.0526541993021965 -0.020636403933167458 9.689107537269592e-05 -8.498039096593857e-05 0.0 0.0 0.0 0.0
0.095 -0.0532720573246479 -0.01699649915099144 1.6852281987667084e-05 -8.49524512887001e-05 0.0 0.0 0.0 0.0
0.096 -0.05287877097725868 -0.013324261642992496 -2.8559938073158264e-05 -7.195957005023956e-05 0.0 0.0 0.0 0.0
0.097 -0.0518043078482151 -0.00979694165289402 -2.0191073417663574e-06 -3.3945776522159576e-05 0.0 0.0 0.0 0.0
0.098 -0.050071995705366135 -0.006633171811699867 -5.877111107110977e-05 -2.037081867456436e-05 0.0 0.0 0.0 0.0
0.099 -0.047764960676431656 -0.0038650501519441605 -6.867945194244385e-05 1.5273690223693848e-05 0.0 0.0 0.0 0.0
0.1 -0.04543343558907509 -0.000806046649813652 -3.840215504169464e-05 4.819035530090332e-05 0.0 0.0 0.0 0.0
0.101 -0.04093638062477112 0.0006375154480338097 2.5435350835323334e-05 7.533561438322067e-05 0.0 0.0 0.0 0.0
0.102 -0.03771626204252243 0.001672043465077877 3.477558493614197e-05 2.053007483482361e-05 0.0 0.0 0.0 0.0
0.103 -0.034484513103961945 0.002219279296696186 7.658824324607849e-05 2.3263506591320038e-05 0.0 0.0 0.0 0.0
0.104 -0.030734717845916748 0.0018308451399207115 3.08426097035408e-05 -1.6221776604652405e-05 0.0 0.0 0.0 0.0
0.105 -0.02737106755375862 0.00056458730250597 3.36281955242157e-05 -4.689209163188934e-06 0.0 0.0 0.0 0.0
0.106 -0.024201774969697 -0.001242934726178646 2.1088868379592896e-05 -1.5226192772388458e-05 0.0 0.0 0.0 0.0
0.107 -0.021400338038802147 -0.003932934254407883 1.2613832950592041e-05 -1.0220333933830261e-05 0.0 0.0 0.0 0.0
0.108 -0.01937083713710308 -0.007054817862808704 1.3482756912708282e-05 -1.0875053703784943e-05 0.0 0.0 0.0 0.0
0.109 -0.01792357675731182 -0.010549020022153854 1.1222437024116516e-05 4.752539098262787e-06 0.0 0.0 0.0 0.0
0.11 -0.01727539300918579 -0.014313221909105778 4.8980116844177246e-05 -2.5449320673942566e-05 0.0 0.0 0.0 0.0
0.111 -0.017276842147111893 -0.018224554136395454 4.8075802624225616e-05 -2.750195562839508e-05 0.0 0.0 0.0 0.0
0.112 -0.01797422766685486 -0.02223428338766098 2.2641383111476898e-05 -5.387607961893082e-05 0.0 0.0 0.0 0.0
0.113 -0.019492674618959427 -0.026071863248944283 1.0259449481964111e-05 -3.5502947866916656e-05 0.0 0.0 0.0 0.0
0.114 -0.021883590146899223 -0.029476864263415337 4.342757165431976e-06 -3.1431205570697784e-05 0.0 0.0 0.0 0.0
0.115 -0.024832086637616158 -0.03239866718649864 2.8354115784168243e-05 -4.980713129043579e-05 0.0 0.0 0.0 0.0
0.116 -0.02828432433307171 -0.034897979348897934 -3.9031729102134705e-06 -6.290804594755173e-05 0.0 0.0 0.0 0.0
0.117 -0.03214032202959061 -0.036673806607723236 -2.5278888642787933e-05 -6.821285933256149e-05 0.0 0.0 0.0 0.0
0.118 -0.03634536266326904 -0.03741954267024994 -4.2226165533065796e-05 -5.404837429523468e-05 0.0 0.0 0.0 0.0
0.119 -0.04067404568195343 -0.03767881914973259 -7.324758917093277e-05 -3.6777928471565247e-05 0.0 0.0 0.0 0.0
0.12 -0.04494789242744446 -0.036878153681755066 -7.580313831567764e-05 -2.6153400540351868e-05 0.0 0.0 0.0 0.0
0.121 -0.049257710576057434 -0.03540649265050888 -6.206892430782318e-05 -1.433398574590683e-05 0.0 0.0 0.0 0.0
0.122 -0.05320106819272041 -0.03319064900279045 -7.395818829536438e-05 -1.4659017324447632e-06 0.0 0.0 0.0 0.0
0.123 -0.0565490797162056 -0.03022192418575287 -8.827913552522659e-05 7.078982889652252e-06 0.0 0.0 0.0 0.0
0.124 -0.05935944616794586 -0.026496954262256622 -7.138773798942566e-05 4.1185878217220306e-05 0.0 0.0 0.0 0.0
0.125 -0.061647992581129074 -0.022521445527672768 -5.302950739860535e-05 5.698204040527344e-05 0.0 0.0 0.0 0.0
0.126 -0.06302481144666672 -0.018013449385762215 -5.171913653612137e-05 5.839299410581589e-05 0.0 0.0 0.0 0.0
0.127 -0.06356266140937805 -0.013321380130946636 -3.096181899309158e-05 5.761999636888504e-05 0.0 0.0 0.0 0.0
0.128 -0.06326385587453842 -0.008668704889714718 -3.672391176223755e-05 6.167590618133545e-05 0.0 0.0 0.0 0.0
0.129 -0.062096234411001205 -0.004099147394299507 -3.556162118911743e-05 5.198176950216293e-05 0.0 0.0 0.0 0.0
0.13 -0.06012047082185745 0.00014654919505119324 -5.4496340453624725e-05 0.00010044313967227936 0.0 0.0 0.0 0.0
0.131 -0.05749313160777092 0.004046420566737652 -2.8965063393115997e-05 0.00013339798897504807 0.0 0.0 0.0 0.0
0.132 -0.0539984405040741 0.007530411705374718 -2.346932888031006e-06 0.00015651807188987732 0.0 0.0 0.0 0.0
0.133 -0.05009343847632408 0.010196758434176445 7.649790495634079e-05 0.00018501095473766327 0.0 0.0 0.0 0.0
0.134 -0.04568493738770485 0.012236797250807285 0.00018725451081991196 0.00015604496002197266 0.0 0.0 0.0 0.0
0.135 -0.040946681052446365 0.013526374474167824 0.0002898396924138069 -2.014078199863434e-05 0.0 0.0 0.0 0.0
0.136 -0.035888299345970154 0.013725645840168 0.00015901215374469757 -0.0001367330551147461 0.0 0.0 0.0 0.0
0.137 -0.03082524612545967 0.013000855222344398 5.582999438047409e-05 -0.00013672001659870148 0.0 0.0 0.0 0.0
0.138 -0.026129217818379402 0.011413351632654667 1.162756234407425e-05 -9.280350059270859e-05 0.0 0.0 0.0 0.0
0.139 -0.021917162463068962 0.00893950741738081 -1.6485340893268585e-05 -9.065680205821991e-05 0.0 0.0 0.0 0.0
0.14 -0.018076177686452866 0.005604507401585579 -3.4146010875701904e-05 -7.459335029125214e-05 0.0 0.0 0.0 0.0
0.141 -0.014997394755482674 0.0018509551882743835 -5.773082375526428e-05 -5.14984130859375e-05 0.0 0.0 0.0 0.0
0.142 -0.012738961726427078 -0.0024561313912272453 -5.131028592586517e-05 -2.3256056010723114e-05 0.0 0.0 0.0 0.0
0.143 -0.011278738267719746 -0.007188895717263222 -6.699096411466599e-05 1.2716278433799744e-05 0.0 0.0 0.0 0.0
0.144 -0.010719616897404194 -0.012122739106416702 -1.7181970179080963e-05 2.6297755539417267e-05 0.0 0.0 0.0 0.0
0.145 -0.011219244450330734 -0.016944531351327896 1.6905367374420166e-05 1.2335367500782013e-05 0.0 0.0 0.0 0.0
0.146 -0.012344760820269585 -0.021771302446722984 2.784375101327896e-05 2.590566873550415e-05 0.0 0.0 0.0 0.0
0.147 -0.014486482366919518 -0.026213742792606354 4.601944237947464e-05 2.7846544981002808e-06 0.0 0.0 0.0 0.0
0.148 -0.017319634556770325 -0.030220279470086098 5.22024929523468e-05 -3.055296838283539e-05 0.0 0.0 0.0 0.0
0.149 -0.0208891611546278 -0.0335388146340847 4.240497946739197e-05 -2.3526139557361603e-05 0.0 0.0 0.0 0.0
0.15 -0.02490796521306038 -0.036139801144599915 4.228856414556503e-05 -4.247017204761505e-05 0.0 0.0 0.0 0.0
0.151 -0.029367147013545036 -0.037976667284965515 1.830141991376877e-05 -4.9554742872714996e-05 0.0 0.0 0.0 0.0
0.152 -0.03405515477061272 -0.03895527496933937 9.669922292232513e-06 -2.3235566914081573e-05 0.0 0.0 0.0 0.0
0.153 -0.03893210366368294 -0.03908216580748558 -1.9935891032218933e-05 -3.820843994617462e-05 0.0 0.0 0.0 0.0
0.154 -0.04356624558568001 -0.03799730911850929 -1.9420869648456573e-05 -3.850087523460388e-05 0.0 0.0 0.0 0.0
0.155 -0.04809403792023659 -0.03638308495283127 -2.053193747997284e-05 -2.9964372515678406e-05 0.0 0.0 0.0 0.0
0.156 -0.05207492783665657 -0.033661291003227234 -5.9291720390319824e-05 -2.8274953365325928e-05 0.0 0.0 0.0 0.0
0.157 -0.05558396503329277 -0.03043065220117569 -4.400499165058136e-05 -2.8699636459350586e-05 0.0 0.0 0.0 0.0
0.158 -0.05846240743994713 -0.026418156921863556 -2.2676773369312286e-05 -1.4007091522216797e-05 0.0 0.0 0.0 0.0
0.159 -0.060468994081020355 -0.022161919623613358 -4.8978254199028015e-05 -1.1564232409000397e-05 0.0 0.0 0.0 0.0
0.16 -0.06171221286058426 -0.017420556396245956 -4.248879849910736e-05 2.8777867555618286e-07 0.0 0.0 0.0 0.0
0.161 -0.061958570033311844 -0.012550685554742813 -3.562774509191513e-05 2.401880919933319e-06 0.0 0.0 0.0 0.0
0.162 -0.061210811138153076 -0.007780238054692745 -3.9665959775447845e-05 1.887790858745575e-05 0.0 0.0 0.0 0.0
0.163 -0.05970831587910652 -0.003213273361325264 -3.84841114282608e-05 -2.076849341392517e-06 0.0 0.0 0.0 0.0
0.164 -0.05739057436585426 0.0010180454701185226 -2.1556392312049866e-05 1.678336411714554e-05 0.0 0.0 0.0 0.0
0.165 -0.05427092686295509 0.0046284496784210205 -2.4784356355667114e-05 5.00483438372612e-05 0.0 0.0 0.0 0.0
0.166 -0.050501804798841476 0.007691166363656521 -1.969747245311737e-05 4.3266452848911285e-05 0.0 0.0 0.0 0.0
0.167 -0.04630519822239876 0.010159404017031193 -8.760951459407806e-06 2.4893321096897125e-05 0.0 0.0 0.0 0.0
0.168 -0.041599664837121964 0.011738444678485394 6.171874701976776e-06 2.5216490030288696e-05 0.0 0.0 0.0 0.0
0.169 -0.036735650151968 0.012366817332804203 2.621673047542572e-05 3.232154995203018e-05 0.0 0.0 0.0 0.0
0.17 -0.03195088356733322 0.012074122205376625 2.1709129214286804e-05 6.059184670448303e-06 0.0 0.0 0.0 0.0
0.171 -0.02721005119383335 0.010931339114904404 -6.025657057762146e-07 2.120155841112137e-05 0.0 0.0 0.0 0.0
0.172 -0.022730110213160515 0.009044965729117393 1.2840144336223602e-05 -3.351829946041107e-06 0.0 0.0 0.0 0.0
0.173 -0.018693266436457634 0.0060509927570819855 -9.922310709953308e-06 2.3506581783294678e-06 0.0 0.0 0.0 0.0
0.174 -0.01536649465560913 0.0025013554841279984 -6.212852895259857e-06 -3.5353004932403564e-06 0.0 0.0 0.0 0.0
0.175 -0.012651963159441948 -0.0012769121676683426 -1.6977079212665558e-05 -4.291534423828125e-06 0.0 0.0 0.0 0.0
0.176 -0.011025846935808659 -0.0058216555044054985 -1.8778257071971893e-05 -2.8840266168117523e-05 0.0 0.0 0.0 0.0
0.177 -0.010003934614360332 -0.010530741885304451 -5.66728413105011e-05 -3.7830322980880737e-06 0.0 0.0 0.0 0.0
0.178 -0.009885521605610847 -0.01514810137450695 -8.956156671047211e-05 2.329796552658081e-05 0.0 0.0 0.0 0.0
0.179 -0.010708914138376713 -0.019832199439406395 -0.00010214932262897491 5.869939923286438e-05 0.0 0.0 0.0 0.0
