!Created with skrf (http://scikit-rf.org).
# GHz S RI R 50.0 
!freq ReS11 ImS11 ReS21 ImS21 ReS12 ImS12 ReS22 ImS22
0.001 -0.11908844858407974 -0.04260719567537308 1.1848584413528442 -0.2777569890022278 0.0 0.0 0.0 0.0
0.002 -0.06911212205886841 0.01986820437014103 0.9702536463737488 -0.5235051512718201 0.0 0.0 0.0 0.0
0.003 -0.037279319018125534 0.03324441984295845 0.7875692844390869 -0.6871163845062256 0.0 0.0 0.0 0.0
0.004 -0.01370860543102026 0.028492247685790062 0.6049099564552307 -0.8021939992904663 0.0 0.0 0.0 0.0
0.005 0.0002975398674607277 0.014444111846387386 0.4198641777038574 -0.8804967403411865 0.0 0.0 0.0 0.0
0.006 0.004001230001449585 -0.002704223617911339 0.23359833657741547 -0.9255326390266418 0.0 0.0 0.0 0.0
0.007 -0.0007400531321763992 -0.018567843362689018 0.047514140605926514 -0.9380288124084473 0.0 0.0 0.0 0.0
0.008 -0.012279855087399483 -0.03050548955798149 -0.13547751307487488 -0.9172583222389221 0.0 0.0 0.0 0.0
0.009 -0.02841603197157383 -0.03588032349944115 -0.3090271055698395 -0.8643147945404053 0.0 0.0 0.0 0.0
0.01 -0.0458110086619854 -0.03368058800697327 -0.46935614943504333 -0.7801144123077393 0.0 0.0 0.0 0.0
0.011 -0.061510950326919556 -0.023912746459245682 -0.6097832322120667 -0.6671671271324158 0.0 0.0 0.0 0.0
0.012 -0.0725029930472374 -0.007772873155772686 -0.7254850268363953 -0.5307690501213074 0.0 0.0 0.0 0.0
0.013 -0.07674676924943924 0.012502931989729404 -0.8122450709342957 -0.37484484910964966 0.0 0.0 0.0 0.0
0.014 -0.07284753769636154 0.03424498066306114 -0.8665522933006287 -0.20563213527202606 0.0 0.0 0.0 0.0
0.015 -0.060745663940906525 0.05420837923884392 -0.8858411908149719 -0.029379380866885185 0.0 0.0 0.0 0.0
0.016 -0.04144195094704628 0.06969380378723145 -0.8708935379981995 0.14629001915454865 0.0 0.0 0.0 0.0
0.017 -0.01669938676059246 0.07813705503940582 -0.8218562602996826 0.3156904876232147 0.0 0.0 0.0 0.0
0.018 0.010492593981325626 0.07773913443088531 -0.7404019236564636 0.47177621722221375 0.0 0.0 0.0 0.0
0.019 0.03705858066678047 0.06819728761911392 -0.6295186877250671 0.6078317165374756 0.0 0.0 0.0 0.0
0.02 0.06001967936754227 0.050377845764160156 -0.4941555857658386 0.7195609211921692 0.0 0.0 0.0 0.0
0.021 0.07662118971347809 0.025734201073646545 -0.3401605486869812 0.8017709255218506 0.0 0.0 0.0 0.0
0.022 0.08487515151500702 -0.003240242600440979 -0.17300213873386383 0.8519287705421448 0.0 0.0 0.0 0.0
0.023 0.08444486558437347 -0.03313899785280228 0.0012748008593916893 0.86734539270401 0.0 0.0 0.0 0.0
0.024 0.07532649487257004 -0.06136685237288475 0.17400075495243073 0.8482571840286255 0.0 0.0 0.0 0.0
0.025 0.058686885982751846 -0.08556339144706726 0.33914196491241455 0.7944311499595642 0.0 0.0 0.0 0.0
0.026 0.03666410967707634 -0.1034943014383316 0.4901677966117859 0.7090281248092651 0.0 0.0 0.0 0.0
0.027 0.011499205604195595 -0.11391431838274002 0.6213034391403198 0.5957523584365845 0.0 0.0 0.0 0.0
0.028 -0.014234136790037155 -0.11724472790956497 0.7274888157844543 0.45812782645225525 0.0 0.0 0.0 0.0
0.029 -0.0381784662604332 -0.11424405127763748 0.8028287887573242 0.30305421352386475 0.0 0.0 0.0 0.0
0.03 -0.05892588198184967 -0.10595660656690598 0.8457084894180298 0.135853111743927 0.0 0.0 0.0 0.0
0.031 -0.07540558278560638 -0.09420688450336456 0.8543519377708435 -0.03733404725790024 0.0 0.0 0.0 0.0
0.032 -0.08756514638662338 -0.0809217318892479 0.8284341096878052 -0.20747213065624237 0.0 0.0 0.0 0.0
0.033 -0.09594018757343292 -0.06746815145015717 0.7684755921363831 -0.368303507566452 0.0 0.0 0.0 0.0
0.034 -0.10156681388616562 -0.054809827357530594 0.677649736404419 -0.5148879289627075 0.0 0.0 0.0 0.0
0.035 -0.10559707880020142 -0.043283961713314056 0.5597911477088928 -0.6397302746772766 0.0 0.0 0.0 0.0
0.036 -0.10899438709020615 -0.032792095094919205 0.4195641875267029 -0.7374398112297058 0.0 0.0 0.0 0.0
0.037 -0.11259196698665619 -0.022200103849172592 0.2621918320655823 -0.8047804236412048 0.0 0.0 0.0 0.0
0.038 -0.11645707488059998 -0.01085706241428852 0.09517503529787064 -0.8395406007766724 0.0 0.0 0.0 0.0
0.039 -0.12000928819179535 0.002370373345911503 -0.07588983327150345 -0.839994490146637 0.0 0.0 0.0 0.0
0.04 -0.12235920131206512 0.01842518337070942 -0.24237743020057678 -0.8053320646286011 0.0 0.0 0.0 0.0
0.041 -0.12156026065349579 0.03701884299516678 -0.3985096514225006 -0.7385442852973938 0.0 0.0 0.0 0.0
0.042 -0.11674946546554565 0.05775954946875572 -0.5369314551353455 -0.6422204971313477 0.0 0.0 0.0 0.0
0.043 -0.10614907741546631 0.0794886127114296 -0.6533620953559875 -0.5208205580711365 0.0 0.0 0.0 0.0
0.044 -0.08911391347646713 0.09999080747365952 -0.7425693273544312 -0.3777633011341095 0.0 0.0 0.0 0.0
0.045 -0.0656357929110527 0.11727996915578842 -0.8011022210121155 -0.22064679861068726 0.0 0.0 0.0 0.0
0.046 -0.03650033846497536 0.1291903257369995 -0.8270862102508545 -0.05596481263637543 0.0 0.0 0.0 0.0
0.047 -0.003210890106856823 0.13315622508525848 -0.8197058439254761 0.10989772528409958 0.0 0.0 0.0 0.0
0.048 0.031889304518699646 0.12792541086673737 -0.7791233658790588 0.2715781033039093 0.0 0.0 0.0 0.0
0.049 0.0658038854598999 0.11332187056541443 -0.7068126797676086 0.4210566580295563 0.0 0.0 0.0 0.0
0.05 0.09594723582267761 0.0897090882062912 -0.6074173450469971 0.5527179837226868 0.0 0.0 0.0 0.0
0.051 0.11926645785570145 0.058270733803510666 -0.48407384753227234 0.6614856719970703 0.0 0.0 0.0 0.0
0.052 0.13380035758018494 0.02102583460509777 -0.3413172960281372 0.7441444993019104 0.0 0.0 0.0 0.0
0.053 0.13803444802761078 -0.018763097003102303 -0.18563273549079895 0.7954238057136536 0.0 0.0 0.0 0.0
0.054 0.13202477991580963 -0.058526575565338135 -0.02283325232565403 0.8149886727333069 0.0 0.0 0.0 0.0
0.055 0.11610272526741028 -0.09505951404571533 0.14072681963443756 0.8023045659065247 0.0 0.0 0.0 0.0
0.056 0.09162771701812744 -0.125582754611969 0.29763537645339966 0.7563106417655945 0.0 0.0 0.0 0.0
0.057 0.0613260492682457 -0.14877109229564667 0.44228073954582214 0.6812569499015808 0.0 0.0 0.0 0.0
0.058 0.027266306802630424 -0.16330470144748688 0.5684505701065063 0.5784507393836975 0.0 0.0 0.0 0.0
0.059 -0.007715596817433834 -0.16885767877101898 0.6719357967376709 0.45276033878326416 0.0 0.0 0.0 0.0
0.06 -0.04140854999423027 -0.16627490520477295 0.7480233311653137 0.3091824948787689 0.0 0.0 0.0 0.0
0.061 -0.07191920280456543 -0.15685072541236877 0.7941524386405945 0.15269368886947632 0.0 0.0 0.0 0.0
0.062 -0.09807677567005157 -0.14178137481212616 0.8080891370773315 -0.009809844195842743 0.0 0.0 0.0 0.0
0.063 -0.11917056888341904 -0.12285064160823822 0.7886384725570679 -0.1716819405555725 0.0 0.0 0.0 0.0
0.064 -0.1353328377008438 -0.10224595665931702 0.7373630404472351 -0.32566994428634644 0.0 0.0 0.0 0.0
0.065 -0.14687590301036835 -0.08076804876327515 0.6566701531410217 -0.46601471304893494 0.0 0.0 0.0 0.0
0.066 -0.1545274555683136 -0.05894138664007187 0.5494181513786316 -0.5879924297332764 0.0 0.0 0.0 0.0
0.067 -0.1592111587524414 -0.037219926714897156 0.41988405585289 -0.685657262802124 0.0 0.0 0.0 0.0
0.068 -0.16110149025917053 -0.015688804909586906 0.27354541420936584 -0.7549456357955933 0.0 0.0 0.0 0.0
0.069 -0.1606908142566681 0.006073828786611557 0.11648596823215485 -0.7935475707054138 0.0 0.0 0.0 0.0
0.07 -0.1573268622159958 0.028402604162693024 -0.04469335451722145 -0.7995449304580688 0.0 0.0 0.0 0.0
0.071 -0.15077395737171173 0.0508841946721077 -0.20341572165489197 -0.772797167301178 0.0 0.0 0.0 0.0
0.072 -0.14001674950122833 0.07374819368124008 -0.3539991080760956 -0.7149896621704102 0.0 0.0 0.0 0.0
0.073 -0.12418922036886215 0.09573213756084442 -0.4898090064525604 -0.6272212266921997 0.0 0.0 0.0 0.0
0.074 -0.10317502170801163 0.11564701050519943 -0.604968249797821 -0.5157483816146851 0.0 0.0 0.0 0.0
0.075 -0.07701043784618378 0.13190199434757233 -0.6947622895240784 -0.383432000875473 0.0 0.0 0.0 0.0
0.076 -0.04605782777070999 0.1426273137331009 -0.7556554079055786 -0.23664216697216034 0.0 0.0 0.0 0.0
0.077 -0.011944346129894257 0.1461646556854248 -0.7855771780014038 -0.08088339120149612 0.0 0.0 0.0 0.0
0.078 0.023728860542178154 0.14138557016849518 -0.7842584252357483 0.07745292782783508 0.0 0.0 0.0 0.0
0.079 0.05868034437298775 0.12770617008209229 -0.7512847185134888 0.232508584856987 0.0 0.0 0.0 0.0
0.08 0.09047944098711014 0.10518398880958557 -0.6888326406478882 0.37793660163879395 0.0 0.0 0.0 0.0
0.081 0.11647956818342209 0.07467912882566452 -0.597642183303833 0.5079210996627808 0.0 0.0 0.0 0.0
0.082 0.13414563238620758 0.038340013474226 -0.48330846428871155 0.6160842180252075 0.0 0.0 0.0 0.0
0.083 0.14225248992443085 -0.001689152792096138 -0.35005199909210205 0.6991374492645264 0.0 0.0 0.0 0.0
0.084 0.14003625512123108 -0.04251789301633835 -0.20351547002792358 0.7537879347801208 0.0 0.0 0.0 0.0
0.085 0.12774069607257843 -0.08104834705591202 -0.049219924956560135 0.7781428098678589 0.0 0.0 0.0 0.0
0.086 0.10640214383602142 -0.1148281842470169 0.10727494955062866 0.7712849378585815 0.0 0.0 0.0 0.0
0.087 0.07814857363700867 -0.1417204886674881 0.25816503167152405 0.7339361906051636 0.0 0.0 0.0 0.0
0.088 0.04521354287862778 -0.16040773689746857 0.3986283242702484 0.6664931774139404 0.0 0.0 0.0 0.0
0.089 0.010170059278607368 -0.1699312925338745 0.5230674743652344 0.5738838911056519 0.0 0.0 0.0 0.0
0.09 -0.02475016377866268 -0.17137165367603302 0.6275038719177246 0.45764821767807007 0.0 0.0 0.0 0.0
0.091 -0.057522181421518326 -0.16442380845546722 0.7054093480110168 0.32239288091659546 0.0 0.0 0.0 0.0
0.092 -0.08604181557893753 -0.15123295783996582 0.7563028335571289 0.1742851883172989 0.0 0.0 0.0 0.0
0.093 -0.1093912199139595 -0.1333739161491394 0.7749853730201721 0.018734637647867203 0.0 0.0 0.0 0.0
0.094 -0.12708987295627594 -0.11261385679244995 0.7630874514579773 -0.13721126317977905 0.0 0.0 0.0 0.0
0.095 -0.13974204659461975 -0.09072139114141464 0.7209568023681641 -0.28722715377807617 0.0 0.0 0.0 0.0
0.096 -0.14773185551166534 -0.06852338463068008 0.6484667658805847 -0.42475616931915283 0.0 0.0 0.0 0.0
0.097 -0.15165632963180542 -0.04702723026275635 0.5500869154930115 -0.5458565950393677 0.0 0.0 0.0 0.0
0.098 -0.15226814150810242 -0.02627764455974102 0.42993584275245667 -0.644801139831543 0.0 0.0 0.0 0.0
0.099 -0.1507624238729477 -0.006326077505946159 0.2918648421764374 -0.7179226875305176 0.0 0.0 0.0 0.0
0.1 -0.1478618085384369 0.016213221475481987 0.1259375363588333 -0.7724162936210632 0.0 0.0 0.0 0.0
0.101 -0.13510583341121674 0.03328728675842285 -0.027350906282663345 -0.7504342794418335 0.0 0.0 0.0 0.0
0.102 -0.12549908459186554 0.050853654742240906 -0.17767852544784546 -0.7296258807182312 0.0 0.0 0.0 0.0
0.103 -0.11318881809711456 0.06732050329446793 -0.3200109601020813 -0.6792203783988953 0.0 0.0 0.0 0.0
0.104 -0.09695028513669968 0.08242186903953552 -0.4493561387062073 -0.6007727980613708 0.0 0.0 0.0 0.0
0.105 -0.07745050638914108 0.09463009238243103 -0.5606499314308167 -0.4988035261631012 0.0 0.0 0.0 0.0
0.106 -0.05438090115785599 0.10315416753292084 -0.6496508717536926 -0.37603333592414856 0.0 0.0 0.0 0.0
0.107 -0.02877751737833023 0.10658770054578781 -0.7115212082862854 -0.23746690154075623 0.0 0.0 0.0 0.0
0.108 -0.0018663182854652405 0.10396701842546463 -0.7444958686828613 -0.08987205475568771 0.0 0.0 0.0 0.0
0.109 0.024821743369102478 0.09460379183292389 -0.7470483183860779 0.06185699254274368 0.0 0.0 0.0 0.0
0.11 0.04924001917243004 0.07852797210216522 -0.7187413573265076 0.21070733666419983 0.0 0.0 0.0 0.0
0.111 0.06908949464559555 0.056209251284599304 -0.6613876223564148 0.35117366909980774 0.0 0.0 0.0 0.0
0.112 0.08300317078828812 0.029025832191109657 -0.5766677856445312 0.4764519929885864 0.0 0.0 0.0 0.0
0.113 0.08921933174133301 -0.0012618862092494965 -0.4678667187690735 0.5819267630577087 0.0 0.0 0.0 0.0
0.114 0.08717577159404755 -0.03178155794739723 -0.3407112658023834 0.6633097529411316 0.0 0.0 0.0 0.0
0.115 0.07738469541072845 -0.06058700010180473 -0.20016850531101227 0.7172768115997314 0.0 0.0 0.0 0.0
0.116 0.06062211096286774 -0.08544941991567612 -0.05198340862989426 0.7417764663696289 0.0 0.0 0.0 0.0
0.117 0.03824874013662338 -0.10438264906406403 0.09821005910634995 0.7357550263404846 0.0 0.0 0.0 0.0
0.118 0.012533062137663364 -0.11635387688875198 0.24316661059856415 0.7004210352897644 0.0 0.0 0.0 0.0
0.119 -0.01447371020913124 -0.12080013751983643 0.3780335783958435 0.6365280747413635 0.0 0.0 0.0 0.0
0.12 -0.04019805043935776 -0.11810805648565292 0.49730509519577026 0.5472813844680786 0.0 0.0 0.0 0.0
0.121 -0.06289009749889374 -0.10922529548406601 0.5961118936538696 0.43569907546043396 0.0 0.0 0.0 0.0
0.122 -0.08121506869792938 -0.09576358646154404 0.6704725027084351 0.30748704075813293 0.0 0.0 0.0 0.0
0.123 -0.09456802159547806 -0.07937166094779968 0.7178249955177307 0.16727717220783234 0.0 0.0 0.0 0.0
0.124 -0.10260546207427979 -0.0614229217171669 0.7370026111602783 0.020462028682231903 0.0 0.0 0.0 0.0
0.125 -0.10510535538196564 -0.043995559215545654 0.7256191968917847 -0.12828531861305237 0.0 0.0 0.0 0.0
0.126 -0.10366937518119812 -0.028489599004387856 0.6851063966751099 -0.27104249596595764 0.0 0.0 0.0 0.0
0.127 -0.09894821792840958 -0.01570078358054161 0.6167546510696411 -0.4035375714302063 0.0 0.0 0.0 0.0
0.128 -0.09296267479658127 -0.00597791001200676 0.5234774351119995 -0.5190683603286743 0.0 0.0 0.0 0.0
0.129 -0.08626128733158112 0.0012484556064009666 0.40771427750587463 -0.6140695214271545 0.0 0.0 0.0 0.0
0.13 -0.07984018325805664 0.005959264002740383 0.2758086025714874 -0.6836192607879639 0.0 0.0 0.0 0.0
0.131 -0.07435528934001923 0.009405873715877533 0.132100909948349 -0.7254079580307007 0.0 0.0 0.0 0.0
0.132 -0.06967402994632721 0.012321704998612404 -0.01655121147632599 -0.7368642687797546 0.0 0.0 0.0 0.0
0.133 -0.06548723578453064 0.01503022015094757 -0.16481845080852509 -0.7181996703147888 0.0 0.0 0.0 0.0
0.134 -0.061143677681684494 0.017942016944289207 -0.30653664469718933 -0.6695874929428101 0.0 0.0 0.0 0.0
0.135 -0.0562816746532917 0.020795270800590515 -0.43496400117874146 -0.5933599472045898 0.0 0.0 0.0 0.0
0.136 -0.050421375781297684 0.02360609732568264 -0.545900821685791 -0.4932563304901123 0.0 0.0 0.0 0.0
0.137 -0.04342447966337204 0.025380389764904976 -0.6338777542114258 -0.37241432070732117 0.0 0.0 0.0 0.0
0.138 -0.03533519431948662 0.025475479662418365 -0.6954073309898376 -0.23679722845554352 0.0 0.0 0.0 0.0
0.139 -0.026823610067367554 0.023366598412394524 -0.7285557389259338 -0.09108421951532364 0.0 0.0 0.0 0.0
0.14 -0.018960947170853615 0.01879952661693096 -0.7312918305397034 0.0576864518225193 0.0 0.0 0.0 0.0
0.141 -0.012541982345283031 0.01153397187590599 -0.7040953040122986 0.20457042753696442 0.0 0.0 0.0 0.0
0.142 -0.008795131929218769 0.0024713100865483284 -0.6472770571708679 0.3421177864074707 0.0 0.0 0.0 0.0
0.143 -0.008412720635533333 -0.007489382289350033 -0.5642638802528381 0.46558287739753723 0.0 0.0 0.0 0.0
0.144 -0.011510420590639114 -0.017209650948643684 -0.45762261748313904 0.569587230682373 0.0 0.0 0.0 0.0
0.145 -0.01804354041814804 -0.025326212868094444 -0.3325093388557434 0.6496554613113403 0.0 0.0 0.0 0.0
0.146 -0.027243681252002716 -0.030160479247570038 -0.19382628798484802 0.7027332186698914 0.0 0.0 0.0 0.0
0.147 -0.037780072540044785 -0.031256139278411865 -0.04748161882162094 0.7264306545257568 0.0 0.0 0.0 0.0
0.148 -0.04847337678074837 -0.02780650369822979 0.10031057149171829 0.7200163006782532 0.0 0.0 0.0 0.0
0.149 -0.057440802454948425 -0.02000053972005844 0.24354074895381927 0.6840268969535828 0.0 0.0 0.0 0.0
0.15 -0.06291719526052475 -0.00889748428016901 0.37667524814605713 0.6198447942733765 0.0 0.0 0.0 0.0
0.151 -0.06378411501646042 0.004585493355989456 0.4937450587749481 0.5305812954902649 0.0 0.0 0.0 0.0
0.152 -0.05942024290561676 0.018366029486060143 0.5907126665115356 0.41870009899139404 0.0 0.0 0.0 0.0
0.153 -0.049906499683856964 0.03067774884402752 0.6624633073806763 0.28998398780822754 0.0 0.0 0.0 0.0
0.154 -0.03555401787161827 0.03963407874107361 0.7067739963531494 0.1494416743516922 0.0 0.0 0.0 0.0
0.155 -0.01798798330128193 0.04374689236283302 0.7219887375831604 0.0027064373716712 0.0 0.0 0.0 0.0
0.156 0.0012249983847141266 0.041923150420188904 0.7065770030021667 -0.14432670176029205 0.0 0.0 0.0 0.0
0.157 0.01976390741765499 0.03359805792570114 0.6613650918006897 -0.2841552495956421 0.0 0.0 0.0 0.0
0.158 0.03589487075805664 0.019536446779966354 0.5882481336593628 -0.41265517473220825 0.0 0.0 0.0 0.0
0.159 0.04752545803785324 0.0005733631551265717 0.4909498691558838 -0.5227140784263611 0.0 0.0 0.0 0.0
0.16 0.05340650677680969 -0.02146846428513527 0.37298378348350525 -0.6103553175926208 0.0 0.0 0.0 0.0
0.161 0.05325156822800636 -0.044823333621025085 0.24076233804225922 -0.672144889831543 0.0 0.0 0.0 0.0
0.162 0.046770449727773666 -0.06766345351934433 0.09829451888799667 -0.7050144076347351 0.0 0.0 0.0 0.0
0.163 0.03439801186323166 -0.08818822354078293 -0.047043245285749435 -0.7084867358207703 0.0 0.0 0.0 0.0
0.164 0.01731898821890354 -0.10507828742265701 -0.18949560821056366 -0.681945264339447 0.0 0.0 0.0 0.0
0.165 -0.003427742049098015 -0.11742936074733734 -0.3230390250682831 -0.627416729927063 0.0 0.0 0.0 0.0
0.166 -0.026202941313385963 -0.12458326667547226 -0.44269755482673645 -0.5470106601715088 0.0 0.0 0.0 0.0
0.167 -0.0494241937994957 -0.12666870653629303 -0.5425839424133301 -0.4448033571243286 0.0 0.0 0.0 0.0
0.168 -0.07219474762678146 -0.12425349652767181 -0.620356023311615 -0.3245878219604492 0.0 0.0 0.0 0.0
0.169 -0.09433470666408539 -0.11771858483552933 -0.6719476580619812 -0.1908961832523346 0.0 0.0 0.0 0.0
0.17 -0.11501650512218475 -0.10754971951246262 -0.6948113441467285 -0.05075959861278534 0.0 0.0 0.0 0.0
0.171 -0.13426856696605682 -0.09377112984657288 -0.6888924241065979 0.09209398925304413 0.0 0.0 0.0 0.0
0.172 -0.15132561326026917 -0.07669144868850708 -0.6543731689453125 0.22961853444576263 0.0 0.0 0.0 0.0
0.173 -0.16624021530151367 -0.05601244419813156 -0.5921987295150757 0.3572879731655121 0.0 0.0 0.0 0.0
0.174 -0.17806309461593628 -0.032133832573890686 -0.5058838725090027 0.4693111777305603 0.0 0.0 0.0 0.0
0.175 -0.18610823154449463 -0.004595212638378143 -0.3980599641799927 0.5612048506736755 0.0 0.0 0.0 0.0
0.176 -0.18947991728782654 0.025852762162685394 -0.2735264003276825 0.6292473673820496 0.0 0.0 0.0 0.0
0.177 -0.1869805008172989 0.05882551893591881 -0.13974690437316895 0.6696372628211975 0.0 0.0 0.0 0.0
0.178 -0.17724749445915222 0.09334746748209 0.0002765841782093048 0.6821120381355286 0.0 0.0 0.0 0.0
0.179 -0.15899571776390076 0.12734384834766388 0.1395799070596695 0.6652591824531555 0.0 0.0 0.0 0.0
0.18 -0.1321152299642563 0.159166619181633 0.27206748723983765 0.6205083727836609 0.0 0.0 0.0 0.0
0.181 -0.09644848853349686 0.18610531091690063 0.39219000935554504 0.5493485927581787 0.0 0.0 0.0 0.0
0.182 -0.053114958107471466 0.20501907169818878 0.49441564083099365 0.4551599621772766 0.0 0.0 0.0 0.0
0.183 -0.0037722578272223473 0.21400824189186096 0.5749449729919434 0.34229806065559387 0.0 0.0 0.0 0.0
0.184 0.04914754256606102 0.21125897765159607 0.6300581693649292 0.2156999409198761 0.0 0.0 0.0 0.0
0.185 0.10216984897851944 0.1952129304409027 0.6574135422706604 0.08135928958654404 0.0 0.0 0.0 0.0
0.186 0.1517964005470276 0.16586369276046753 0.6561698913574219 -0.05481601133942604 0.0 0.0 0.0 0.0
0.187 0.19412469863891602 0.12406402081251144 0.6266315579414368 -0.18707583844661713 0.0 0.0 0.0 0.0
0.188 0.22658468782901764 0.07197822630405426 0.5707994103431702 -0.3096665143966675 0.0 0.0 0.0 0.0
0.189 0.24591109156608582 0.012724907137453556 0.4925682246685028 -0.4165342450141907 0.0 0.0 0.0 0.0
0.19 0.2507014274597168 -0.050603270530700684 0.3942227363586426 -0.5037233233451843 0.0 0.0 0.0 0.0
0.191 0.24071012437343597 -0.11373000591993332 0.28148695826530457 -0.5693532824516296 0.0 0.0 0.0 0.0
0.192 0.21633639931678772 -0.17343948781490326 0.15922123193740845 -0.610093355178833 0.0 0.0 0.0 0.0
0.193 0.17922896146774292 -0.22639398276805878 0.03247968107461929 -0.625008225440979 0.0 0.0 0.0 0.0
