!Created with skrf (http://scikit-rf.org).
# GHz S RI R 50.0 
!freq ReS11 ImS11 ReS21 ImS21 ReS12 ImS12 ReS22 ImS22
0.001 -1.1577818393707275 0.09981095790863037 1.7397105693817139e-06 -1.659523695707321e-05 0.0 0.0 0.0 0.0
0.002 -0.997006893157959 0.39719897508621216 1.3369135558605194e-05 -1.2638047337532043e-06 0.0 0.0 0.0 0.0
0.003 -0.8537153601646423 0.5898831486701965 -4.861503839492798e-06 4.601664841175079e-06 0.0 0.0 0.0 0.0
0.004 -0.6955711841583252 0.7303342223167419 1.834053546190262e-05 -3.3061951398849487e-06 0.0 0.0 0.0 0.0
0.005 -0.528246283531189 0.833473265171051 -2.9566697776317596e-05 -1.0007061064243317e-05 0.0 0.0 0.0 0.0
0.006 -0.3523746430873871 0.9020786881446838 -1.8397346138954163e-05 -5.070120096206665e-06 0.0 0.0 0.0 0.0
0.007 -0.17217840254306793 0.9370003938674927 3.269873559474945e-06 1.1846423149108887e-06 0.0 0.0 0.0 0.0
0.008 0.008605264127254486 0.9420223832130432 2.032145857810974e-06 -2.5449320673942566e-05 0.0 0.0 0.0 0.0
0.009 0.18577761948108673 0.913686215877533 3.959983587265015e-06 8.751638233661652e-06 0.0 0.0 0.0 0.0
0.01 0.35509735345840454 0.854292631149292 6.7409127950668335e-06 7.877126336097717e-06 0.0 0.0 0.0 0.0
0.011 0.5098733901977539 0.7649551630020142 8.104369044303894e-06 -2.659391611814499e-05 0.0 0.0 0.0 0.0
0.012 0.6460250616073608 0.6476436257362366 1.9018538296222687e-05 -1.2051314115524292e-05 0.0 0.0 0.0 0.0
0.013 0.758060872554779 0.506850004196167 -2.9074959456920624e-05 4.6137720346450806e-06 0.0 0.0 0.0 0.0
0.014 0.8403054475784302 0.3467034101486206 -5.752779543399811e-06 -8.133240044116974e-06 0.0 0.0 0.0 0.0
0.015 0.8916109204292297 0.17395491898059845 1.0856427252292633e-05 3.0771829187870026e-05 0.0 0.0 0.0 0.0
0.016 0.9083072543144226 -0.006450318731367588 -9.570270776748657e-06 -1.0794028639793396e-06 0.0 0.0 0.0 0.0
0.017 0.8886885643005371 -0.18813689053058624 -8.06804746389389e-06 1.6539357602596283e-05 0.0 0.0 0.0 0.0
0.018 0.834598183631897 -0.36071017384529114 -1.321360468864441e-05 3.9764679968357086e-05 0.0 0.0 0.0 0.0
0.019 0.7484084963798523 -0.5189415812492371 -3.927387297153473e-06 1.2110918760299683e-05 0.0 0.0 0.0 0.0
0.02 0.633375883102417 -0.657264232635498 -8.093193173408508e-06 2.665352076292038e-05 0.0 0.0 0.0 0.0
0.021 0.4941179156303406 -0.7700009346008301 2.3189932107925415e-06 1.3452954590320587e-05 0.0 0.0 0.0 0.0
0.022 0.33656972646713257 -0.8526456356048584 2.4205073714256287e-06 3.814697265625e-05 0.0 0.0 0.0 0.0
0.023 0.16642174124717712 -0.9037837982177734 2.6596710085868835e-05 8.15652310848236e-06 0.0 0.0 0.0 0.0
0.024 -0.008304337970912457 -0.9207407236099243 2.1745450794696808e-05 1.1981464922428131e-05 0.0 0.0 0.0 0.0
0.025 -0.18324071168899536 -0.9036005139350891 6.498489528894424e-05 -5.022156983613968e-05 0.0 0.0 0.0 0.0
0.026 -0.35024067759513855 -0.8536373972892761 -1.303013414144516e-05 -2.848636358976364e-05 0.0 0.0 0.0 0.0
0.027 -0.5035765171051025 -0.7734262347221375 -2.1743588149547577e-05 1.014210283756256e-06 0.0 0.0 0.0 0.0
0.028 -0.638560950756073 -0.6661559343338013 -7.515773177146912e-06 -3.593042492866516e-06 0.0 0.0 0.0 0.0
0.029 -0.7490033507347107 -0.5361353754997253 -1.607462763786316e-06 1.2304633855819702e-05 0.0 0.0 0.0 0.0
0.03 -0.8325847387313843 -0.3885490894317627 5.578622221946716e-06 1.0736286640167236e-05 0.0 0.0 0.0 0.0
0.031 -0.8872618675231934 -0.2287294566631317 -6.910413503646851e-06 -4.552304744720459e-06 0.0 0.0 0.0 0.0
0.032 -0.9096602201461792 -0.06340624392032623 1.184362918138504e-05 2.7837231755256653e-06 0.0 0.0 0.0 0.0
0.033 -0.9023525714874268 0.10197734087705612 -1.0297633707523346e-05 4.024244844913483e-06 0.0 0.0 0.0 0.0
0.034 -0.8642094731330872 0.26543694734573364 -5.695968866348267e-06 -1.0656192898750305e-05 0.0 0.0 0.0 0.0
0.035 -0.7965449690818787 0.41732126474380493 -1.3438984751701355e-05 -9.411945939064026e-06 0.0 0.0 0.0 0.0
0.036 -0.7006720900535583 0.5544396638870239 1.6689300537109375e-06 9.592622518539429e-07 0.0 0.0 0.0 0.0
0.037 -0.5814898610115051 0.6707064509391785 1.1108815670013428e-05 3.259629011154175e-06 0.0 0.0 0.0 0.0
0.038 -0.4414524435997009 0.7620425224304199 -8.71066004037857e-06 -1.5981495380401611e-06 0.0 0.0 0.0 0.0
0.039 -0.28747349977493286 0.825904130935669 2.156756818294525e-05 -1.3402663171291351e-05 0.0 0.0 0.0 0.0
0.04 -0.12376809120178223 0.8590819835662842 -1.171790063381195e-05 8.046627044677734e-06 0.0 0.0 0.0 0.0
0.041 0.044419534504413605 0.8604422807693481 -1.5974976122379303e-05 1.7901882529258728e-05 0.0 0.0 0.0 0.0
0.042 0.20954690873622894 0.8299678564071655 -8.59331339597702e-06 -1.1933036148548126e-05 0.0 0.0 0.0 0.0
0.043 0.36526620388031006 0.7685890793800354 3.4831464290618896e-06 -1.3004057109355927e-05 0.0 0.0 0.0 0.0
0.044 0.5063567161560059 0.6773998141288757 -1.9203871488571167e-06 8.074566721916199e-06 0.0 0.0 0.0 0.0
0.045 0.6280413269996643 0.5621103048324585 2.8298236429691315e-05 -2.120714634656906e-05 0.0 0.0 0.0 0.0
0.046 0.7245135307312012 0.4242731034755707 -1.0670162737369537e-05 1.734774559736252e-05 0.0 0.0 0.0 0.0
0.047 0.7934615612030029 0.2704198658466339 -2.4017877876758575e-05 1.4503486454486847e-05 0.0 0.0 0.0 0.0
0.048 0.8312336206436157 0.10519840568304062 -1.677684485912323e-05 2.9029324650764465e-06 0.0 0.0 0.0 0.0
0.049 0.8362482786178589 -0.06349575519561768 -7.824040949344635e-06 3.078486770391464e-05 0.0 0.0 0.0 0.0
0.05 0.8073569536209106 -0.22873455286026 -6.035901606082916e-06 2.658553421497345e-05 0.0 0.0 0.0 0.0
0.051 0.7487069368362427 -0.38527965545654297 4.9272552132606506e-05 2.0924024283885956e-05 0.0 0.0 0.0 0.0
0.052 0.6606036424636841 -0.5264463424682617 3.3253803849220276e-05 -6.9569796323776245e-06 0.0 0.0 0.0 0.0
0.053 0.5477777123451233 -0.6480221748352051 3.413856029510498e-05 -2.2338703274726868e-05 0.0 0.0 0.0 0.0
0.054 0.41469839215278625 -0.7456071376800537 1.6791746020317078e-06 -1.943204551935196e-05 0.0 0.0 0.0 0.0
0.055 0.2653881013393402 -0.8150147795677185 -5.969777703285217e-07 -2.95247882604599e-05 0.0 0.0 0.0 0.0
0.056 0.10659795999526978 -0.8548936247825623 -1.0168179869651794e-05 -6.124377250671387e-06 0.0 0.0 0.0 0.0
0.057 -0.056402917951345444 -0.863575279712677 2.22865492105484e-06 8.584931492805481e-06 0.0 0.0 0.0 0.0
0.058 -0.21774820983409882 -0.840828001499176 -1.3047829270362854e-06 -2.1466054022312164e-05 0.0 0.0 0.0 0.0
0.059 -0.3711083233356476 -0.7887765765190125 -1.2119300663471222e-05 1.6308389604091644e-05 0.0 0.0 0.0 0.0
0.06 -0.5114120841026306 -0.7085352540016174 -1.4994293451309204e-07 1.0486692190170288e-05 0.0 0.0 0.0 0.0
0.061 -0.6336364150047302 -0.6043500900268555 -1.4904886484146118e-05 -7.1069225668907166e-06 0.0 0.0 0.0 0.0
0.062 -0.7327422499656677 -0.47848835587501526 1.886114478111267e-05 -1.6274861991405487e-05 0.0 0.0 0.0 0.0
0.063 -0.8073563575744629 -0.33766767382621765 -1.3123266398906708e-05 1.6019679605960846e-05 0.0 0.0 0.0 0.0
0.064 -0.8527283072471619 -0.18580366671085358 1.244526356458664e-05 -1.755543053150177e-06 0.0 0.0 0.0 0.0
0.065 -0.8709912300109863 -0.03020748682320118 1.0856427252292633e-05 1.3080425560474396e-05 0.0 0.0 0.0 0.0
0.066 -0.8579769134521484 0.12905378639698029 4.100613296031952e-06 7.097609341144562e-06 0.0 0.0 0.0 0.0
0.067 -0.8162251114845276 0.28282874822616577 1.141522079706192e-05 1.5078112483024597e-05 0.0 0.0 0.0 0.0
0.068 -0.7456298470497131 0.4264832139015198 -9.663403034210205e-06 -5.148351192474365e-06 0.0 0.0 0.0 0.0
0.069 -0.6487228870391846 0.5549931526184082 -1.1963769793510437e-05 -2.4410896003246307e-05 0.0 0.0 0.0 0.0
0.07 -0.5289936661720276 0.6616029739379883 3.3387914299964905e-06 -1.1861324310302734e-05 0.0 0.0 0.0 0.0
0.071 -0.3913709819316864 0.7439464926719666 1.381896436214447e-05 -5.599111318588257e-06 0.0 0.0 0.0 0.0
0.072 -0.2403026670217514 0.7981151938438416 2.7431175112724304e-05 -2.4051405489444733e-05 0.0 0.0 0.0 0.0
0.073 -0.08142631500959396 0.8225048184394836 2.6056542992591858e-05 -4.2720697820186615e-05 0.0 0.0 0.0 0.0
0.074 0.07907745242118835 0.8165453672409058 1.5294179320335388e-05 -6.951764225959778e-05 0.0 0.0 0.0 0.0
0.075 0.2358786016702652 0.7782707214355469 1.1557713150978088e-06 -5.977507680654526e-05 0.0 0.0 0.0 0.0
0.076 0.3822968304157257 0.7112931609153748 -4.464387893676758e-05 -3.242678940296173e-05 0.0 0.0 0.0 0.0
0.077 0.5126753449440002 0.6172868609428406 -5.306582897901535e-05 -5.293358117341995e-05 0.0 0.0 0.0 0.0
0.078 0.6228066682815552 0.500126302242279 -4.6947039663791656e-05 -5.162972956895828e-05 0.0 0.0 0.0 0.0
0.079 0.7073543667793274 0.3633787930011749 -5.4125674068927765e-05 -3.246869891881943e-05 0.0 0.0 0.0 0.0
0.08 0.7645086050033569 0.21280960738658905 -5.875434726476669e-05 -2.5741755962371826e-05 0.0 0.0 0.0 0.0
0.081 0.7822065949440002 0.07030067592859268 -7.491745054721832e-05 -8.375383913516998e-06 0.0 0.0 0.0 0.0
0.082 0.7815147042274475 -0.08805527538061142 -9.66731458902359e-05 1.2178905308246613e-05 0.0 0.0 0.0 0.0
0.083 0.7504862546920776 -0.24250587821006775 -9.404029697179794e-05 4.3896958231925964e-05 0.0 0.0 0.0 0.0
0.084 0.6903145909309387 -0.38658827543258667 -9.67569649219513e-05 9.896699339151382e-05 0.0 0.0 0.0 0.0
0.085 0.604569673538208 -0.5161374807357788 -4.229694604873657e-05 0.00012073758989572525 0.0 0.0 0.0 0.0
0.086 0.4967969059944153 -0.6263891458511353 8.811242878437042e-06 0.00012017227709293365 0.0 0.0 0.0 0.0
0.087 0.3703441619873047 -0.713691771030426 -8.307397365570068e-07 0.00011924747377634048 0.0 0.0 0.0 0.0
0.088 0.2307104468345642 -0.7764618992805481 3.583170473575592e-05 0.00011820252984762192 0.0 0.0 0.0 0.0
0.089 0.0823269709944725 -0.8105835318565369 4.117283970117569e-05 9.729061275720596e-05 0.0 0.0 0.0 0.0
0.09 -0.07037188112735748 -0.8160530924797058 0.00015494786202907562 9.924732148647308e-05 0.0 0.0 0.0 0.0
0.091 -0.22037988901138306 -0.7934995293617249 0.00026294589042663574 4.530511796474457e-05 0.0 0.0 0.0 0.0
0.092 -0.3635171353816986 -0.742997944355011 0.00019825901836156845 -0.000177810899913311 0.0 0.0 0.0 0.0
0.093 -0.49455153942108154 -0.6677669882774353 4.130229353904724e-05 -0.00025835074484348297 0.0 0.0 0.0 0.0
0.094 -0.608668863773346 -0.5684590339660645 -9.075738489627838e-05 -0.00016926322132349014 0.0 0.0 0.0 0.0
0.095 -0.7019394040107727 -0.4507850110530853 -9.708665311336517e-05 -9.449850767850876e-05 0.0 0.0 0.0 0.0
0.096 -0.7709851264953613 -0.3175171911716461 -9.018462151288986e-05 -5.868077278137207e-05 0.0 0.0 0.0 0.0
0.097 -0.8141728639602661 -0.17477934062480927 -9.722542017698288e-05 -3.751274198293686e-05 0.0 0.0 0.0 0.0
0.098 -0.8307051658630371 -0.025352492928504944 -0.00010896101593971252 3.366731107234955e-05 0.0 0.0 0.0 0.0
0.099 -0.8180657029151917 0.12571141123771667 -0.00013429950922727585 5.5699609220027924e-05 0.0 0.0 0.0 0.0
0.1 -0.7784674167633057 0.2922540009021759 -6.966385990381241e-05 0.00014194659888744354 0.0 0.0 0.0 0.0
0.101 -0.6729636192321777 0.39047878980636597 5.2859075367450714e-05 0.00013677123934030533 0.0 0.0 0.0 0.0
0.102 -0.5893288850784302 0.5061219930648804 8.384976536035538e-05 9.34479758143425e-05 0.0 0.0 0.0 0.0
0.103 -0.4840123951435089 0.6049998998641968 8.870754390954971e-05 2.6268884539604187e-05 0.0 0.0 0.0 0.0
0.104 -0.35958361625671387 0.6836532354354858 6.827525794506073e-05 1.434236764907837e-07 0.0 0.0 0.0 0.0
0.105 -0.22092247009277344 0.7376049160957336 5.002506077289581e-05 -1.4599412679672241e-05 0.0 0.0 0.0 0.0
0.106 -0.07211244106292725 0.7637322545051575 5.063973367214203e-05 -3.119092434644699e-05 0.0 0.0 0.0 0.0
0.107 0.0805845707654953 0.7597668766975403 1.781713217496872e-05 -1.494772732257843e-05 0.0 0.0 0.0 0.0
0.108 0.23055331408977509 0.7254366874694824 1.872330904006958e-05 6.859190762042999e-06 0.0 0.0 0.0 0.0
0.109 0.3722178637981415 0.6609421372413635 4.1744671761989594e-05 -2.3633241653442383e-05 0.0 0.0 0.0 0.0
0.11 0.49862155318260193 0.5679908990859985 1.027621328830719e-05 -1.5594065189361572e-05 0.0 0.0 0.0 0.0
0.111 0.6039683818817139 0.45154711604118347 1.4949589967727661e-05 -2.7662143111228943e-05 0.0 0.0 0.0 0.0
0.112 0.6834948062896729 0.31504061818122864 -6.959773600101471e-06 -1.560896635055542e-05 0.0 0.0 0.0 0.0
0.113 0.7326196432113647 0.1656942367553711 1.1877156794071198e-05 -1.6878359019756317e-05 0.0 0.0 0.0 0.0
0.114 0.7507347464561462 0.010378649458289146 6.295740604400635e-07 -3.229919821023941e-05 0.0 0.0 0.0 0.0
0.115 0.7365155220031738 -0.14423707127571106 -2.6673078536987305e-06 -2.1408312022686005e-05 0.0 0.0 0.0 0.0
0.116 0.6919538974761963 -0.29161369800567627 -1.553911715745926e-05 -1.4173798263072968e-05 0.0 0.0 0.0 0.0
0.117 0.6197367906570435 -0.42529425024986267 -3.7048012018203735e-06 -3.601051867008209e-05 0.0 0.0 0.0 0.0
0.118 0.5237210392951965 -0.5406100153923035 -1.4389865100383759e-05 -1.1187978088855743e-05 0.0 0.0 0.0 0.0
0.119 0.40914186835289 -0.6339074373245239 -1.165829598903656e-05 -2.1227635443210602e-05 0.0 0.0 0.0 0.0
0.12 0.2807371914386749 -0.7026578187942505 1.3671815395355225e-06 -3.6084093153476715e-05 0.0 0.0 0.0 0.0
0.121 0.14374549686908722 -0.7443910837173462 -1.5739351511001587e-05 -5.101412534713745e-05 0.0 0.0 0.0 0.0
0.122 0.0031514232978224754 -0.75998854637146 -1.499522477388382e-05 -7.623247802257538e-05 0.0 0.0 0.0 0.0
0.123 -0.13608664274215698 -0.7499530911445618 -7.579848170280457e-05 -6.014574319124222e-05 0.0 0.0 0.0 0.0
0.124 -0.2689431607723236 -0.7143855094909668 -6.863288581371307e-05 -6.020255386829376e-05 0.0 0.0 0.0 0.0
0.125 -0.39287781715393066 -0.6565271019935608 -9.602401405572891e-05 -3.620609641075134e-05 0.0 0.0 0.0 0.0
0.126 -0.5032420754432678 -0.578594446182251 -7.138773798942566e-05 4.435889422893524e-06 0.0 0.0 0.0 0.0
0.127 -0.5974320769309998 -0.4819943904876709 -8.692778646945953e-05 3.3807940781116486e-05 0.0 0.0 0.0 0.0
0.128 -0.6731142997741699 -0.3705611526966095 -5.813688039779663e-05 3.5441480576992035e-05 0.0 0.0 0.0 0.0
0.129 -0.7277900576591492 -0.24814638495445251 -5.1159411668777466e-05 2.7628615498542786e-05 0.0 0.0 0.0 0.0
0.13 -0.7594683766365051 -0.11795515567064285 -8.165929466485977e-05 6.454810500144958e-05 0.0 0.0 0.0 0.0
0.131 -0.7681577205657959 0.01738383062183857 -7.116980850696564e-05 4.4685788452625275e-05 0.0 0.0 0.0 0.0
0.132 -0.7523462772369385 0.15229454636573792 -0.0001283455640077591 9.078159928321838e-05 0.0 0.0 0.0 0.0
0.133 -0.7115303874015808 0.28309598565101624 -0.00010087992995977402 0.00017742160707712173 0.0 0.0 0.0 0.0
0.134 -0.6474369168281555 0.40602532029151917 -1.1790543794631958e-06 0.00029475800693035126 0.0 0.0 0.0 0.0
0.135 -0.5605252385139465 0.5155952572822571 0.00017325207591056824 0.0002764640375971794 0.0 0.0 0.0 0.0
0.136 -0.45393118262290955 0.6085906028747559 0.0002548210322856903 9.000487625598907e-05 0.0 0.0 0.0 0.0
0.137 -0.3290864825248718 0.680463433265686 0.00024075433611869812 -2.5752931833267212e-05 0.0 0.0 0.0 0.0
0.138 -0.19152618944644928 0.7269801497459412 0.00017386861145496368 -9.603798389434814e-05 0.0 0.0 0.0 0.0
0.139 -0.045841753482818604 0.7467145323753357 0.00013139843940734863 -0.00012167263776063919 0.0 0.0 0.0 0.0
0.14 0.1019449457526207 0.7373700141906738 6.577186286449432e-05 -0.0001551443710923195 0.0 0.0 0.0 0.0
0.141 0.2465847283601761 0.6978166699409485 -3.3015385270118713e-06 -0.00011886470019817352 0.0 0.0 0.0 0.0
0.142 0.38047072291374207 0.6301161050796509 -3.4479424357414246e-05 -9.93870198726654e-05 0.0 0.0 0.0 0.0
0.143 0.49872323870658875 0.5363954901695251 -6.348174065351486e-05 -5.510076880455017e-05 0.0 0.0 0.0 0.0
0.144 0.5955068469047546 0.42073768377304077 -4.643946886062622e-05 -3.9013102650642395e-06 0.0 0.0 0.0 0.0
0.145 0.6660489439964294 0.2877887189388275 -3.137718886137009e-05 3.428664058446884e-05 0.0 0.0 0.0 0.0
0.146 0.7096351385116577 0.14399774372577667 -1.135747879743576e-05 4.158820956945419e-05 0.0 0.0 0.0 0.0
0.147 0.7227370142936707 -0.00409323163330555 4.112720489501953e-05 3.6114826798439026e-05 0.0 0.0 0.0 0.0
0.148 0.7062375545501709 -0.15079456567764282 3.32975760102272e-05 -6.379559636116028e-06 0.0 0.0 0.0 0.0
0.149 0.6614071726799011 -0.29034391045570374 4.6418048441410065e-05 -5.330890417098999e-06 0.0 0.0 0.0 0.0
0.15 0.5918821692466736 -0.41644516587257385 4.440825432538986e-05 -2.3907050490379333e-05 0.0 0.0 0.0 0.0
0.151 0.500015914440155 -0.5252606868743896 1.4544464647769928e-05 -6.530154496431351e-05 0.0 0.0 0.0 0.0
0.152 0.3904465138912201 -0.613541305065155 1.436471939086914e-05 -6.867293268442154e-05 0.0 0.0 0.0 0.0
0.153 0.26771649718284607 -0.6787639856338501 -2.551637589931488e-05 -6.628502160310745e-05 0.0 0.0 0.0 0.0
0.154 0.13645589351654053 -0.7195191383361816 -1.9329600036144257e-05 -5.5781565606594086e-05 0.0 0.0 0.0 0.0
0.155 0.0017919177189469337 -0.735430896282196 -2.240855246782303e-05 -3.87486070394516e-05 0.0 0.0 0.0 0.0
0.156 -0.13241945207118988 -0.7264087796211243 -3.363005816936493e-05 -3.45129519701004e-05 0.0 0.0 0.0 0.0
0.157 -0.26147180795669556 -0.69403076171875 -2.164393663406372e-05 -3.2939016819000244e-05 0.0 0.0 0.0 0.0
0.158 -0.3816213011741638 -0.6388681530952454 -4.433095455169678e-05 -2.7623958885669708e-05 0.0 0.0 0.0 0.0
0.159 -0.49032270908355713 -0.563907265663147 -2.9262155294418335e-05 -2.7818605303764343e-05 0.0 0.0 0.0 0.0
0.16 -0.5835559964179993 -0.4704703092575073 -3.219395875930786e-05 -2.011563628911972e-05 0.0 0.0 0.0 0.0
0.161 -0.6580568552017212 -0.3619672954082489 -5.6090764701366425e-05 1.01504847407341e-05 0.0 0.0 0.0 0.0
0.162 -0.7129284143447876 -0.24141953885555267 -2.3546628654003143e-05 1.8606893718242645e-05 0.0 0.0 0.0 0.0
0.163 -0.7447438836097717 -0.11246352642774582 -2.771802246570587e-05 1.2237578630447388e-06 0.0 0.0 0.0 0.0
0.164 -0.7529464960098267 0.02111979015171528 -2.994108945131302e-05 1.961551606655121e-05 0.0 0.0 0.0 0.0
0.165 -0.7367826104164124 0.15514731407165527 -2.442300319671631e-05 2.5379471480846405e-05 0.0 0.0 0.0 0.0
0.166 -0.695573091506958 0.2847821116447449 -2.7045607566833496e-05 1.101568341255188e-05 0.0 0.0 0.0 0.0
0.167 -0.6304527521133423 0.4054620862007141 -2.5521032512187958e-05 2.9929913580417633e-05 0.0 0.0 0.0 0.0
0.168 -0.5421623587608337 0.5138655304908752 -4.161149263381958e-06 1.8232502043247223e-05 0.0 0.0 0.0 0.0
0.169 -0.4341103732585907 0.6034650802612305 -5.428679287433624e-06 7.36583024263382e-06 0.0 0.0 0.0 0.0
0.17 -0.3090735971927643 0.6716921329498291 -5.7462602853775024e-06 2.7698464691638947e-05 0.0 0.0 0.0 0.0
0.171 -0.1727251410484314 0.7142146825790405 -1.3511627912521362e-05 2.4820677936077118e-05 0.0 0.0 0.0 0.0
0.172 -0.028349149972200394 0.7291110157966614 8.655712008476257e-06 2.22865492105484e-05 0.0 0.0 0.0 0.0
0.173 0.1159423440694809 0.7152177691459656 7.009133696556091e-06 -5.38211315870285e-06 0.0 0.0 0.0 0.0
0.174 0.25523141026496887 0.6723308563232422 1.2571923434734344e-05 -1.8336810171604156e-05 0.0 0.0 0.0 0.0
0.175 0.3836035430431366 0.6022840142250061 -1.7306767404079437e-05 -2.400018274784088e-05 0.0 0.0 0.0 0.0
0.176 0.49456149339675903 0.5084891319274902 -3.7146732211112976e-05 -5.077943205833435e-05 0.0 0.0 0.0 0.0
0.177 0.5851702094078064 0.3937821090221405 -6.510410457849503e-05 -7.702875882387161e-05 0.0 0.0 0.0 0.0
0.178 0.6503157615661621 0.2642299234867096 -0.0001570703461766243 -3.364682197570801e-05 0.0 0.0 0.0 0.0
0.179 0.6875223517417908 0.12568576633930206 -0.00019136443734169006 4.4063664972782135e-05 0.0 0.0 0.0 0.0
0.18 0.6970726251602173 -0.016622310504317284 -0.000214272178709507 0.00014708377420902252 0.0 0.0 0.0 0.0
0.181 0.6787002682685852 -0.15547041594982147 -0.00017885025590658188 0.00024585332721471786 0.0 0.0 0.0 0.0
0.182 0.6337612271308899 -0.2873096764087677 -7.877964526414871e-05 0.00039075128734111786 0.0 0.0 0.0 0.0
0.183 0.5662745833396912 -0.4064004123210907 0.0001142183318734169 0.00046645384281873703 0.0 0.0 0.0 0.0
0.184 0.4786601662635803 -0.50823974609375 0.0003961678594350815 0.00044853053987026215 0.0 0.0 0.0 0.0
0.185 0.3754497468471527 -0.5917025208473206 0.0006306581199169159 0.00018988363444805145 0.0 0.0 0.0 0.0
