!Created with skrf (http://scikit-rf.org).
# GHz S RI R 50.0 
!freq ReS11 ImS11 ReS21 ImS21 ReS12 ImS12 ReS22 ImS22
0.001 0.9974668622016907 -0.22159388661384583 -2.086348831653595e-05 -1.1149793863296509e-05 0.0 0.0 0.0 0.0
0.002 0.918267011642456 -0.41790521144866943 -1.0414980351924896e-05 -3.218650817871094e-05 0.0 0.0 0.0 0.0
0.003 0.8074821829795837 -0.594760537147522 -1.3679265975952148e-05 3.4199096262454987e-05 0.0 0.0 0.0 0.0
0.004 0.6661220788955688 -0.7403697967529297 8.216127753257751e-06 -2.1484680473804474e-05 0.0 0.0 0.0 0.0
0.005 0.5012459754943848 -0.8547128438949585 -4.4051557779312134e-07 1.8987804651260376e-05 0.0 0.0 0.0 0.0
0.006 0.32077425718307495 -0.9313778877258301 5.048699676990509e-06 -4.684552550315857e-06 0.0 0.0 0.0 0.0
0.007 0.13197942078113556 -0.9724153876304626 -9.203329682350159e-06 5.714595317840576e-06 0.0 0.0 0.0 0.0
0.008 -0.05858181044459343 -0.9754812717437744 -1.3194046914577484e-05 4.963018000125885e-06 0.0 0.0 0.0 0.0
0.009 -0.24410413205623627 -0.9429675340652466 -6.081536412239075e-07 1.1406838893890381e-05 0.0 0.0 0.0 0.0
0.01 -0.41759324073791504 -0.8758724331855774 -3.962777554988861e-06 -6.538815796375275e-06 0.0 0.0 0.0 0.0
0.011 -0.5727738738059998 -0.7774910926818848 -1.3391487300395966e-05 -7.466413080692291e-06 0.0 0.0 0.0 0.0
0.012 -0.704984724521637 -0.6537265777587891 -1.0094605386257172e-05 1.653563231229782e-05 0.0 0.0 0.0 0.0
0.013 -0.8101580142974854 -0.5083807110786438 -2.855435013771057e-06 -5.4156407713890076e-06 0.0 0.0 0.0 0.0
0.014 -0.8854579329490662 -0.3478530943393707 -1.36643648147583e-05 -9.670853614807129e-06 0.0 0.0 0.0 0.0
0.015 -0.9290508031845093 -0.17765186727046967 -3.104843199253082e-05 -2.279970794916153e-05 0.0 0.0 0.0 0.0
0.016 -0.9404788017272949 -0.004053873009979725 1.560896635055542e-05 -9.522773325443268e-06 0.0 0.0 0.0 0.0
0.017 -0.9203308820724487 0.1670258343219757 4.87547367811203e-05 -2.161320298910141e-05 0.0 0.0 0.0 0.0
0.018 -0.8687739968299866 0.3308773636817932 -2.314802259206772e-05 -1.4736317098140717e-05 0.0 0.0 0.0 0.0
0.019 -0.7876347303390503 0.4828338623046875 -1.6276724636554718e-05 -2.101995050907135e-06 0.0 0.0 0.0 0.0
0.02 -0.6793776154518127 0.6163895130157471 -1.9905157387256622e-05 1.2035481631755829e-05 0.0 0.0 0.0 0.0
0.021 -0.5485057830810547 0.7279589772224426 -5.09088858962059e-05 3.0035153031349182e-06 0.0 0.0 0.0 0.0
0.022 -0.3995031416416168 0.811863899230957 -5.8642588555812836e-05 3.92301008105278e-05 0.0 0.0 0.0 0.0
0.023 -0.23741990327835083 0.867081880569458 -4.704110324382782e-06 6.091594696044922e-05 0.0 0.0 0.0 0.0
0.024 -0.06755583733320236 0.8898727297782898 -4.664994776248932e-05 9.385403245687485e-05 0.0 0.0 0.0 0.0
0.025 0.10405246168375015 0.8803245425224304 0.00017680320888757706 0.00033103302121162415 0.0 0.0 0.0 0.0
0.026 0.2709638178348541 0.8396150469779968 0.00018509291112422943 -0.00014964863657951355 0.0 0.0 0.0 0.0
0.027 0.42736902832984924 0.7664691209793091 7.97593966126442e-05 -0.00013202521950006485 0.0 0.0 0.0 0.0
0.028 0.5676295757293701 0.6656765937805176 2.5698915123939514e-05 -0.0001046871766448021 0.0 0.0 0.0 0.0
0.029 0.6851580142974854 0.5388765931129456 1.985859125852585e-05 -0.0001193387433886528 0.0 0.0 0.0 0.0
0.03 0.7763330340385437 0.39150184392929077 -4.6780332922935486e-05 -0.00014352891594171524 0.0 0.0 0.0 0.0
0.031 0.8378880023956299 0.2287285476922989 -0.00021348241716623306 4.740804433822632e-05 0.0 0.0 0.0 0.0
0.032 0.8660351037979126 0.05610506236553192 -1.8075108528137207e-05 7.165875285863876e-05 0.0 0.0 0.0 0.0
0.033 0.8610706329345703 -0.11826577037572861 -1.2864358723163605e-05 1.714564859867096e-05 0.0 0.0 0.0 0.0
0.034 0.8208556175231934 -0.2876443564891815 -2.8507784008979797e-06 -1.0964460670948029e-05 0.0 0.0 0.0 0.0
0.035 0.7504358291625977 -0.44470250606536865 -5.452893674373627e-06 2.3068860173225403e-06 0.0 0.0 0.0 0.0
0.036 0.6502707004547119 -0.5853609442710876 -1.267995685338974e-05 -1.2152828276157379e-05 0.0 0.0 0.0 0.0
0.037 0.52591472864151 -0.7034061551094055 -2.4526380002498627e-05 -9.445473551750183e-06 0.0 0.0 0.0 0.0
0.038 0.38194775581359863 -0.7952195405960083 -2.2508203983306885e-05 -1.6575679183006287e-05 0.0 0.0 0.0 0.0
0.039 0.2230246365070343 -0.8562824726104736 -2.389959990978241e-05 -4.048831760883331e-05 0.0 0.0 0.0 0.0
0.04 0.05621862784028053 -0.8874558210372925 -4.647299647331238e-06 -1.339241862297058e-06 0.0 0.0 0.0 0.0
0.041 -0.11287516355514526 -0.8841413855552673 5.383044481277466e-07 6.85080885887146e-06 0.0 0.0 0.0 0.0
0.042 -0.2766188681125641 -0.8502355217933655 -9.013339877128601e-06 -6.0480087995529175e-06 0.0 0.0 0.0 0.0
0.043 -0.4306628704071045 -0.7850205898284912 -1.0623596608638763e-05 2.142135053873062e-05 0.0 0.0 0.0 0.0
0.044 -0.5686444640159607 -0.6933728456497192 -1.5504658222198486e-05 1.3537704944610596e-05 0.0 0.0 0.0 0.0
0.045 -0.6865631341934204 -0.5771861672401428 -7.251277565956116e-06 -1.4917925000190735e-05 0.0 0.0 0.0 0.0
0.046 -0.7798506617546082 -0.4413445293903351 1.64862722158432e-05 3.631599247455597e-05 0.0 0.0 0.0 0.0
0.047 -0.8461917638778687 -0.29181432723999023 1.4273449778556824e-05 2.5620684027671814e-05 0.0 0.0 0.0 0.0
0.048 -0.8817862272262573 -0.13397426903247833 1.527089625597e-05 2.643745392560959e-05 0.0 0.0 0.0 0.0
0.049 -0.8897109031677246 0.026846973225474358 5.32073900103569e-05 4.718359559774399e-05 0.0 0.0 0.0 0.0
0.05 -0.8650635480880737 0.1877574920654297 0.00011033937335014343 3.9822421967983246e-05 0.0 0.0 0.0 0.0
0.051 -0.8132337331771851 0.34183865785598755 5.084089934825897e-05 -8.612778037786484e-05 0.0 0.0 0.0 0.0
0.052 -0.7314673066139221 0.4826417565345764 -1.6765668988227844e-05 -5.723442882299423e-05 0.0 0.0 0.0 0.0
0.053 -0.6245273947715759 0.6069099307060242 -1.4044344425201416e-06 -2.6265159249305725e-05 0.0 0.0 0.0 0.0
0.054 -0.4962271451950073 0.7075663208961487 1.7955899238586426e-06 -8.845701813697815e-06 0.0 0.0 0.0 0.0
0.055 -0.35097452998161316 0.7834038734436035 3.1245872378349304e-06 -2.4660490453243256e-05 0.0 0.0 0.0 0.0
0.056 -0.1938970983028412 0.8286334276199341 -2.7094967663288116e-05 -2.2516585886478424e-05 0.0 0.0 0.0 0.0
0.057 -0.030678916722536087 0.8431849479675293 -5.467794835567474e-06 -7.635913789272308e-06 0.0 0.0 0.0 0.0
0.058 0.13246837258338928 0.8267775177955627 -1.5478581190109253e-05 -4.519708454608917e-06 0.0 0.0 0.0 0.0
0.059 0.2889552414417267 0.7798436880111694 3.4673139452934265e-06 1.4460645616054535e-05 0.0 0.0 0.0 0.0
0.06 0.4333517551422119 0.7035233974456787 2.902001142501831e-06 1.0654330253601074e-05 0.0 0.0 0.0 0.0
0.061 0.5615214109420776 0.5999767780303955 4.024244844913483e-06 9.745359420776367e-06 0.0 0.0 0.0 0.0
0.062 0.667180597782135 0.47579169273376465 -8.942559361457825e-06 -1.1531636118888855e-05 0.0 0.0 0.0 0.0
0.063 0.7462551593780518 0.3314831554889679 -2.5591813027858734e-05 -1.1938624083995819e-05 0.0 0.0 0.0 0.0
0.064 0.7959387302398682 0.17544662952423096 -1.2051314115524292e-05 -2.1867454051971436e-06 0.0 0.0 0.0 0.0
0.065 0.8150657415390015 0.01142756175249815 4.044733941555023e-06 -1.266133040189743e-05 0.0 0.0 0.0 0.0
0.066 0.8015099763870239 -0.15217982232570648 2.2623687982559204e-05 7.36583024263382e-06 0.0 0.0 0.0 0.0
0.067 0.7576897144317627 -0.30820608139038086 9.696930646896362e-06 5.98561018705368e-06 0.0 0.0 0.0 0.0
0.068 0.6843814849853516 -0.45248857140541077 1.492910087108612e-06 1.3294629752635956e-05 0.0 0.0 0.0 0.0
0.069 0.5867971181869507 -0.5798888206481934 -5.681067705154419e-08 -4.473142325878143e-06 0.0 0.0 0.0 0.0
0.07 0.4664120674133301 -0.6852742433547974 4.1602179408073425e-06 -2.0881183445453644e-05 0.0 0.0 0.0 0.0
0.071 0.32861146330833435 -0.7664700150489807 1.5564262866973877e-05 8.977949619293213e-06 0.0 0.0 0.0 0.0
0.072 0.17854231595993042 -0.8189074993133545 2.461206167936325e-05 1.9756145775318146e-05 0.0 0.0 0.0 0.0
0.073 0.021819692105054855 -0.8429810404777527 1.5933997929096222e-05 1.4919787645339966e-05 0.0 0.0 0.0 0.0
0.074 -0.13578665256500244 -0.8371638059616089 -3.2605603337287903e-06 2.1716579794883728e-05 0.0 0.0 0.0 0.0
0.075 -0.288234144449234 -0.8010156750679016 2.9291026294231415e-05 6.259419023990631e-06 0.0 0.0 0.0 0.0
0.076 -0.4322773218154907 -0.7373872399330139 2.7105212211608887e-05 -7.770024240016937e-06 0.0 0.0 0.0 0.0
0.077 -0.5604192018508911 -0.6481573581695557 2.1626241505146027e-05 -1.2705102562904358e-05 0.0 0.0 0.0 0.0
0.078 -0.6700327396392822 -0.537039041519165 4.642549902200699e-05 -1.0141171514987946e-05 0.0 0.0 0.0 0.0
0.079 -0.7555869221687317 -0.40784183144569397 6.523914635181427e-06 -3.1538307666778564e-05 0.0 0.0 0.0 0.0
0.08 -0.8163144588470459 -0.2657284438610077 4.471279680728912e-06 -4.1534192860126495e-05 0.0 0.0 0.0 0.0
0.081 -0.8491226434707642 -0.11529447883367538 -1.420639455318451e-05 -5.290471017360687e-05 0.0 0.0 0.0 0.0
0.082 -0.8535704016685486 0.0397159643471241 -2.362579107284546e-05 -6.532669067382812e-05 0.0 0.0 0.0 0.0
0.083 -0.8291324377059937 0.19365796446800232 -4.8908405005931854e-05 -6.819702684879303e-05 0.0 0.0 0.0 0.0
0.084 -0.7754542231559753 0.3409048616886139 -8.6979940533638e-05 -6.770063191652298e-05 0.0 0.0 0.0 0.0
0.085 -0.6947884559631348 0.47545841336250305 -0.0001088455319404602 -5.7528726756572723e-05 0.0 0.0 0.0 0.0
0.086 -0.5898805856704712 0.5918751955032349 -0.00013118889182806015 -6.469897925853729e-06 0.0 0.0 0.0 0.0
0.087 -0.4645034372806549 0.6871543526649475 -0.00011793524026870728 3.739260137081146e-05 0.0 0.0 0.0 0.0
0.088 -0.32253193855285645 0.7571181058883667 -0.00012226495891809464 2.4558044970035553e-05 0.0 0.0 0.0 0.0
0.089 -0.170212522149086 0.7962124943733215 -0.00015354249626398087 0.00011795200407505035 0.0 0.0 0.0 0.0
0.09 -0.01253853365778923 0.8069547414779663 -0.00011137686669826508 0.00016840174794197083 0.0 0.0 0.0 0.0
0.091 0.12494123727083206 0.7824704051017761 -1.8225982785224915e-05 0.0002437792718410492 0.0 0.0 0.0 0.0
0.092 0.2741709053516388 0.7369124889373779 0.00013053510338068008 0.0002405252307653427 0.0 0.0 0.0 0.0
0.093 0.4119797646999359 0.6626327633857727 0.00021565798670053482 0.0001143990084528923 0.0 0.0 0.0 0.0
0.094 0.5329480171203613 0.5636434555053711 0.000239483080804348 -2.1955929696559906e-05 0.0 0.0 0.0 0.0
0.095 0.6329513192176819 0.4423457980155945 0.00013045966625213623 -7.339008152484894e-05 0.0 0.0 0.0 0.0
0.096 0.7078542709350586 0.3039100468158722 6.12577423453331e-05 -9.970180690288544e-05 0.0 0.0 0.0 0.0
0.097 0.7532605528831482 0.15417012572288513 1.6658566892147064e-05 -7.53253698348999e-05 0.0 0.0 0.0 0.0
0.098 0.769287109375 -4.3536536395549774e-05 -2.1146610379219055e-05 -5.9623271226882935e-05 0.0 0.0 0.0 0.0
0.099 0.7556635737419128 -0.15362167358398438 -1.1341646313667297e-05 -2.627260982990265e-05 0.0 0.0 0.0 0.0
0.1 0.7127031683921814 -0.32000744342803955 -1.0261312127113342e-05 -3.7364661693573e-05 0.0 0.0 0.0 0.0
0.101 0.622389018535614 -0.4566628634929657 1.457706093788147e-05 -2.843327820301056e-05 0.0 0.0 0.0 0.0
0.102 0.5204184651374817 -0.5708231925964355 -2.730637788772583e-05 -2.1294690668582916e-05 0.0 0.0 0.0 0.0
0.103 0.4005463719367981 -0.6611798405647278 1.4855526387691498e-05 -2.476479858160019e-05 0.0 0.0 0.0 0.0
0.104 0.2676311731338501 -0.7266033887863159 1.0176561772823334e-05 -3.3202581107616425e-05 0.0 0.0 0.0 0.0
0.105 0.12713578343391418 -0.7654462456703186 1.496635377407074e-06 -1.880340278148651e-05 0.0 0.0 0.0 0.0
0.106 -0.01621381752192974 -0.7765637636184692 2.2125430405139923e-05 -6.425194442272186e-06 0.0 0.0 0.0 0.0
0.107 -0.15665000677108765 -0.7616732120513916 2.0691193640232086e-05 -1.4400109648704529e-05 0.0 0.0 0.0 0.0
0.108 -0.291067510843277 -0.7222304344177246 -1.1902302503585815e-05 1.5955418348312378e-05 0.0 0.0 0.0 0.0
0.109 -0.41440388560295105 -0.6595476269721985 2.213660627603531e-05 -3.6209821701049805e-06 0.0 0.0 0.0 0.0
0.11 -0.5239565372467041 -0.5768648982048035 2.2904016077518463e-05 -2.6569701731204987e-05 0.0 0.0 0.0 0.0
0.111 -0.6167740821838379 -0.4769169092178345 1.1346302926540375e-05 -2.5739893317222595e-05 0.0 0.0 0.0 0.0
0.112 -0.6895973682403564 -0.3623768389225006 1.8154270946979523e-05 -3.239139914512634e-05 0.0 0.0 0.0 0.0
0.113 -0.7418206930160522 -0.23773293197155 2.7105212211608887e-05 -4.192814230918884e-05 0.0 0.0 0.0 0.0
0.114 -0.7710825800895691 -0.10536828637123108 1.4191493391990662e-05 -4.522223025560379e-05 0.0 0.0 0.0 0.0
0.115 -0.7766962647438049 0.03077838383615017 1.3309530913829803e-05 -5.9849582612514496e-05 0.0 0.0 0.0 0.0
0.116 -0.7578611373901367 0.16653768718242645 7.171183824539185e-08 -8.102692663669586e-05 0.0 0.0 0.0 0.0
0.117 -0.7148428559303284 0.29794496297836304 -3.661308437585831e-05 -7.766671478748322e-05 0.0 0.0 0.0 0.0
0.118 -0.6480797529220581 0.42045724391937256 -6.276555359363556e-05 -8.80509614944458e-05 0.0 0.0 0.0 0.0
0.119 -0.5587741732597351 0.5299244523048401 -9.67998057603836e-05 -5.7938508689403534e-05 0.0 0.0 0.0 0.0
0.12 -0.44922125339508057 0.6218776702880859 -0.00012472271919250488 -2.68593430519104e-05 0.0 0.0 0.0 0.0
0.121 -0.3228894770145416 0.6929236650466919 -0.00012522563338279724 -5.031004548072815e-06 0.0 0.0 0.0 0.0
0.122 -0.18333907425403595 0.7386152744293213 -0.0001471545547246933 6.900075823068619e-05 0.0 0.0 0.0 0.0
0.123 -0.03588121011853218 0.7564622163772583 -0.00010136887431144714 0.00010286923497915268 0.0 0.0 0.0 0.0
0.124 0.11415686458349228 0.7453595399856567 -6.517395377159119e-05 0.00011290516704320908 0.0 0.0 0.0 0.0
0.125 0.25997593998908997 0.7039516568183899 -4.297308623790741e-05 0.00011348538100719452 0.0 0.0 0.0 0.0
0.126 0.3955174684524536 0.6335992813110352 8.692033588886261e-06 0.00012331176549196243 0.0 0.0 0.0 0.0
0.127 0.5147319436073303 0.5369093418121338 7.75512307882309e-06 4.520174115896225e-05 0.0 0.0 0.0 0.0
0.128 0.6121150851249695 0.4183025062084198 -1.4356337487697601e-05 4.8833899199962616e-05 0.0 0.0 0.0 0.0
0.129 0.683092474937439 0.2807941138744354 -5.68293035030365e-06 8.76113772392273e-05 0.0 0.0 0.0 0.0
0.13 0.7248112559318542 0.13362565636634827 -2.1362677216529846e-05 0.0001087067648768425 0.0 0.0 0.0 0.0
0.131 0.7358385920524597 -0.01875399425625801 1.2072734534740448e-05 0.00015285611152648926 0.0 0.0 0.0 0.0
0.132 0.7158480882644653 -0.16832534968852997 8.673407137393951e-05 0.00019421055912971497 0.0 0.0 0.0 0.0
0.133 0.6664720177650452 -0.30980056524276733 0.0002206936478614807 0.0001595495268702507 0.0 0.0 0.0 0.0
0.134 0.5924603343009949 -0.4370085299015045 0.0003360966220498085 7.493793964385986e-05 0.0 0.0 0.0 0.0
0.135 0.49589818716049194 -0.5457656383514404 0.00031573791056871414 -0.0001707533374428749 0.0 0.0 0.0 0.0
0.136 0.382013738155365 -0.6336577534675598 9.730923920869827e-05 -0.00031280703842639923 0.0 0.0 0.0 0.0
0.137 0.25481855869293213 -0.6973384022712708 -5.8591365814208984e-05 -0.00021939165890216827 0.0 0.0 0.0 0.0
0.138 0.12019579857587814 -0.7351627945899963 -0.00012087076902389526 -0.00012781284749507904 0.0 0.0 0.0 0.0
0.139 -0.018197201192378998 -0.746785044670105 -0.00013626553118228912 -5.522835999727249e-05 0.0 0.0 0.0 0.0
0.14 -0.15400852262973785 -0.7340303063392639 -0.00011607538908720016 6.351619958877563e-07 0.0 0.0 0.0 0.0
0.141 -0.2843138873577118 -0.6963105797767639 -8.918996900320053e-05 4.9962662160396576e-05 0.0 0.0 0.0 0.0
0.142 -0.4050334393978119 -0.6364744901657104 -5.728006362915039e-05 7.717963308095932e-05 0.0 0.0 0.0 0.0
0.143 -0.512249767780304 -0.5567514300346375 -1.4222227036952972e-05 8.018221706151962e-05 0.0 0.0 0.0 0.0
0.144 -0.6030430793762207 -0.45905250310897827 3.4436583518981934e-05 7.199682295322418e-05 0.0 0.0 0.0 0.0
0.145 -0.6751673817634583 -0.3471769392490387 5.599763244390488e-05 3.536045551300049e-05 0.0 0.0 0.0 0.0
0.146 -0.7265427112579346 -0.22380134463310242 8.727423846721649e-05 -1.8578022718429565e-05 0.0 0.0 0.0 0.0
0.147 -0.7547985911369324 -0.09303896129131317 6.745569407939911e-05 -2.2473745048046112e-05 0.0 0.0 0.0 0.0
0.148 -0.7591124176979065 0.04165863245725632 5.287490785121918e-05 -5.1174312829971313e-05 0.0 0.0 0.0 0.0
0.149 -0.7389419078826904 0.17659494280815125 7.024034857749939e-06 -6.212480366230011e-05 0.0 0.0 0.0 0.0
0.15 -0.6940083503723145 0.3056494891643524 -1.0124407708644867e-05 -6.606336683034897e-05 0.0 0.0 0.0 0.0
0.151 -0.6248409152030945 0.426130086183548 -2.1685846149921417e-05 -2.5463290512561798e-05 0.0 0.0 0.0 0.0
0.152 -0.533701479434967 0.5324306488037109 -3.528781235218048e-05 -4.9266964197158813e-05 0.0 0.0 0.0 0.0
0.153 -0.42249876260757446 0.6203638315200806 -2.185814082622528e-05 -1.7389655113220215e-05 0.0 0.0 0.0 0.0
0.154 -0.2949278950691223 0.6861163377761841 -3.513786941766739e-05 -3.5317614674568176e-05 0.0 0.0 0.0 0.0
0.155 -0.1559799760580063 0.7263758778572083 -1.607835292816162e-05 -6.2622129917144775e-06 0.0 0.0 0.0 0.0
0.156 -0.010298386216163635 0.7384311556816101 -3.864709287881851e-05 -1.955963671207428e-05 0.0 0.0 0.0 0.0
0.157 0.13552479445934296 0.7209473252296448 -3.328360617160797e-05 -6.995163857936859e-06 0.0 0.0 0.0 0.0
0.158 0.2767893373966217 0.6746320724487305 -4.2156316339969635e-05 -1.089833676815033e-05 0.0 0.0 0.0 0.0
0.159 0.40536734461784363 0.6006060838699341 -3.446359187364578e-05 -1.5702098608016968e-06 0.0 0.0 0.0 0.0
0.16 0.5165376663208008 0.5023310780525208 -2.218969166278839e-05 6.021931767463684e-06 0.0 0.0 0.0 0.0
0.161 0.6058406829833984 0.3833419680595398 -1.8394552171230316e-05 1.3877637684345245e-05 0.0 0.0 0.0 0.0
0.162 0.6686340570449829 0.2500157952308655 -5.60171902179718e-05 -4.1937455534935e-06 0.0 0.0 0.0 0.0
0.163 0.7036069631576538 0.10713376849889755 -2.7948059141635895e-05 -2.132728695869446e-06 0.0 0.0 0.0 0.0
0.164 0.7094802260398865 -0.03886963054537773 -3.682449460029602e-05 2.3877248167991638e-05 0.0 0.0 0.0 0.0
0.165 0.6862478852272034 -0.18110018968582153 -1.590140163898468e-05 2.197548747062683e-05 0.0 0.0 0.0 0.0
0.166 0.6366286873817444 -0.314720094203949 -1.2079253792762756e-05 3.03611159324646e-05 0.0 0.0 0.0 0.0
0.167 0.5635825991630554 -0.43509727716445923 1.1754222214221954e-05 3.565847873687744e-05 0.0 0.0 0.0 0.0
0.168 0.46936091780662537 -0.5378604531288147 2.061016857624054e-05 2.7274712920188904e-05 0.0 0.0 0.0 0.0
0.169 0.3591335415840149 -0.6197248101234436 2.9597431421279907e-06 1.7869286239147186e-05 0.0 0.0 0.0 0.0
0.17 0.23706233501434326 -0.6788694858551025 3.0681490898132324e-05 1.3979151844978333e-06 0.0 0.0 0.0 0.0
0.171 0.10711298137903214 -0.7146507501602173 -1.473166048526764e-05 -4.844740033149719e-06 0.0 0.0 0.0 0.0
0.172 -0.02546328492462635 -0.7257022857666016 -5.0729140639305115e-06 1.1820346117019653e-05 0.0 0.0 0.0 0.0
0.173 -0.1574767380952835 -0.7125777006149292 4.201196134090424e-06 1.3385899364948273e-05 0.0 0.0 0.0 0.0
0.174 -0.2835715413093567 -0.6757722496986389 -2.2619962692260742e-05 6.6300854086875916e-06 0.0 0.0 0.0 0.0
0.175 -0.4007011950016022 -0.6178650259971619 -1.7136335372924805e-07 1.244526356458664e-05 0.0 0.0 0.0 0.0
0.176 -0.5053603053092957 -0.5398890376091003 -2.234615385532379e-05 -3.0193477869033813e-06 0.0 0.0 0.0 0.0
0.177 -0.5947607159614563 -0.44375407695770264 -2.1793879568576813e-05 3.0453316867351532e-05 0.0 0.0 0.0 0.0
0.178 -0.6655809879302979 -0.33293530344963074 -2.9083341360092163e-05 4.312489181756973e-05 0.0 0.0 0.0 0.0
0.179 -0.715472400188446 -0.21064923703670502 -4.901643842458725e-05 8.301809430122375e-05 0.0 0.0 0.0 0.0
0.18 -0.7422570586204529 -0.08033536374568939 1.083221286535263e-05 0.0001139659434556961 0.0 0.0 0.0 0.0
0.181 -0.7446470856666565 0.05339981988072395 5.394592881202698e-05 0.0001058848574757576 0.0 0.0 0.0 0.0
0.182 -0.7222537994384766 0.18711376190185547 8.01263377070427e-05 8.096080273389816e-05 0.0 0.0 0.0 0.0
0.183 -0.6745416522026062 0.31437113881111145 0.00016133207827806473 6.27683475613594e-05 0.0 0.0 0.0 0.0
0.184 -0.6030240654945374 0.432927668094635 0.00016451720148324966 -2.4281442165374756e-05 0.0 0.0 0.0 0.0
0.185 -0.5089772343635559 0.5362188220024109 0.00012626498937606812 -0.00010364782065153122 0.0 0.0 0.0 0.0
