!Created with skrf (http://scikit-rf.org).
# GHz S RI R 50.0 
!freq ReS11 ImS11 ReS21 ImS21 ReS12 ImS12 ReS22 ImS22
0.001 0.997002363204956 -0.3595830500125885 7.22864642739296e-05 0.0001500071957707405 0.0 0.0 0.0 0.0
0.002 0.7462438344955444 -0.6106879115104675 0.00011340249329805374 -7.048714905977249e-05 0.0 0.0 0.0 0.0
0.003 0.4364566206932068 -0.775270402431488 2.5941990315914154e-05 5.823560059070587e-05 0.0 0.0 0.0 0.0
0.004 0.08545742183923721 -0.8059957027435303 0.0002528754994273186 -8.10353085398674e-05 0.0 0.0 0.0 0.0
0.005 -0.22847113013267517 -0.6627019643783569 0.00013341661542654037 -0.00024814996868371964 0.0 0.0 0.0 0.0
0.006 -0.4697771668434143 -0.3991621732711792 0.00017242692410945892 -1.0608695447444916e-05 0.0 0.0 0.0 0.0
0.007 -0.5582341551780701 -0.049500200897455215 -0.00010260753333568573 1.723412424325943e-05 0.0 0.0 0.0 0.0
0.008 -0.48122385144233704 0.28641054034233093 7.432978600263596e-05 -0.00013032183051109314 0.0 0.0 0.0 0.0
0.009 -0.27057626843452454 0.5349794626235962 2.4505890905857086e-05 -8.991360664367676e-05 0.0 0.0 0.0 0.0
0.01 0.0025037582963705063 0.665429413318634 -7.351953536272049e-05 -0.0001015951856970787 0.0 0.0 0.0 0.0
0.011 0.2789221405982971 0.6730269193649292 -0.00015940889716148376 -1.3867393136024475e-05 0.0 0.0 0.0 0.0
0.012 0.5138695240020752 0.5889495611190796 1.7037615180015564e-05 2.5908462703227997e-05 0.0 0.0 0.0 0.0
0.013 0.6950715184211731 0.4509057402610779 0.00013580452650785446 7.314514368772507e-05 0.0 0.0 0.0 0.0
0.014 0.8120889663696289 0.2745872437953949 0.0002076365053653717 0.00011665374040603638 0.0 0.0 0.0 0.0
0.015 0.8711095452308655 0.09240815043449402 -8.800346404314041e-05 5.810800939798355e-05 0.0 0.0 0.0 0.0
0.016 0.8790848255157471 -0.08906367421150208 -4.392396658658981e-05 -5.5614858865737915e-05 0.0 0.0 0.0 0.0
0.017 0.8522261381149292 -0.25180307030677795 -7.216818630695343e-05 8.928775787353516e-05 0.0 0.0 0.0 0.0
0.018 0.7902427911758423 -0.39844176173210144 0.00011414196342229843 2.714991569519043e-05 0.0 0.0 0.0 0.0
0.019 0.7021700739860535 -0.5233908891677856 5.935225635766983e-05 7.642526179552078e-05 0.0 0.0 0.0 0.0
0.02 0.5959295630455017 -0.6191149950027466 6.597861647605896e-05 -6.006099283695221e-06 0.0 0.0 0.0 0.0
0.021 0.4837620258331299 -0.6932741403579712 6.448477506637573e-06 6.641261279582977e-05 0.0 0.0 0.0 0.0
0.022 0.35997381806373596 -0.7450535893440247 0.00011915154755115509 -3.388337790966034e-05 0.0 0.0 0.0 0.0
0.023 0.23157139122486115 -0.7702448964118958 0.00021439697593450546 -0.00011863093823194504 0.0 0.0 0.0 0.0
0.024 0.10008104145526886 -0.7785379886627197 3.368593752384186e-05 -0.000234103761613369 0.0 0.0 0.0 0.0
0.025 -0.023381821811199188 -0.7563608884811401 -1.1818483471870422e-05 -5.4105184972286224e-05 0.0 0.0 0.0 0.0
0.026 -0.13869640231132507 -0.7198343873023987 3.204960376024246e-05 9.609851986169815e-05 0.0 0.0 0.0 0.0
0.027 -0.24918389320373535 -0.6669251918792725 6.38989731669426e-05 -9.719561785459518e-05 0.0 0.0 0.0 0.0
0.028 -0.3514607846736908 -0.5922250747680664 6.536860018968582e-05 -0.00011532194912433624 0.0 0.0 0.0 0.0
0.029 -0.43538370728492737 -0.4991586208343506 -2.8733164072036743e-05 -0.00017615500837564468 0.0 0.0 0.0 0.0
0.03 -0.5025897026062012 -0.3951146602630615 -1.0504387319087982e-05 2.4884939193725586e-06 0.0 0.0 0.0 0.0
0.031 -0.5518186688423157 -0.28171733021736145 -6.377231329679489e-05 3.499723970890045e-05 0.0 0.0 0.0 0.0
0.032 -0.5847013592720032 -0.15843993425369263 -7.282570004463196e-05 -0.00023386720567941666 0.0 0.0 0.0 0.0
0.033 -0.5884113907814026 -0.032323408871889114 -4.7334469854831696e-05 2.344604581594467e-05 0.0 0.0 0.0 0.0
0.034 -0.5754218697547913 0.09825798869132996 0.00015883706510066986 -8.216127753257751e-06 0.0 0.0 0.0 0.0
0.035 -0.5345746874809265 0.227261021733284 5.138479173183441e-05 -6.161816418170929e-05 0.0 0.0 0.0 0.0
0.036 -0.4642970561981201 0.3497796058654785 -0.00023598317056894302 6.574951112270355e-05 0.0 0.0 0.0 0.0
0.037 -0.37401583790779114 0.4568389654159546 -0.00015290174633264542 9.660981595516205e-05 0.0 0.0 0.0 0.0
0.038 -0.2572326064109802 0.5446503758430481 -2.3599714040756226e-06 0.00011477898806333542 0.0 0.0 0.0 0.0
0.039 -0.12490164488554001 0.6091268062591553 0.00012136716395616531 7.159635424613953e-05 0.0 0.0 0.0 0.0
0.04 0.025336377322673798 0.6450943946838379 -0.0001920638605952263 -5.505327135324478e-05 0.0 0.0 0.0 0.0
0.041 0.18118318915367126 0.6479289531707764 -8.419808000326157e-05 4.07462939620018e-05 0.0 0.0 0.0 0.0
0.042 0.3349570333957672 0.6129667162895203 -0.00011289212852716446 -5.224812775850296e-05 0.0 0.0 0.0 0.0
0.043 0.4806433916091919 0.5419479012489319 -7.569696754217148e-05 9.287334978580475e-05 0.0 0.0 0.0 0.0
0.044 0.6067623496055603 0.44106215238571167 3.548339009284973e-07 -9.988434612751007e-06 0.0 0.0 0.0 0.0
0.045 0.7103132605552673 0.30967745184898376 -3.308616578578949e-05 0.00019128154963254929 0.0 0.0 0.0 0.0
0.046 0.7741599678993225 0.15938617289066315 -5.2167102694511414e-05 7.827673107385635e-05 0.0 0.0 0.0 0.0
0.047 0.8036060929298401 0.001390267163515091 -0.00016164779663085938 3.1682662665843964e-05 0.0 0.0 0.0 0.0
0.048 0.7965416312217712 -0.16121967136859894 7.196981459856033e-05 8.392240852117538e-05 0.0 0.0 0.0 0.0
0.049 0.7515403032302856 -0.3097226619720459 -1.6005709767341614e-05 0.0001413840800523758 0.0 0.0 0.0 0.0
0.05 0.6814066171646118 -0.443462997674942 4.67151403427124e-05 0.00041172467172145844 0.0 0.0 0.0 0.0
0.051 0.5800286531448364 -0.5611485838890076 8.665584027767181e-05 9.781494736671448e-05 0.0 0.0 0.0 0.0
0.052 0.46108293533325195 -0.6472761631011963 8.692871779203415e-05 -0.00015100743621587753 0.0 0.0 0.0 0.0
0.053 0.33103424310684204 -0.7040088772773743 -8.109956979751587e-05 -7.363036274909973e-05 0.0 0.0 0.0 0.0
0.054 0.19858841598033905 -0.7349441647529602 4.385598003864288e-05 4.3190084397792816e-05 0.0 0.0 0.0 0.0
0.055 0.06637310236692429 -0.7436414957046509 4.9802474677562714e-05 8.51992517709732e-05 0.0 0.0 0.0 0.0
0.056 -0.06622955203056335 -0.7211231589317322 8.884351700544357e-05 6.589759141206741e-05 0.0 0.0 0.0 0.0
0.057 -0.18810710310935974 -0.675244927406311 -6.727594882249832e-05 -9.216554462909698e-05 0.0 0.0 0.0 0.0
0.058 -0.2960004210472107 -0.6096243262290955 6.293505430221558e-05 -4.8675574362277985e-05 0.0 0.0 0.0 0.0
0.059 -0.38642260432243347 -0.5300930738449097 -0.00015479978173971176 -4.169158637523651e-05 0.0 0.0 0.0 0.0
0.06 -0.4670577049255371 -0.4352957606315613 8.200574666261673e-05 -0.00010183453559875488 0.0 0.0 0.0 0.0
0.061 -0.5227911472320557 -0.3297046422958374 6.43683597445488e-05 1.759268343448639e-06 0.0 0.0 0.0 0.0
0.062 -0.559087336063385 -0.21660077571868896 8.770078420639038e-05 -7.737986743450165e-05 0.0 0.0 0.0 0.0
0.063 -0.5787153244018555 -0.09666962921619415 -0.00013329647481441498 -0.0002467213198542595 0.0 0.0 0.0 0.0
0.064 -0.5718332529067993 0.023346876725554466 -0.0002922285348176956 -0.00025628600269556046 0.0 0.0 0.0 0.0
0.065 -0.5450801253318787 0.1378272920846939 -6.325915455818176e-05 -2.833455801010132e-05 0.0 0.0 0.0 0.0
0.066 -0.5017977356910706 0.25201115012168884 -1.3775192201137543e-05 5.496665835380554e-06 0.0 0.0 0.0 0.0
0.067 -0.4357568323612213 0.35564520955085754 -6.167683750391006e-05 -2.4180859327316284e-05 0.0 0.0 0.0 0.0
0.068 -0.34841611981391907 0.44744834303855896 -0.00034102238714694977 -0.00014925748109817505 0.0 0.0 0.0 0.0
0.069 -0.24491867423057556 0.5206027030944824 7.774773985147476e-05 -0.00014747492969036102 0.0 0.0 0.0 0.0
0.07 -0.1278071254491806 0.5735325813293457 3.7206336855888367e-06 3.5004690289497375e-05 0.0 0.0 0.0 0.0
0.071 -0.00038460642099380493 0.6054134964942932 1.4201737940311432e-05 0.00011410657316446304 0.0 0.0 0.0 0.0
0.072 0.13310858607292175 0.6094655394554138 -8.572358638048172e-05 -2.5136396288871765e-05 0.0 0.0 0.0 0.0
0.073 0.2668910026550293 0.5871516466140747 6.448011845350266e-05 9.08970832824707e-07 0.0 0.0 0.0 0.0
0.074 0.3999641537666321 0.535624623298645 4.797894507646561e-05 0.0001874798908829689 0.0 0.0 0.0 0.0
0.075 0.5157426595687866 0.45528286695480347 6.0337595641613007e-05 5.431193858385086e-05 0.0 0.0 0.0 0.0
0.076 0.6151500344276428 0.353357195854187 2.0023435354232788e-07 0.00018898677080869675 0.0 0.0 0.0 0.0
0.077 0.6920070052146912 0.22699320316314697 0.00019695516675710678 4.151277244091034e-05 0.0 0.0 0.0 0.0
0.078 0.7397136688232422 0.08733873814344406 8.612498641014099e-05 -6.142538040876389e-05 0.0 0.0 0.0 0.0
0.079 0.7569836974143982 -0.06032199785113335 9.872112423181534e-05 0.00015985872596502304 0.0 0.0 0.0 0.0
0.08 0.7380167245864868 -0.20961591601371765 0.00016730651259422302 3.555789589881897e-06 0.0 0.0 0.0 0.0
0.081 0.6854564547538757 -0.3485153317451477 0.00016008224338293076 -9.14745032787323e-05 0.0 0.0 0.0 0.0
0.082 0.6063867807388306 -0.47403761744499207 1.4910474419593811e-05 7.05420970916748e-05 0.0 0.0 0.0 0.0
0.083 0.5021330714225769 -0.5724273920059204 0.0001101447269320488 8.866563439369202e-05 0.0 0.0 0.0 0.0
0.084 0.38785383105278015 -0.6487299203872681 0.00022023450583219528 5.9128738939762115e-05 0.0 0.0 0.0 0.0
0.085 0.25729718804359436 -0.6989899277687073 8.08006152510643e-05 -0.00014502182602882385 0.0 0.0 0.0 0.0
0.086 0.11937712877988815 -0.7183326482772827 -4.134327173233032e-05 -0.00014708749949932098 0.0 0.0 0.0 0.0
0.087 -0.01606117933988571 -0.7091023921966553 -8.196942508220673e-05 -0.00020319130271673203 0.0 0.0 0.0 0.0
0.088 -0.14143608510494232 -0.6752777695655823 2.15945765376091e-05 -0.0001994473859667778 0.0 0.0 0.0 0.0
0.089 -0.255837619304657 -0.6182324886322021 -0.00028147920966148376 -0.00019832607358694077 0.0 0.0 0.0 0.0
0.09 -0.35636353492736816 -0.5414783954620361 9.679701179265976e-05 -0.00015903450548648834 0.0 0.0 0.0 0.0
0.091 -0.43723952770233154 -0.4507351517677307 -0.0001345491036772728 3.422051668167114e-05 0.0 0.0 0.0 0.0
0.092 -0.49726083874702454 -0.346670001745224 -0.0002979189157485962 -3.635231405496597e-05 0.0 0.0 0.0 0.0
0.093 -0.537808358669281 -0.23576727509498596 -9.74731519818306e-05 -4.70820814371109e-05 0.0 0.0 0.0 0.0
0.094 -0.5582816004753113 -0.12335284054279327 -9.193737059831619e-05 -3.21362167596817e-05 0.0 0.0 0.0 0.0
0.095 -0.5613937973976135 -0.007865305058658123 -3.1138770282268524e-05 6.968807429075241e-05 0.0 0.0 0.0 0.0
0.096 -0.5361127257347107 0.10676663368940353 -0.00021189823746681213 0.00014546234160661697 0.0 0.0 0.0 0.0
0.097 -0.49851033091545105 0.2175581008195877 0.00011881440877914429 5.9361569583415985e-05 0.0 0.0 0.0 0.0
0.098 -0.4386521875858307 0.3174903094768524 -5.804002285003662e-05 -4.5495107769966125e-05 0.0 0.0 0.0 0.0
0.099 -0.35930705070495605 0.4025338590145111 -6.603356450796127e-05 8.35563987493515e-05 0.0 0.0 0.0 0.0
0.1 -0.2624928951263428 0.48630115389823914 6.148871034383774e-05 8.950196206569672e-05 0.0 0.0 0.0 0.0
0.101 -0.15773412585258484 0.5145640969276428 -0.00010157469660043716 1.6400590538978577e-06 0.0 0.0 0.0 0.0
0.102 -0.0467369444668293 0.5509376525878906 -1.1303462088108063e-05 0.00010756030678749084 0.0 0.0 0.0 0.0
0.103 0.07065229117870331 0.5664263367652893 -0.0002105729654431343 2.3711472749710083e-06 0.0 0.0 0.0 0.0
0.104 0.19108329713344574 0.558432400226593 6.470363587141037e-05 4.898570477962494e-05 0.0 0.0 0.0 0.0
0.105 0.3127615451812744 0.5241703987121582 -5.793105810880661e-05 0.0001402357593178749 0.0 0.0 0.0 0.0
0.106 0.4266206920146942 0.46736785769462585 -0.0001051565632224083 -9.284820407629013e-05 0.0 0.0 0.0 0.0
0.107 0.5298364162445068 0.3844588100910187 9.588897228240967e-06 0.00012236088514328003 0.0 0.0 0.0 0.0
0.108 0.614078164100647 0.2808714509010315 -0.00018377788364887238 -0.0001223776489496231 0.0 0.0 0.0 0.0
0.109 0.6754462122917175 0.1579703539609909 8.136499673128128e-05 0.00013150088489055634 0.0 0.0 0.0 0.0
0.11 0.7085322141647339 0.023576769977808 -3.94163653254509e-05 -6.405171006917953e-05 0.0 0.0 0.0 0.0
0.111 0.7120962142944336 -0.11737403273582458 2.3917295038700104e-05 -2.7923844754695892e-05 0.0 0.0 0.0 0.0
0.112 0.6810747385025024 -0.2537608742713928 3.999471664428711e-05 2.3235566914081573e-05 0.0 0.0 0.0 0.0
0.113 0.6222788095474243 -0.38460639119148254 9.37003642320633e-06 -0.00014097243547439575 0.0 0.0 0.0 0.0
0.114 0.5356278419494629 -0.49373552203178406 2.952292561531067e-06 0.00018805358558893204 0.0 0.0 0.0 0.0
0.115 0.43131890892982483 -0.5817055702209473 7.003918290138245e-05 -3.142841160297394e-05 0.0 0.0 0.0 0.0
0.116 0.3099505305290222 -0.64264976978302 9.53013077378273e-05 8.814968168735504e-05 0.0 0.0 0.0 0.0
0.117 0.18027348816394806 -0.6761581301689148 6.65886327624321e-05 9.06679779291153e-05 0.0 0.0 0.0 0.0
0.118 0.049143798649311066 -0.6803317666053772 3.862194716930389e-06 -4.389230161905289e-05 0.0 0.0 0.0 0.0
0.119 -0.07596459984779358 -0.6582323908805847 3.7943944334983826e-05 -6.074085831642151e-06 0.0 0.0 0.0 0.0
0.12 -0.1900707632303238 -0.6141834259033203 8.591264486312866e-05 2.574268728494644e-05 0.0 0.0 0.0 0.0
0.121 -0.2914910614490509 -0.5477182865142822 0.00012975651770830154 -1.4512799680233002e-05 0.0 0.0 0.0 0.0
0.122 -0.3783729374408722 -0.46432456374168396 -9.230338037014008e-05 -4.908442497253418e-05 0.0 0.0 0.0 0.0
0.123 -0.4429348409175873 -0.3717413544654846 4.5311637222766876e-05 7.557403296232224e-05 0.0 0.0 0.0 0.0
0.124 -0.4915991723537445 -0.2684769332408905 1.1987052857875824e-05 7.912516593933105e-06 0.0 0.0 0.0 0.0
0.125 -0.518242359161377 -0.16323810815811157 -0.0001320037990808487 -4.3021515011787415e-05 0.0 0.0 0.0 0.0
0.126 -0.5259066820144653 -0.05146877095103264 9.310711175203323e-05 -8.102506399154663e-07 0.0 0.0 0.0 0.0
0.127 -0.5120792984962463 0.055147215723991394 1.1733733117580414e-05 -5.049072206020355e-05 0.0 0.0 0.0 0.0
0.128 -0.4833826720714569 0.15685930848121643 0.00016497820615768433 9.909272193908691e-05 0.0 0.0 0.0 0.0
0.129 -0.43452146649360657 0.2526649534702301 4.0300190448760986e-05 1.589301973581314e-05 0.0 0.0 0.0 0.0
0.13 -0.3699409067630768 0.3397521674633026 -0.00014893338084220886 3.556441515684128e-05 0.0 0.0 0.0 0.0
0.131 -0.29194018244743347 0.41248634457588196 9.343679994344711e-05 -6.172433495521545e-05 0.0 0.0 0.0 0.0
0.132 -0.1995965987443924 0.4718506336212158 -0.00011279992759227753 -6.399955600500107e-05 0.0 0.0 0.0 0.0
0.133 -0.09844551235437393 0.512409508228302 3.191176801919937e-05 5.3853727877140045e-05 0.0 0.0 0.0 0.0
0.134 0.009421966038644314 0.5354712605476379 0.00013820268213748932 -5.550030618906021e-05 0.0 0.0 0.0 0.0
0.135 0.12294866144657135 0.5387401580810547 -7.032603025436401e-05 -7.200520485639572e-05 0.0 0.0 0.0 0.0
0.136 0.2371683269739151 0.5190421938896179 -0.00024414341896772385 2.2562220692634583e-05 0.0 0.0 0.0 0.0
0.137 0.3470494747161865 0.4773763120174408 2.4718232452869415e-05 5.35082072019577e-05 0.0 0.0 0.0 0.0
0.138 0.44678929448127747 0.4136618375778198 6.764009594917297e-05 -5.942676216363907e-05 0.0 0.0 0.0 0.0
0.139 0.5362555980682373 0.3283115029335022 -1.5597790479660034e-05 -8.514150977134705e-06 0.0 0.0 0.0 0.0
0.14 0.6071616411209106 0.22730569541454315 7.936730980873108e-06 -4.0032900869846344e-05 0.0 0.0 0.0 0.0
0.141 0.655360758304596 0.11235735565423965 -8.497480303049088e-05 0.0001475093886256218 0.0 0.0 0.0 0.0
0.142 0.6785564422607422 -0.015893999487161636 0.00012157298624515533 6.813649088144302e-05 0.0 0.0 0.0 0.0
0.143 0.6751548051834106 -0.14645694196224213 -3.582518547773361e-05 -4.552677273750305e-05 0.0 0.0 0.0 0.0
0.144 0.6430078148841858 -0.27306506037712097 -3.085751086473465e-05 0.00013391859829425812 0.0 0.0 0.0 0.0
0.145 0.5855837464332581 -0.39143264293670654 0.00013227295130491257 9.797699749469757e-05 0.0 0.0 0.0 0.0
0.146 0.5001937747001648 -0.49096083641052246 -0.00037245918065309525 0.0003043264150619507 0.0 0.0 0.0 0.0
0.147 0.3956609070301056 -0.5747846364974976 0.0001195492222905159 -0.00011858250945806503 0.0 0.0 0.0 0.0
0.148 0.2783883213996887 -0.6283213496208191 -7.890071719884872e-05 -3.398396074771881e-06 0.0 0.0 0.0 0.0
0.149 0.15264850854873657 -0.6604468822479248 7.91456550359726e-05 3.206450492143631e-05 0.0 0.0 0.0 0.0
0.15 0.02491343393921852 -0.6610876321792603 0.00014017242938280106 -0.0001443270593881607 0.0 0.0 0.0 0.0
0.151 -0.09789510816335678 -0.6358378529548645 4.4383108615875244e-05 -0.0001093205064535141 0.0 0.0 0.0 0.0
0.152 -0.21129240095615387 -0.5872790217399597 -3.31168994307518e-05 -7.913727313280106e-05 0.0 0.0 0.0 0.0
0.153 -0.30825865268707275 -0.5176507234573364 0.0001087673008441925 5.769636482000351e-05 0.0 0.0 0.0 0.0
0.154 -0.3905582129955292 -0.4307136833667755 9.520072489976883e-05 -0.00020147953182458878 0.0 0.0 0.0 0.0
0.155 -0.45299938321113586 -0.33382073044776917 -1.003313809633255e-05 -1.637730747461319e-05 0.0 0.0 0.0 0.0
0.156 -0.49240201711654663 -0.22849832475185394 0.00020151212811470032 -3.760773688554764e-05 0.0 0.0 0.0 0.0
0.157 -0.5125961303710938 -0.11799264699220657 0.00016454048454761505 -0.00017987191677093506 0.0 0.0 0.0 0.0
0.158 -0.5116141438484192 -0.005076752044260502 -3.532692790031433e-05 -1.605600118637085e-05 0.0 0.0 0.0 0.0
0.159 -0.48782896995544434 0.09927868098020554 9.283237159252167e-05 -0.00017247069627046585 0.0 0.0 0.0 0.0
0.16 -0.4480900764465332 0.2014034241437912 -1.847837120294571e-05 -2.4635344743728638e-05 0.0 0.0 0.0 0.0
0.161 -0.3905363082885742 0.2891343832015991 -0.00022962316870689392 -4.719197750091553e-05 0.0 0.0 0.0 0.0
0.162 -0.3169980049133301 0.368673175573349 -7.597636431455612e-05 0.00021313223987817764 0.0 0.0 0.0 0.0
0.163 -0.2313353419303894 0.4305688738822937 -0.00011581741273403168 0.00012683682143688202 0.0 0.0 0.0 0.0
0.164 -0.13675850629806519 0.4787931740283966 -9.636301547288895e-05 -8.015893399715424e-06 0.0 0.0 0.0 0.0
0.165 -0.03344164788722992 0.5063344836235046 -0.00020434893667697906 9.371805936098099e-05 0.0 0.0 0.0 0.0
0.166 0.0711669996380806 0.5162825584411621 5.914084613323212e-05 4.1048042476177216e-05 0.0 0.0 0.0 0.0
0.167 0.18002907931804657 0.5065136551856995 -8.701253682374954e-05 -0.00010168086737394333 0.0 0.0 0.0 0.0
0.168 0.2845337986946106 0.47670501470565796 -0.00013228226453065872 0.0001698983833193779 0.0 0.0 0.0 0.0
0.169 0.38362398743629456 0.42590728402137756 -1.1000782251358032e-05 5.111750215291977e-05 0.0 0.0 0.0 0.0
0.17 0.47067269682884216 0.3571368455886841 -0.0001674555242061615 1.990143209695816e-05 0.0 0.0 0.0 0.0
0.171 0.545575737953186 0.2710478901863098 5.240458995103836e-05 3.184471279382706e-05 0.0 0.0 0.0 0.0
0.172 0.6028744578361511 0.1728585660457611 1.1228024959564209e-05 7.12219625711441e-05 0.0 0.0 0.0 0.0
0.173 0.6405665874481201 0.06056980416178703 -4.093628376722336e-05 -5.02588227391243e-05 0.0 0.0 0.0 0.0
0.174 0.6536632180213928 -0.05525599420070648 -0.00011332985013723373 -2.6034191250801086e-05 0.0 0.0 0.0 0.0
0.175 0.6465901732444763 -0.17508713901042938 3.3243559300899506e-05 3.7738122045993805e-05 0.0 0.0 0.0 0.0
0.176 0.6113328337669373 -0.29291611909866333 0.00010304804891347885 1.609325408935547e-05 0.0 0.0 0.0 0.0
0.177 0.5537870526313782 -0.3991628885269165 -0.00010490976274013519 -1.1713244020938873e-05 0.0 0.0 0.0 0.0
0.178 0.4709359109401703 -0.49519962072372437 5.483254790306091e-05 6.802007555961609e-05 0.0 0.0 0.0 0.0
0.179 0.37123042345046997 -0.5685237646102905 -8.041877299547195e-05 -3.0118972063064575e-06 0.0 0.0 0.0 0.0
0.18 0.25631073117256165 -0.6203466057777405 -8.73347744345665e-05 1.604761928319931e-05 0.0 0.0 0.0 0.0
0.181 0.13435238599777222 -0.6476314663887024 -7.616821676492691e-05 -4.909932613372803e-06 0.0 0.0 0.0 0.0
0.182 0.008055394515395164 -0.6472599506378174 -0.00022319797426462173 -6.179604679346085e-05 0.0 0.0 0.0 0.0
0.183 -0.10952524095773697 -0.6206057667732239 -6.118696182966232e-05 -4.1268765926361084e-05 0.0 0.0 0.0 0.0
0.184 -0.2238340824842453 -0.5678769946098328 6.809830665588379e-06 -4.835892468690872e-05 0.0 0.0 0.0 0.0
0.185 -0.31774094700813293 -0.49567705392837524 -3.242865204811096e-06 -5.254708230495453e-05 0.0 0.0 0.0 0.0
