!Created with skrf (http://scikit-rf.org).
# GHz S RI R 50.0 
!freq ReS11 ImS11 ReS21 ImS21 ReS12 ImS12 ReS22 ImS22
0.001 1.0434024333953857 -0.1476304680109024 -0.00012697651982307434 0.00021583959460258484 0.0 0.0 0.0 0.0
0.002 0.9544640183448792 -0.2633337676525116 4.039425402879715e-05 3.248453140258789e-05 0.0 0.0 0.0 0.0
0.003 0.8958945870399475 -0.3834880590438843 5.339551717042923e-05 7.107667624950409e-05 0.0 0.0 0.0 0.0
0.004 0.8308215141296387 -0.48476842045783997 6.032921373844147e-05 0.00016444455832242966 0.0 0.0 0.0 0.0
0.005 0.738956093788147 -0.5804292559623718 -2.215523272752762e-05 -8.178595453500748e-05 0.0 0.0 0.0 0.0
0.006 0.6455308794975281 -0.6630644202232361 0.00021877605468034744 -6.795302033424377e-05 0.0 0.0 0.0 0.0
0.007 0.5340068936347961 -0.7216524481773376 -6.286706775426865e-05 4.8032961785793304e-05 0.0 0.0 0.0 0.0
0.008 0.42017415165901184 -0.7730551958084106 4.467833787202835e-05 -6.00423663854599e-06 0.0 0.0 0.0 0.0
0.009 0.29547959566116333 -0.8056036233901978 0.00012201163917779922 9.835883975028992e-05 0.0 0.0 0.0 0.0
0.01 0.16461403667926788 -0.8100922703742981 8.16667452454567e-05 -8.882582187652588e-05 0.0 0.0 0.0 0.0
0.011 0.03746619448065758 -0.7975053787231445 -0.00018540211021900177 3.8951635360717773e-05 0.0 0.0 0.0 0.0
0.012 -0.08964076638221741 -0.7702752947807312 2.606213092803955e-05 -0.00013926438987255096 0.0 0.0 0.0 0.0
0.013 -0.20892074704170227 -0.7114316821098328 0.00010554492473602295 9.62577760219574e-05 0.0 0.0 0.0 0.0
0.014 -0.3066254258155823 -0.6327874064445496 6.326287984848022e-05 2.0763836801052094e-05 0.0 0.0 0.0 0.0
0.015 -0.4087944030761719 -0.537891149520874 -1.1607073247432709e-05 -0.0001173531636595726 0.0 0.0 0.0 0.0
0.016 -0.48769521713256836 -0.42266595363616943 1.0523013770580292e-05 1.608673483133316e-05 0.0 0.0 0.0 0.0
0.017 -0.5508553981781006 -0.29117101430892944 2.378411591053009e-05 -0.00022809859365224838 0.0 0.0 0.0 0.0
0.018 -0.5841988921165466 -0.14500054717063904 -0.0001480989158153534 8.354894816875458e-06 0.0 0.0 0.0 0.0
0.019 -0.5873213410377502 0.009457465261220932 -0.00025271065533161163 -8.217897266149521e-05 0.0 0.0 0.0 0.0
0.02 -0.5579657554626465 0.16244558990001678 5.3173862397670746e-05 5.23347407579422e-05 0.0 0.0 0.0 0.0
0.021 -0.49206218123435974 0.31388965249061584 -3.6267563700675964e-05 -0.00011956412345170975 0.0 0.0 0.0 0.0
0.022 -0.3927463889122009 0.44932398200035095 6.139092147350311e-05 -7.983390241861343e-05 0.0 0.0 0.0 0.0
0.023 -0.2579967975616455 0.5574381947517395 -0.00026034656912088394 0.0003042127937078476 0.0 0.0 0.0 0.0
0.024 -0.10166481137275696 0.6342172622680664 7.216539233922958e-05 -2.201274037361145e-05 0.0 0.0 0.0 0.0
0.025 0.07337569445371628 0.6694945096969604 9.952113032341003e-06 -4.4980086386203766e-05 0.0 0.0 0.0 0.0
0.026 0.2540540099143982 0.6600157618522644 -5.962885916233063e-05 4.837848246097565e-05 0.0 0.0 0.0 0.0
0.027 0.42630892992019653 0.6047153472900391 -3.273040056228638e-05 8.783675730228424e-05 0.0 0.0 0.0 0.0
0.028 0.5792551636695862 0.5091512203216553 -4.439428448677063e-05 4.741456359624863e-05 0.0 0.0 0.0 0.0
0.029 0.7022162079811096 0.3766011595726013 3.934744745492935e-05 -9.3020498752594e-05 0.0 0.0 0.0 0.0
0.03 0.7878408432006836 0.223612442612648 -0.00018455181270837784 -1.2703239917755127e-06 0.0 0.0 0.0 0.0
0.031 0.8323837518692017 0.055736321955919266 -1.6420148313045502e-05 0.000151168555021286 0.0 0.0 0.0 0.0
0.032 0.8367746472358704 -0.11038712412118912 -1.651700586080551e-05 6.028171628713608e-05 0.0 0.0 0.0 0.0
0.033 0.8028296232223511 -0.2736261785030365 1.8893741071224213e-05 -2.253800630569458e-06 0.0 0.0 0.0 0.0
0.034 0.7336406111717224 -0.41563108563423157 -7.456261664628983e-05 -6.129033863544464e-05 0.0 0.0 0.0 0.0
0.035 0.6396812796592712 -0.5361027121543884 -7.013790309429169e-05 -1.7257407307624817e-06 0.0 0.0 0.0 0.0
0.036 0.5306434631347656 -0.6305234432220459 0.00010566972196102142 -3.1507574021816254e-05 0.0 0.0 0.0 0.0
0.037 0.40684613585472107 -0.7050461173057556 8.422043174505234e-05 -5.7872384786605835e-06 0.0 0.0 0.0 0.0
0.038 0.27196550369262695 -0.7453877925872803 2.8092414140701294e-05 -8.482206612825394e-05 0.0 0.0 0.0 0.0
0.039 0.14017067849636078 -0.757876455783844 -7.927138358354568e-05 -6.753671914339066e-05 0.0 0.0 0.0 0.0
0.04 0.011115304194390774 -0.7497833371162415 0.0001117149367928505 0.00011631380766630173 0.0 0.0 0.0 0.0
0.041 -0.11355071514844894 -0.7158510684967041 -2.1569430828094482e-06 4.3859705328941345e-05 0.0 0.0 0.0 0.0
0.042 -0.22955848276615143 -0.6692308187484741 0.00015751179307699203 -3.1781382858753204e-05 0.0 0.0 0.0 0.0
0.043 -0.3327087461948395 -0.5976375341415405 4.804227501153946e-05 -1.3721175491809845e-05 0.0 0.0 0.0 0.0
0.044 -0.42063143849372864 -0.5079132914543152 3.118440508842468e-05 1.4816410839557648e-05 0.0 0.0 0.0 0.0
0.045 -0.4887736439704895 -0.4094136953353882 4.274863749742508e-05 -6.506498903036118e-05 0.0 0.0 0.0 0.0
0.046 -0.5399966835975647 -0.30029428005218506 4.276726394891739e-05 -0.00010847020894289017 0.0 0.0 0.0 0.0
0.047 -0.5752580165863037 -0.18656237423419952 0.00016936659812927246 -0.00014545582234859467 0.0 0.0 0.0 0.0
0.048 -0.5846550464630127 -0.06247767433524132 -9.864103049039841e-05 -5.69615513086319e-05 0.0 0.0 0.0 0.0
0.049 -0.5782327055931091 0.06011781468987465 -0.0001697475090622902 -0.00018627848476171494 0.0 0.0 0.0 0.0
0.05 -0.5450900793075562 0.1815091371536255 0.0002079969272017479 -4.444923251867294e-05 0.0 0.0 0.0 0.0
0.051 -0.4883264899253845 0.2956738770008087 -0.00017299409955739975 -5.820766091346741e-05 0.0 0.0 0.0 0.0
0.052 -0.4133453667163849 0.399099200963974 -0.00013107061386108398 0.00013743620365858078 0.0 0.0 0.0 0.0
0.053 -0.3181181252002716 0.4896073639392853 1.7696991562843323e-05 5.0486065447330475e-05 0.0 0.0 0.0 0.0
0.054 -0.20239374041557312 0.5613281726837158 -5.152076482772827e-05 -0.00017690937966108322 0.0 0.0 0.0 0.0
0.055 -0.07457135617733002 0.6088733673095703 -0.00013690628111362457 -0.00014504417777061462 0.0 0.0 0.0 0.0
0.056 0.06722722202539444 0.6301960349082947 -9.584520012140274e-05 -5.2434392273426056e-05 0.0 0.0 0.0 0.0
0.057 0.2078413963317871 0.6209019422531128 -3.487151116132736e-05 2.217944711446762e-05 0.0 0.0 0.0 0.0
0.058 0.35101574659347534 0.5838403701782227 -0.00016236118972301483 -3.771297633647919e-05 0.0 0.0 0.0 0.0
0.059 0.4802929162979126 0.5115784406661987 -0.0003310246393084526 6.243772804737091e-05 0.0 0.0 0.0 0.0
0.06 0.5975130796432495 0.4161182940006256 -0.00022634956985712051 0.00046867411583662033 0.0 0.0 0.0 0.0
0.061 0.687110185623169 0.2907337248325348 5.9060752391815186e-05 0.0002671899273991585 0.0 0.0 0.0 0.0
0.062 0.7490267753601074 0.14841671288013458 0.0001698322594165802 0.00023844465613365173 0.0 0.0 0.0 0.0
0.063 0.7789261937141418 -0.0005351155996322632 0.000398857519030571 -4.1439197957515717e-05 0.0 0.0 0.0 0.0
0.064 0.7720503807067871 -0.15805214643478394 0.00035957060754299164 -0.00026025623083114624 0.0 0.0 0.0 0.0
0.065 0.7293208241462708 -0.30356672406196594 -2.4116598069667816e-05 -0.0003301640972495079 0.0 0.0 0.0 0.0
0.066 0.658480167388916 -0.43848878145217896 -3.0646100640296936e-05 -0.0002513835206627846 0.0 0.0 0.0 0.0
0.067 0.5606667399406433 -0.547930896282196 -0.00019872095435857773 -0.00010314397513866425 0.0 0.0 0.0 0.0
0.068 0.44928550720214844 -0.6329887509346008 -0.00011306721717119217 -5.7782046496868134e-05 0.0 0.0 0.0 0.0
0.069 0.32096803188323975 -0.6939097046852112 -1.0375864803791046e-05 0.00020199362188577652 0.0 0.0 0.0 0.0
0.07 0.18290288746356964 -0.7254922389984131 -1.0211020708084106e-05 5.9314072132110596e-05 0.0 0.0 0.0 0.0
0.071 0.04809589684009552 -0.7321214079856873 -4.955008625984192e-05 0.00021738093346357346 0.0 0.0 0.0 0.0
0.072 -0.08207289129495621 -0.7027422189712524 -9.394902735948563e-05 0.00020054075866937637 0.0 0.0 0.0 0.0
0.073 -0.20063455402851105 -0.6587575078010559 -0.00015032943338155746 0.000140276737511158 0.0 0.0 0.0 0.0
0.074 -0.30941087007522583 -0.5908464789390564 0.00012058764696121216 6.854813545942307e-05 0.0 0.0 0.0 0.0
0.075 -0.3976374864578247 -0.5074644088745117 0.00016425363719463348 -3.2996758818626404e-05 0.0 0.0 0.0 0.0
0.076 -0.4744311273097992 -0.41381826996803284 0.00018685869872570038 -2.489052712917328e-05 0.0 0.0 0.0 0.0
0.077 -0.5280113220214844 -0.30599814653396606 -4.463177174329758e-05 -4.188530147075653e-05 0.0 0.0 0.0 0.0
0.078 -0.5590255260467529 -0.18985624611377716 -0.0001449231058359146 -0.00018575508147478104 0.0 0.0 0.0 0.0
0.079 -0.5736063718795776 -0.07424826174974442 -3.4710392355918884e-06 -0.00023324508219957352 0.0 0.0 0.0 0.0
0.08 -0.563173770904541 0.04457222670316696 -2.7103349566459656e-05 -0.00027429498732089996 0.0 0.0 0.0 0.0
0.081 -0.5328983068466187 0.15720230340957642 -0.00013007596135139465 7.588695734739304e-05 0.0 0.0 0.0 0.0
0.082 -0.4821518361568451 0.26508963108062744 -0.00017207209020853043 -3.8137659430503845e-05 0.0 0.0 0.0 0.0
0.083 -0.41617074608802795 0.3602421283721924 -7.057562470436096e-06 -0.00011776667088270187 0.0 0.0 0.0 0.0
0.084 -0.3315124809741974 0.44732293486595154 -2.2982247173786163e-05 -0.0001612640917301178 0.0 0.0 0.0 0.0
0.085 -0.23009082674980164 0.5164749622344971 -5.512777715921402e-05 -4.027877002954483e-05 0.0 0.0 0.0 0.0
0.086 -0.11566518247127533 0.5624899864196777 -5.769822746515274e-05 9.533390402793884e-05 0.0 0.0 0.0 0.0
0.087 0.004442079924046993 0.590552568435669 6.802752614021301e-05 5.848519504070282e-05 0.0 0.0 0.0 0.0
0.088 0.13282747566699982 0.5926889777183533 1.849886029958725e-05 0.0001273825764656067 0.0 0.0 0.0 0.0
0.089 0.25969168543815613 0.5706912875175476 6.425194442272186e-06 0.0001103859394788742 0.0 0.0 0.0 0.0
0.09 0.38303738832473755 0.5210891366004944 1.3374723494052887e-05 9.464006870985031e-05 0.0 0.0 0.0 0.0
0.091 0.4948277175426483 0.44694608449935913 0.0001207469031214714 0.0001391759142279625 0.0 0.0 0.0 0.0
0.092 0.596878170967102 0.34884312748908997 3.636162728071213e-05 -3.181584179401398e-05 0.0 0.0 0.0 0.0
0.093 0.66816645860672 0.22970062494277954 7.771514356136322e-05 7.853470742702484e-05 0.0 0.0 0.0 0.0
0.094 0.7161917686462402 0.09621980041265488 -6.302446126937866e-05 -0.00013468973338603973 0.0 0.0 0.0 0.0
0.095 0.7353453040122986 -0.04590795189142227 -0.00010800454765558243 1.90073624253273e-05 0.0 0.0 0.0 0.0
0.096 0.719237744808197 -0.18641050159931183 0.00022511370480060577 -3.4300610423088074e-05 0.0 0.0 0.0 0.0
0.097 0.6759732365608215 -0.3266805112361908 -0.00020895525813102722 -0.0003794478252530098 0.0 0.0 0.0 0.0
0.098 0.6055483818054199 -0.44685298204421997 -0.0001417025923728943 -0.00019045080989599228 0.0 0.0 0.0 0.0
0.099 0.5087761878967285 -0.5506462454795837 -0.0001470651477575302 -2.8750859200954437e-05 0.0 0.0 0.0 0.0
0.1 0.38482198119163513 -0.6459074020385742 -9.917654097080231e-05 0.00012287870049476624 0.0 0.0 0.0 0.0
0.101 0.2390773445367813 -0.6763877272605896 -2.7322210371494293e-05 7.100123912096024e-05 0.0 0.0 0.0 0.0
0.102 0.0964321419596672 -0.6927404403686523 -3.882497549057007e-05 0.00010520964860916138 0.0 0.0 0.0 0.0
0.103 -0.03135310485959053 -0.680924654006958 0.00013887416571378708 -8.290912955999374e-05 0.0 0.0 0.0 0.0
0.104 -0.15154212713241577 -0.6409561634063721 -4.739128053188324e-05 4.172511398792267e-05 0.0 0.0 0.0 0.0
0.105 -0.26000896096229553 -0.5829189419746399 3.417953848838806e-05 -6.474275141954422e-05 0.0 0.0 0.0 0.0
0.106 -0.34993261098861694 -0.5063113570213318 -7.473863661289215e-06 -5.501043051481247e-05 0.0 0.0 0.0 0.0
0.107 -0.42458629608154297 -0.4174845218658447 9.602867066860199e-06 -7.918011397123337e-05 0.0 0.0 0.0 0.0
0.108 -0.4808647036552429 -0.3160257637500763 -4.774611443281174e-05 -2.44947150349617e-05 0.0 0.0 0.0 0.0
0.109 -0.5149957537651062 -0.21240019798278809 7.321499288082123e-05 -4.714634269475937e-05 0.0 0.0 0.0 0.0
0.11 -0.5312926769256592 -0.10260263085365295 5.593709647655487e-05 9.706616401672363e-05 0.0 0.0 0.0 0.0
0.111 -0.5290131568908691 0.007470354437828064 7.346272468566895e-05 -0.00016818754374980927 0.0 0.0 0.0 0.0
0.112 -0.5068290829658508 0.111981101334095 8.593592792749405e-05 0.00016225874423980713 0.0 0.0 0.0 0.0
0.113 -0.4681110382080078 0.213455930352211 0.00017090700566768646 -0.0002646595239639282 0.0 0.0 0.0 0.0
0.114 -0.41091227531433105 0.30499011278152466 0.00014657340943813324 -2.535805106163025e-05 0.0 0.0 0.0 0.0
0.115 -0.33919209241867065 0.38712596893310547 -2.3816712200641632e-05 -9.231362491846085e-05 0.0 0.0 0.0 0.0
0.116 -0.25165411829948425 0.454156756401062 0.00011561717838048935 8.535198867321014e-05 0.0 0.0 0.0 0.0
0.117 -0.15257461369037628 0.5079271793365479 -0.00010129343718290329 1.9504688680171967e-05 0.0 0.0 0.0 0.0
0.118 -0.04380503669381142 0.5407295227050781 -2.268236130475998e-05 8.986983448266983e-05 0.0 0.0 0.0 0.0
0.119 0.07013151794672012 0.5548496246337891 -6.154272705316544e-05 3.3688731491565704e-05 0.0 0.0 0.0 0.0
0.12 0.187022402882576 0.546250581741333 -7.67512246966362e-05 0.00010569486767053604 0.0 0.0 0.0 0.0
0.121 0.30549103021621704 0.5144858360290527 8.957833051681519e-05 5.2671879529953e-05 0.0 0.0 0.0 0.0
0.122 0.4141210615634918 0.4583616852760315 -7.24373385310173e-05 5.904771387577057e-05 0.0 0.0 0.0 0.0
0.123 0.5148069858551025 0.378214955329895 3.89711931347847e-05 -9.726732969284058e-06 0.0 0.0 0.0 0.0
0.124 0.5961758494377136 0.27927130460739136 1.2213364243507385e-05 7.111392915248871e-05 0.0 0.0 0.0 0.0
0.125 0.6565238833427429 0.16372086107730865 7.236376404762268e-07 -0.0001295134425163269 0.0 0.0 0.0 0.0
0.126 0.6909250617027283 0.03394153714179993 -0.00027218181639909744 -3.5120174288749695e-05 0.0 0.0 0.0 0.0
0.127 0.6974886655807495 -0.09997054934501648 -1.5290454030036926e-05 -0.00014910846948623657 0.0 0.0 0.0 0.0
0.128 0.6727100610733032 -0.23568494617938995 -9.156018495559692e-05 -5.1208771765232086e-05 0.0 0.0 0.0 0.0
0.129 0.6205053329467773 -0.36130204796791077 -2.4701468646526337e-05 -0.00011791940778493881 0.0 0.0 0.0 0.0
0.13 0.541263222694397 -0.4712797701358795 8.709728717803955e-06 9.020976722240448e-05 0.0 0.0 0.0 0.0
0.131 0.4398648738861084 -0.5625302195549011 -0.00012966711074113846 -7.068924605846405e-05 0.0 0.0 0.0 0.0
0.132 0.32161378860473633 -0.6264051198959351 -0.0001591639593243599 0.0001331474632024765 0.0 0.0 0.0 0.0
0.133 0.1956663429737091 -0.6634215116500854 4.578381776809692e-06 7.390696555376053e-05 0.0 0.0 0.0 0.0
0.134 0.06704412400722504 -0.6751610636711121 -3.79001721739769e-05 5.576573312282562e-05 0.0 0.0 0.0 0.0
0.135 -0.05964597314596176 -0.6551612615585327 -5.463138222694397e-06 5.5563636124134064e-05 0.0 0.0 0.0 0.0
0.136 -0.17771834135055542 -0.6137570142745972 -2.3543834686279297e-06 3.6197714507579803e-05 0.0 0.0 0.0 0.0
0.137 -0.28082776069641113 -0.5523031949996948 4.0236860513687134e-05 6.593018770217896e-05 0.0 0.0 0.0 0.0
0.138 -0.37073734402656555 -0.47216084599494934 2.9620714485645294e-05 8.60169529914856e-06 0.0 0.0 0.0 0.0
0.139 -0.43785250186920166 -0.3776833415031433 2.1253712475299835e-05 -2.690032124519348e-05 0.0 0.0 0.0 0.0
0.14 -0.48630210757255554 -0.27428364753723145 -3.315787762403488e-05 3.566872328519821e-05 0.0 0.0 0.0 0.0
0.141 -0.5157302618026733 -0.1641121208667755 7.117725908756256e-05 -0.0001289350911974907 0.0 0.0 0.0 0.0
0.142 -0.5219305157661438 -0.05391400307416916 -0.00015711039304733276 -3.7224963307380676e-06 0.0 0.0 0.0 0.0
0.143 -0.5087854862213135 0.05320203676819801 -9.355135262012482e-06 6.293784826993942e-05 0.0 0.0 0.0 0.0
0.144 -0.47771304845809937 0.1571829617023468 9.017065167427063e-05 0.00012860726565122604 0.0 0.0 0.0 0.0
0.145 -0.4282226264476776 0.2532599866390228 -5.598459392786026e-05 -2.9616057872772217e-07 0.0 0.0 0.0 0.0
0.146 -0.3642962872982025 0.3378949761390686 -4.3468549847602844e-05 -8.62758606672287e-05 0.0 0.0 0.0 0.0
0.147 -0.285624235868454 0.40883445739746094 8.45668837428093e-05 -6.446614861488342e-06 0.0 0.0 0.0 0.0
0.148 -0.19416463375091553 0.4664059281349182 -9.066890925168991e-05 0.00025339704006910324 0.0 0.0 0.0 0.0
0.149 -0.09461106359958649 0.5066270232200623 4.5190565288066864e-05 -0.00010335072875022888 0.0 0.0 0.0 0.0
0.15 0.01222698763012886 0.5272437334060669 -2.312101423740387e-05 6.214436143636703e-05 0.0 0.0 0.0 0.0
0.151 0.1237604171037674 0.5296416282653809 3.5225413739681244e-05 3.578700125217438e-05 0.0 0.0 0.0 0.0
0.152 0.23316188156604767 0.5094897747039795 4.4848769903182983e-05 -5.5915676057338715e-05 0.0 0.0 0.0 0.0
0.153 0.33967524766921997 0.47003644704818726 -2.38930806517601e-05 9.925756603479385e-05 0.0 0.0 0.0 0.0
0.154 0.43620815873146057 0.40757596492767334 -6.811879575252533e-05 1.0654330253601074e-05 0.0 0.0 0.0 0.0
0.155 0.5221254825592041 0.32890915870666504 -3.421027213335037e-05 -0.00014932453632354736 0.0 0.0 0.0 0.0
0.156 0.5919009447097778 0.23128101229667664 -0.00013718195259571075 3.817584365606308e-05 0.0 0.0 0.0 0.0
0.157 0.6420015692710876 0.12093626707792282 7.034838199615479e-05 0.000179314985871315 0.0 0.0 0.0 0.0
0.158 0.6667700409889221 -0.0005394881591200829 -3.18111851811409e-05 -3.934837877750397e-05 0.0 0.0 0.0 0.0
0.159 0.6677750945091248 -0.12481707334518433 -9.167753159999847e-05 -5.176477134227753e-05 0.0 0.0 0.0 0.0
0.16 0.6413582563400269 -0.2490817755460739 -8.20402055978775e-05 3.401283174753189e-05 0.0 0.0 0.0 0.0
0.161 0.5901979207992554 -0.3649158179759979 3.227312117815018e-05 -0.00031619518995285034 0.0 0.0 0.0 0.0
0.162 0.5148387551307678 -0.4696681499481201 -6.213225424289703e-05 -5.391519516706467e-05 0.0 0.0 0.0 0.0
0.163 0.41712096333503723 -0.5534064769744873 0.00010242685675621033 6.451737135648727e-05 0.0 0.0 0.0 0.0
0.164 0.3059014678001404 -0.6164915561676025 7.953215390443802e-05 -6.637163460254669e-05 0.0 0.0 0.0 0.0
0.165 0.18044395744800568 -0.6511917114257812 -7.31470063328743e-05 -1.7154961824417114e-06 0.0 0.0 0.0 0.0
0.166 0.0554814450442791 -0.6618236303329468 0.00010494235903024673 -1.875031739473343e-05 0.0 0.0 0.0 0.0
0.167 -0.06861155480146408 -0.6403518319129944 -0.0001565655693411827 3.516487777233124e-05 0.0 0.0 0.0 0.0
0.168 -0.18505877256393433 -0.6003292798995972 4.019681364297867e-05 -2.0629726350307465e-05 0.0 0.0 0.0 0.0
0.169 -0.28781282901763916 -0.5326988697052002 7.397495210170746e-06 6.685033440589905e-06 0.0 0.0 0.0 0.0
0.17 -0.3732026219367981 -0.4502420425415039 -2.7108006179332733e-05 0.00012651551514863968 0.0 0.0 0.0 0.0
0.171 -0.44256383180618286 -0.35390013456344604 5.85801899433136e-06 -1.995079219341278e-05 0.0 0.0 0.0 0.0
0.172 -0.48596200346946716 -0.24642950296401978 0.00015977397561073303 4.9291178584098816e-05 0.0 0.0 0.0 0.0
0.173 -0.5099314451217651 -0.13231700658798218 -6.576906889677048e-05 1.7031095921993256e-05 0.0 0.0 0.0 0.0
0.174 -0.5087463855743408 -0.021199731156229973 0.00012132246047258377 0.00014195218682289124 0.0 0.0 0.0 0.0
0.175 -0.48907145857810974 0.08927372843027115 2.230331301689148e-05 -6.094202399253845e-05 0.0 0.0 0.0 0.0
0.176 -0.4486022889614105 0.18853525817394257 3.5449862480163574e-05 -0.0001688087359070778 0.0 0.0 0.0 0.0
0.177 -0.39142876863479614 0.2823154330253601 0.00012233201414346695 0.0005825748667120934 0.0 0.0 0.0 0.0
0.178 -0.3185518980026245 0.3588094413280487 -0.00011849962174892426 1.5327706933021545e-05 0.0 0.0 0.0 0.0
0.179 -0.23428615927696228 0.42247915267944336 2.078339457511902e-05 -1.8563121557235718e-05 0.0 0.0 0.0 0.0
0.18 -0.13875360786914825 0.4681522250175476 -1.7920508980751038e-05 2.9494985938072205e-06 0.0 0.0 0.0 0.0
0.181 -0.03820400685071945 0.49868443608283997 -8.70637595653534e-05 -3.950204700231552e-05 0.0 0.0 0.0 0.0
0.182 0.06753798574209213 0.5072362422943115 0.00017062947154045105 -0.00011037010699510574 0.0 0.0 0.0 0.0
0.183 0.17134086787700653 0.5002918243408203 -7.504317909479141e-05 1.443270593881607e-05 0.0 0.0 0.0 0.0
0.184 0.27460914850234985 0.4695431590080261 5.4603442549705505e-06 0.00011841487139463425 0.0 0.0 0.0 0.0
0.185 0.3695204257965088 0.4239429533481598 -6.290990859270096e-05 -9.291060268878937e-05 0.0 0.0 0.0 0.0
