!Created with skrf (http://scikit-rf.org).
# GHz S RI R 50.0 
!freq ReS11 ImS11 ReS21 ImS21 ReS12 ImS12 ReS22 ImS22
0.001 0.9643386602401733 -0.33371230959892273 5.85801899433136e-07 -2.127140760421753e-06 0.0 0.0 0.0 0.0
0.002 0.682509183883667 -0.4603070318698883 -0.00019946228712797165 -0.00010776519775390625 0.0 0.0 0.0 0.0
0.003 0.49328136444091797 -0.46410244703292847 -0.00013293232768774033 0.00010797195136547089 0.0 0.0 0.0 0.0
0.004 0.3625425100326538 -0.4305261969566345 -1.786462962627411e-05 7.08606094121933e-05 0.0 0.0 0.0 0.0
0.005 0.27533575892448425 -0.38008618354797363 3.270525485277176e-05 2.5684945285320282e-05 0.0 0.0 0.0 0.0
0.006 0.22618481516838074 -0.3373236358165741 0.00010325759649276733 -3.370549529790878e-05 0.0 0.0 0.0 0.0
0.007 0.1962074339389801 -0.29192477464675903 -4.385411739349365e-05 -2.5910325348377228e-05 0.0 0.0 0.0 0.0
0.008 0.17791056632995605 -0.2607989013195038 -5.423184484243393e-05 0.00022198446094989777 0.0 0.0 0.0 0.0
0.009 0.1641891896724701 -0.2367255538702011 -4.885997623205185e-05 0.00010630488395690918 0.0 0.0 0.0 0.0
0.01 0.1588110327720642 -0.22039403021335602 5.2265822887420654e-05 0.00021888408809900284 0.0 0.0 0.0 0.0
0.011 0.1529034823179245 -0.2061910629272461 4.244409501552582e-05 6.0772523283958435e-05 0.0 0.0 0.0 0.0
0.012 0.14655828475952148 -0.19463036954402924 -0.00017209630459547043 8.090026676654816e-05 0.0 0.0 0.0 0.0
0.013 0.1424490064382553 -0.18833592534065247 -7.688533514738083e-05 -0.00010876171290874481 0.0 0.0 0.0 0.0
0.014 0.13904686272144318 -0.18209515511989594 -7.431861013174057e-05 -9.021628648042679e-05 0.0 0.0 0.0 0.0
0.015 0.13585861027240753 -0.1790463775396347 -2.9158778488636017e-05 0.00014954805374145508 0.0 0.0 0.0 0.0
0.016 0.1285812258720398 -0.17542877793312073 -6.815511733293533e-05 8.355174213647842e-05 0.0 0.0 0.0 0.0
0.017 0.12404147535562515 -0.17428359389305115 9.965337812900543e-05 -4.194304347038269e-05 0.0 0.0 0.0 0.0
0.018 0.11693676561117172 -0.1731845736503601 -0.0001344718039035797 -9.244773536920547e-05 0.0 0.0 0.0 0.0
0.019 0.10946879535913467 -0.170530304312706 -7.505621761083603e-05 4.5153312385082245e-05 0.0 0.0 0.0 0.0
0.02 0.10332191735506058 -0.16746298968791962 -0.00013874005526304245 0.00012809038162231445 0.0 0.0 0.0 0.0
0.021 0.0957883670926094 -0.1652747243642807 -2.0724721252918243e-05 0.00016736239194869995 0.0 0.0 0.0 0.0
0.022 0.08683731406927109 -0.1622776836156845 -9.186938405036926e-05 4.049669951200485e-05 0.0 0.0 0.0 0.0
0.023 0.07846154272556305 -0.15772292017936707 3.789924085140228e-05 -2.3867003619670868e-05 0.0 0.0 0.0 0.0
0.024 0.07225383073091507 -0.15228116512298584 1.2420117855072021e-05 -7.847882807254791e-05 0.0 0.0 0.0 0.0
0.025 0.06433561444282532 -0.14601615071296692 3.7940219044685364e-05 5.384907126426697e-06 0.0 0.0 0.0 0.0
0.026 0.05811813473701477 -0.13877637684345245 -0.00012497138231992722 -8.429959416389465e-05 0.0 0.0 0.0 0.0
0.027 0.053427305072546005 -0.13192667067050934 -0.00014656223356723785 4.716403782367706e-05 0.0 0.0 0.0 0.0
0.028 0.048308487981557846 -0.12534742057323456 7.752981036901474e-05 8.433684706687927e-05 0.0 0.0 0.0 0.0
0.029 0.04499883949756622 -0.11753653734922409 3.0559487640857697e-05 -7.1672722697258e-05 0.0 0.0 0.0 0.0
0.03 0.04249099642038345 -0.10856126993894577 -2.5037676095962524e-05 3.6232173442840576e-05 0.0 0.0 0.0 0.0
0.031 0.041998811066150665 -0.09863364696502686 -7.839873433113098e-05 -6.944313645362854e-05 0.0 0.0 0.0 0.0
0.032 0.042517878115177155 -0.09285594522953033 0.00010872632265090942 -5.6277960538864136e-05 0.0 0.0 0.0 0.0
0.033 0.04336332529783249 -0.08457213640213013 -3.922171890735626e-05 0.00012752320617437363 0.0 0.0 0.0 0.0
0.034 0.047168977558612823 -0.07799919694662094 9.56561416387558e-05 0.0002070171758532524 0.0 0.0 0.0 0.0
0.035 0.0502413846552372 -0.07249030470848083 4.2720697820186615e-05 6.667338311672211e-06 0.0 0.0 0.0 0.0
0.036 0.05254806950688362 -0.06821590662002563 1.4620833098888397e-05 -0.00013847462832927704 0.0 0.0 0.0 0.0
0.037 0.057805027812719345 -0.06427708268165588 -8.784327656030655e-05 6.202980875968933e-05 0.0 0.0 0.0 0.0
0.038 0.06241321936249733 -0.061566706746816635 1.6160309314727783e-05 4.367996007204056e-05 0.0 0.0 0.0 0.0
0.039 0.06863746792078018 -0.060697607696056366 -1.3811513781547546e-06 0.00016502290964126587 0.0 0.0 0.0 0.0
0.04 0.0723281130194664 -0.06151185557246208 2.618413418531418e-05 -1.613236963748932e-05 0.0 0.0 0.0 0.0
0.041 0.07596053183078766 -0.06262937933206558 2.331845462322235e-05 2.4354085326194763e-06 0.0 0.0 0.0 0.0
0.042 0.07995383441448212 -0.06441330909729004 -2.1768733859062195e-05 -7.515773177146912e-05 0.0 0.0 0.0 0.0
0.043 0.0821886956691742 -0.06697509437799454 -3.805570304393768e-05 3.725755959749222e-05 0.0 0.0 0.0 0.0
0.044 0.08537446707487106 -0.06942688673734665 -3.2053329050540924e-05 -4.6691857278347015e-05 0.0 0.0 0.0 0.0
0.045 0.08606824278831482 -0.07482010126113892 6.717443466186523e-05 4.400312900543213e-05 0.0 0.0 0.0 0.0
0.046 0.0850997045636177 -0.07892368733882904 4.621781408786774e-05 -9.511783719062805e-05 0.0 0.0 0.0 0.0
0.047 0.08385777473449707 -0.08342308551073074 4.4415704905986786e-05 -5.398038774728775e-05 0.0 0.0 0.0 0.0
0.048 0.08315334469079971 -0.08594801276922226 -1.0277144610881805e-05 -3.5548582673072815e-06 0.0 0.0 0.0 0.0
0.049 0.07803602516651154 -0.08865692466497421 -7.120240479707718e-05 -4.285015165805817e-06 0.0 0.0 0.0 0.0
0.05 0.07482999563217163 -0.09213819354772568 0.0002206815406680107 0.00017523299902677536 0.0 0.0 0.0 0.0
0.051 0.07098270952701569 -0.0943455696105957 -8.531846106052399e-06 -8.717551827430725e-05 0.0 0.0 0.0 0.0
0.052 0.06617564707994461 -0.09682902693748474 9.328313171863556e-05 3.844499588012695e-06 0.0 0.0 0.0 0.0
0.053 0.05925361439585686 -0.09619013220071793 -1.2867152690887451e-05 -4.464574158191681e-05 0.0 0.0 0.0 0.0
0.054 0.05494958534836769 -0.09415935724973679 -0.00010187644511461258 9.919609874486923e-05 0.0 0.0 0.0 0.0
0.055 0.04973003268241882 -0.09267798811197281 0.0001226123422384262 0.00010710302740335464 0.0 0.0 0.0 0.0
0.056 0.044818196445703506 -0.09014387428760529 0.00010154303163290024 -5.7250261306762695e-05 0.0 0.0 0.0 0.0
0.057 0.039144668728113174 -0.0872596725821495 3.388151526451111e-06 -9.238533675670624e-05 0.0 0.0 0.0 0.0
0.058 0.0350315198302269 -0.0814073458313942 -9.85385850071907e-05 4.074908792972565e-05 0.0 0.0 0.0 0.0
0.059 0.03337162360548973 -0.07736470550298691 -4.249252378940582e-05 0.00010214187204837799 0.0 0.0 0.0 0.0
0.06 0.03190697729587555 -0.07198537141084671 8.846074342727661e-05 0.00016017816960811615 0.0 0.0 0.0 0.0
0.061 0.030622925609350204 -0.06530788540840149 0.0002449704334139824 5.825050175189972e-05 0.0 0.0 0.0 0.0
0.062 0.030905822291970253 -0.05959969386458397 9.092222899198532e-05 1.95307657122612e-05 0.0 0.0 0.0 0.0
0.063 0.03162894770503044 -0.055241893976926804 0.00016047339886426926 3.649946302175522e-05 0.0 0.0 0.0 0.0
0.064 0.03352966904640198 -0.04934417083859444 1.642480492591858e-05 -9.262841194868088e-05 0.0 0.0 0.0 0.0
0.065 0.037026114761829376 -0.04543144628405571 3.0154362320899963e-05 -9.707547724246979e-05 0.0 0.0 0.0 0.0
0.066 0.040620192885398865 -0.04135768488049507 1.264922320842743e-05 -8.050817996263504e-05 0.0 0.0 0.0 0.0
0.067 0.04364045336842537 -0.03785916790366173 -0.00011471379548311234 -0.0001498386263847351 0.0 0.0 0.0 0.0
0.068 0.048676252365112305 -0.0357237309217453 -0.00013289321213960648 -8.388888090848923e-05 0.0 0.0 0.0 0.0
0.069 0.05445341393351555 -0.03443984314799309 6.272364407777786e-05 -2.3946166038513184e-05 0.0 0.0 0.0 0.0
0.07 0.06036189943552017 -0.03464503213763237 1.7122365534305573e-05 7.392186671495438e-05 0.0 0.0 0.0 0.0
0.071 0.06529182940721512 -0.03610767424106598 -5.357060581445694e-05 0.00010116025805473328 0.0 0.0 0.0 0.0
0.072 0.06899518519639969 -0.038153208792209625 -0.0001399107277393341 0.0001583816483616829 0.0 0.0 0.0 0.0
0.073 0.07243198156356812 -0.04130939394235611 7.913541048765182e-05 -7.664784789085388e-05 0.0 0.0 0.0 0.0
0.074 0.07534116506576538 -0.04548786208033562 6.769131869077682e-05 0.00017117895185947418 0.0 0.0 0.0 0.0
0.075 0.07771757990121841 -0.04796541854739189 -3.5303644835948944e-05 6.410293281078339e-05 0.0 0.0 0.0 0.0
0.076 0.07932605594396591 -0.05343127250671387 -4.358310252428055e-05 7.427297532558441e-05 0.0 0.0 0.0 0.0
0.077 0.07934790849685669 -0.05868953466415405 0.0004609590396285057 4.383549094200134e-05 0.0 0.0 0.0 0.0
0.078 0.07933150976896286 -0.06421887874603271 8.180458098649979e-05 -6.612297147512436e-05 0.0 0.0 0.0 0.0
0.079 0.07766023278236389 -0.06866336613893509 3.246590495109558e-05 6.791017949581146e-05 0.0 0.0 0.0 0.0
0.08 0.07276426255702972 -0.07308758050203323 0.00014993641525506973 -4.059635102748871e-05 0.0 0.0 0.0 0.0
0.081 0.06914958357810974 -0.07634785026311874 -0.00011961255222558975 -0.00011766888201236725 0.0 0.0 0.0 0.0
0.082 0.06511681526899338 -0.07939793914556503 5.395617336034775e-05 7.96392560005188e-05 0.0 0.0 0.0 0.0
0.083 0.05956672132015228 -0.07986492663621902 -6.513483822345734e-05 -0.0001429133117198944 0.0 0.0 0.0 0.0
0.084 0.05616973340511322 -0.08155360072851181 0.00017954036593437195 7.541012018918991e-05 0.0 0.0 0.0 0.0
0.085 0.04912038519978523 -0.08154500275850296 6.043724715709686e-05 -9.364448487758636e-05 0.0 0.0 0.0 0.0
0.086 0.04357161000370979 -0.08078048378229141 -0.00012103002518415451 -0.00016070157289505005 0.0 0.0 0.0 0.0
0.087 0.038020312786102295 -0.07788518816232681 9.046867489814758e-06 -2.319924533367157e-05 0.0 0.0 0.0 0.0
0.088 0.03466657176613808 -0.0738934576511383 1.6372650861740112e-06 -5.677994340658188e-05 0.0 0.0 0.0 0.0
0.089 0.03002399578690529 -0.0708334818482399 3.070291131734848e-05 -3.494042903184891e-05 0.0 0.0 0.0 0.0
0.09 0.026965713128447533 -0.06529496610164642 6.013642996549606e-05 5.932711064815521e-05 0.0 0.0 0.0 0.0
0.091 0.02463158778846264 -0.06041373685002327 -1.1776573956012726e-05 -0.00020355172455310822 0.0 0.0 0.0 0.0
0.092 0.024173451587557793 -0.054405637085437775 -0.00011869613081216812 -9.328313171863556e-05 0.0 0.0 0.0 0.0
0.093 0.024719279259443283 -0.04980671778321266 -3.9013102650642395e-05 0.00017594173550605774 0.0 0.0 0.0 0.0
0.094 0.026022624224424362 -0.04487377405166626 7.328018546104431e-05 9.312201291322708e-05 0.0 0.0 0.0 0.0
0.095 0.02687736228108406 -0.03933928906917572 -4.102196544408798e-05 -4.117097705602646e-05 0.0 0.0 0.0 0.0
0.096 0.02916824258863926 -0.033170390874147415 8.798111230134964e-05 3.5548582673072815e-06 0.0 0.0 0.0 0.0
0.097 0.033716946840286255 -0.029330037534236908 0.00012008287012577057 -0.0001729857176542282 0.0 0.0 0.0 0.0
0.098 0.03821347653865814 -0.026118624955415726 3.361515700817108e-05 4.616566002368927e-06 0.0 0.0 0.0 0.0
0.099 0.043062277138233185 -0.024202149361371994 -5.2181072533130646e-05 -0.00013028737157583237 0.0 0.0 0.0 0.0
0.1 0.04813053086400032 -0.02346566691994667 -2.7861446142196655e-05 -2.5974586606025696e-06 0.0 0.0 0.0 0.0
0.101 0.052397891879081726 -0.021450936794281006 -0.00011551566421985626 -4.3810345232486725e-05 0.0 0.0 0.0 0.0
0.102 0.05742637440562248 -0.02379748970270157 -1.8230639398097992e-05 2.7204863727092743e-05 0.0 0.0 0.0 0.0
0.103 0.06343848258256912 -0.02559397742152214 2.1449290215969086e-05 0.00012578535825014114 0.0 0.0 0.0 0.0
0.104 0.06693116575479507 -0.028222693130373955 6.932299584150314e-05 -0.00015118904411792755 0.0 0.0 0.0 0.0
0.105 0.07142315059900284 -0.0314059853553772 1.498498022556305e-06 1.2356787919998169e-05 0.0 0.0 0.0 0.0
0.106 0.074702188372612 -0.036524876952171326 3.529991954565048e-05 -1.4615245163440704e-05 0.0 0.0 0.0 0.0
0.107 0.07665522396564484 -0.04048692062497139 -0.0001233872026205063 0.00012325961142778397 0.0 0.0 0.0 0.0
0.108 0.07760785520076752 -0.04687366634607315 5.578715354204178e-05 4.1591934859752655e-05 0.0 0.0 0.0 0.0
0.109 0.07739099115133286 -0.051207415759563446 -0.0001387977972626686 4.8959627747535706e-05 0.0 0.0 0.0 0.0
0.11 0.07616938650608063 -0.05636287108063698 -0.00010898243635892868 -9.230803698301315e-05 0.0 0.0 0.0 0.0
0.111 0.07446553558111191 -0.061755817383527756 6.737187504768372e-05 -6.304308772087097e-05 0.0 0.0 0.0 0.0
0.112 0.0713711827993393 -0.06555075943470001 -2.3939646780490875e-05 7.034838199615479e-05 0.0 0.0 0.0 0.0
0.113 0.06720743328332901 -0.06942757964134216 -0.0002202354371547699 -6.281305104494095e-05 0.0 0.0 0.0 0.0
0.114 0.06389239430427551 -0.07249533385038376 2.163182944059372e-05 -3.7942081689834595e-06 0.0 0.0 0.0 0.0
0.115 0.05751043185591698 -0.07402978837490082 4.147179424762726e-06 5.712918937206268e-05 0.0 0.0 0.0 0.0
0.116 0.05409286543726921 -0.07577862590551376 4.387088119983673e-05 1.8533319234848022e-07 0.0 0.0 0.0 0.0
0.117 0.04742031916975975 -0.07481251657009125 -8.415430784225464e-05 -3.381539136171341e-05 0.0 0.0 0.0 0.0
0.118 0.0431680902838707 -0.07377409189939499 8.844491094350815e-05 9.04155895113945e-05 0.0 0.0 0.0 0.0
0.119 0.03830098360776901 -0.07146932929754257 -6.436463445425034e-05 8.175056427717209e-05 0.0 0.0 0.0 0.0
0.12 0.0332924947142601 -0.06770104914903641 -1.4139339327812195e-05 2.3655593395233154e-05 0.0 0.0 0.0 0.0
0.121 0.030237173661589622 -0.06450178474187851 4.460103809833527e-06 0.00017243996262550354 0.0 0.0 0.0 0.0
0.122 0.027157457545399666 -0.05949101969599724 4.585739225149155e-05 -6.727874279022217e-05 0.0 0.0 0.0 0.0
0.123 0.024932989850640297 -0.054282400757074356 -8.4645114839077e-05 -3.396905958652496e-05 0.0 0.0 0.0 0.0
0.124 0.024311142042279243 -0.04914690926671028 -0.00011109188199043274 1.036282628774643e-05 0.0 0.0 0.0 0.0
0.125 0.023985140025615692 -0.04395794868469238 -1.000240445137024e-05 -4.3939799070358276e-05 0.0 0.0 0.0 0.0
0.126 0.026423396542668343 -0.03841894492506981 -2.411194145679474e-06 7.090345025062561e-05 0.0 0.0 0.0 0.0
0.127 0.02794444002211094 -0.033583562821149826 3.8215890526771545e-05 0.00012528430670499802 0.0 0.0 0.0 0.0
0.128 0.03085033968091011 -0.0291302353143692 4.94103878736496e-05 0.00018993113189935684 0.0 0.0 0.0 0.0
0.129 0.034810103476047516 -0.026373829692602158 -5.37307932972908e-05 -0.00010416097939014435 0.0 0.0 0.0 0.0
0.13 0.04019354656338692 -0.022548701614141464 1.9271858036518097e-05 6.037857383489609e-05 0.0 0.0 0.0 0.0
0.131 0.044004350900650024 -0.020634494721889496 -8.630380034446716e-05 -7.95368105173111e-05 0.0 0.0 0.0 0.0
0.132 0.0506376288831234 -0.019591372460126877 8.044391870498657e-05 5.039852112531662e-05 0.0 0.0 0.0 0.0
0.133 0.05635520815849304 -0.020001178607344627 -6.793253123760223e-05 0.00010345038026571274 0.0 0.0 0.0 0.0
0.134 0.06123502925038338 -0.021255722269415855 6.761401891708374e-07 0.00011107604950666428 0.0 0.0 0.0 0.0
0.135 0.0656939446926117 -0.02394578792154789 9.75513830780983e-05 2.443511039018631e-05 0.0 0.0 0.0 0.0
0.136 0.07025567442178726 -0.026289911940693855 -8.328724652528763e-05 0.00014460645616054535 0.0 0.0 0.0 0.0
0.137 0.07313887029886246 -0.029819978401064873 -1.2186355888843536e-05 -7.643643766641617e-05 0.0 0.0 0.0 0.0
0.138 0.07572240382432938 -0.0344650074839592 2.792198210954666e-05 2.3776665329933167e-06 0.0 0.0 0.0 0.0
0.139 0.07786118239164352 -0.038859639316797256 -0.00017180293798446655 -4.4121406972408295e-05 0.0 0.0 0.0 0.0
0.14 0.07921407371759415 -0.04465765133500099 9.83038917183876e-05 -1.4914199709892273e-05 0.0 0.0 0.0 0.0
0.141 0.0791449025273323 -0.0486593097448349 -0.00017469841986894608 7.69197940826416e-05 0.0 0.0 0.0 0.0
0.142 0.07861343026161194 -0.054221365600824356 1.8337741494178772e-06 -6.881542503833771e-06 0.0 0.0 0.0 0.0
0.143 0.07596538215875626 -0.05869508534669876 9.899958968162537e-06 -5.1334500312805176e-05 0.0 0.0 0.0 0.0
0.144 0.07345669716596603 -0.06359116733074188 8.82316380739212e-05 -3.402773290872574e-05 0.0 0.0 0.0 0.0
0.145 0.06938642263412476 -0.06618877500295639 4.67030331492424e-05 -3.974512219429016e-05 0.0 0.0 0.0 0.0
0.146 0.06510668992996216 -0.06776046007871628 -9.592622518539429e-08 0.00010724179446697235 0.0 0.0 0.0 0.0
0.147 0.06023966148495674 -0.0697537437081337 -9.445007890462875e-05 3.959890455007553e-05 0.0 0.0 0.0 0.0
0.148 0.05615026503801346 -0.07048458606004715 3.9692968130111694e-05 5.426723510026932e-05 0.0 0.0 0.0 0.0
0.149 0.05055119842290878 -0.0702224001288414 -1.767277717590332e-05 2.41156667470932e-05 0.0 0.0 0.0 0.0
0.15 0.04526781290769577 -0.06812390685081482 -5.5419281125068665e-05 -3.1138770282268524e-05 0.0 0.0 0.0 0.0
0.151 0.04168275371193886 -0.06503454595804214 1.952424645423889e-05 6.18593767285347e-05 0.0 0.0 0.0 0.0
0.152 0.03857654333114624 -0.062164057046175 -2.808496356010437e-05 8.913315832614899e-05 0.0 0.0 0.0 0.0
0.153 0.03555519878864288 -0.058167047798633575 1.9900500774383545e-05 -4.874076694250107e-05 0.0 0.0 0.0 0.0
0.154 0.03353355452418327 -0.053951576352119446 3.40733677148819e-05 5.084369331598282e-05 0.0 0.0 0.0 0.0
0.155 0.032144639641046524 -0.04872447997331619 -4.8658810555934906e-05 -8.621718734502792e-05 0.0 0.0 0.0 0.0
0.156 0.03135281801223755 -0.043639298528432846 -4.685390740633011e-05 -7.766671478748322e-05 0.0 0.0 0.0 0.0
0.157 0.03321868181228638 -0.03911849856376648 9.229406714439392e-05 -1.5683472156524658e-06 0.0 0.0 0.0 0.0
0.158 0.034203410148620605 -0.03370608389377594 2.4420209228992462e-05 -4.3910928070545197e-05 0.0 0.0 0.0 0.0
0.159 0.03741062059998512 -0.030220642685890198 0.00012259557843208313 -0.00018049776554107666 0.0 0.0 0.0 0.0
0.16 0.04122770205140114 -0.02518267184495926 -7.518567144870758e-05 -3.145076334476471e-06 0.0 0.0 0.0 0.0
0.161 0.04603532329201698 -0.023145660758018494 0.0002837963402271271 0.0002584783360362053 0.0 0.0 0.0 0.0
0.162 0.05036355182528496 -0.02061534859240055 -0.0001780278980731964 4.25092875957489e-05 0.0 0.0 0.0 0.0
0.163 0.056758441030979156 -0.019714267924427986 7.1087852120399475e-06 3.861822187900543e-05 0.0 0.0 0.0 0.0
0.164 0.0614352747797966 -0.018557613715529442 6.45853579044342e-05 8.738972246646881e-05 0.0 0.0 0.0 0.0
0.165 0.0665779858827591 -0.020494980737566948 -4.6904198825359344e-05 -1.323595643043518e-05 0.0 0.0 0.0 0.0
0.166 0.07174274325370789 -0.020958105102181435 -2.2251158952713013e-05 4.369765520095825e-06 0.0 0.0 0.0 0.0
0.167 0.07640690356492996 -0.024235649034380913 -2.302229404449463e-06 -0.0002191942185163498 0.0 0.0 0.0 0.0
0.168 0.08157802373170853 -0.028509261086583138 7.828138768672943e-05 6.22868537902832e-05 0.0 0.0 0.0 0.0
0.169 0.08448979258537292 -0.03168487921357155 -0.0001389170065522194 -4.911050200462341e-05 0.0 0.0 0.0 0.0
0.17 0.08723637461662292 -0.0369834303855896 -5.287211388349533e-05 8.813384920358658e-05 0.0 0.0 0.0 0.0
0.171 0.0883924588561058 -0.04265694320201874 -2.8030015528202057e-05 -7.702596485614777e-05 0.0 0.0 0.0 0.0
0.172 0.08905740827322006 -0.04724179953336716 -7.467251271009445e-05 3.9082951843738556e-05 0.0 0.0 0.0 0.0
0.173 0.08856954425573349 -0.05304074287414551 -0.00011146441102027893 2.8638169169425964e-05 0.0 0.0 0.0 0.0
0.174 0.08681154251098633 -0.057600826025009155 -9.58731397986412e-05 -5.175359547138214e-06 0.0 0.0 0.0 0.0
0.175 0.08443688601255417 -0.06326885521411896 -4.261452704668045e-05 -2.365000545978546e-05 0.0 0.0 0.0 0.0
0.176 0.08024059981107712 -0.0660276710987091 7.787346839904785e-05 -0.00013900455087423325 0.0 0.0 0.0 0.0
0.177 0.07662643492221832 -0.07017038017511368 0.00018078461289405823 -5.214102566242218e-05 0.0 0.0 0.0 0.0
0.178 0.07313591986894608 -0.07222913205623627 1.6305595636367798e-05 3.816746175289154e-05 0.0 0.0 0.0 0.0
0.179 0.06719393283128738 -0.07318680733442307 -5.978625267744064e-05 -4.17511910200119e-06 0.0 0.0 0.0 0.0
0.18 0.06335774064064026 -0.07365559041500092 9.026750922203064e-05 9.063724428415298e-05 0.0 0.0 0.0 0.0
0.181 0.05821853131055832 -0.0717923566699028 -0.00017432868480682373 0.00011944212019443512 0.0 0.0 0.0 0.0
0.182 0.05302548035979271 -0.06991364806890488 -7.266271859407425e-05 7.841456681489944e-05 0.0 0.0 0.0 0.0
0.183 0.049347758293151855 -0.06799699366092682 4.4961459934711456e-05 2.3349188268184662e-05 0.0 0.0 0.0 0.0
