!Created with skrf (http://scikit-rf.org).
# GHz S RI R 50.0 
!freq ReS11 ImS11 ReS21 ImS21 ReS12 ImS12 ReS22 ImS22
0.001 0.962088942527771 -0.3303934335708618 0.18688155710697174 0.3177865147590637 0.0 0.0 0.0 0.0
0.002 0.6835554242134094 -0.4596813917160034 0.47594916820526123 0.2740388810634613 0.0 0.0 0.0 0.0
0.003 0.48806121945381165 -0.45602691173553467 0.6602075099945068 0.07093177735805511 0.0 0.0 0.0 0.0
0.004 0.36392226815223694 -0.4151385426521301 0.700735867023468 -0.16955463588237762 0.0 0.0 0.0 0.0
0.005 0.2951829135417938 -0.3659212291240692 0.6464205980300903 -0.39825066924095154 0.0 0.0 0.0 0.0
0.006 0.25391310453414917 -0.3266589939594269 0.5280768275260925 -0.5587651133537292 0.0 0.0 0.0 0.0
0.007 0.22842806577682495 -0.29814913868904114 0.3786199986934662 -0.6760627627372742 0.0 0.0 0.0 0.0
0.008 0.2074158787727356 -0.2794611155986786 0.21718382835388184 -0.7475247383117676 0.0 0.0 0.0 0.0
0.009 0.18850119411945343 -0.26810768246650696 0.04891972616314888 -0.7777933478355408 0.0 0.0 0.0 0.0
0.01 0.16955037415027618 -0.2562628388404846 -0.11608586460351944 -0.7678529620170593 0.0 0.0 0.0 0.0
0.011 0.1513420045375824 -0.2461981475353241 -0.27010083198547363 -0.7289443612098694 0.0 0.0 0.0 0.0
0.012 0.13172736763954163 -0.23546941578388214 -0.4164131283760071 -0.6600477695465088 0.0 0.0 0.0 0.0
0.013 0.1150941252708435 -0.22221900522708893 -0.5415849089622498 -0.5653085112571716 0.0 0.0 0.0 0.0
0.014 0.10104405134916306 -0.20542079210281372 -0.6440232992172241 -0.44510313868522644 0.0 0.0 0.0 0.0
0.015 0.09153224527835846 -0.18762844800949097 -0.7177947163581848 -0.30549344420433044 0.0 0.0 0.0 0.0
0.016 0.08693795651197433 -0.17043644189834595 -0.7651031613349915 -0.15964682400226593 0.0 0.0 0.0 0.0
0.017 0.0841294378042221 -0.15625277161598206 -0.7824624180793762 -0.003588203340768814 0.0 0.0 0.0 0.0
0.018 0.08739305287599564 -0.14314565062522888 -0.7694562077522278 0.1509532332420349 0.0 0.0 0.0 0.0
0.019 0.09107837826013565 -0.13416488468647003 -0.7214862704277039 0.29815518856048584 0.0 0.0 0.0 0.0
0.02 0.09629438072443008 -0.13020695745944977 -0.6499506831169128 0.43256524205207825 0.0 0.0 0.0 0.0
0.021 0.09959478676319122 -0.13003551959991455 -0.5516537427902222 0.5544864535331726 0.0 0.0 0.0 0.0
0.022 0.10314231365919113 -0.13052436709403992 -0.4333808720111847 0.649530291557312 0.0 0.0 0.0 0.0
0.023 0.10142327100038528 -0.13427500426769257 -0.29631179571151733 0.7175302505493164 0.0 0.0 0.0 0.0
0.024 0.096669040620327 -0.14028291404247284 -0.15257728099822998 0.7621340155601501 0.0 0.0 0.0 0.0
0.025 0.09073935449123383 -0.1420116275548935 -0.0034483950585126877 0.7728598713874817 0.0 0.0 0.0 0.0
0.026 0.08166109025478363 -0.1451263129711151 0.14614048600196838 0.7612085938453674 0.0 0.0 0.0 0.0
0.027 0.07000654190778732 -0.14366823434829712 0.28828030824661255 0.71641606092453 0.0 0.0 0.0 0.0
0.028 0.058199524879455566 -0.13843530416488647 0.42000100016593933 0.6453167796134949 0.0 0.0 0.0 0.0
0.029 0.04860971122980118 -0.1285795122385025 0.5329616069793701 0.554226815700531 0.0 0.0 0.0 0.0
0.03 0.0415613055229187 -0.11826256662607193 0.6279485821723938 0.44136354327201843 0.0 0.0 0.0 0.0
0.031 0.03671323508024216 -0.10593473166227341 0.7026714086532593 0.31391382217407227 0.0 0.0 0.0 0.0
0.032 0.035509899258613586 -0.09211285412311554 0.7480753660202026 0.1711355298757553 0.0 0.0 0.0 0.0
0.033 0.03939969465136528 -0.08075124025344849 0.7681432962417603 0.02773873321712017 0.0 0.0 0.0 0.0
0.034 0.04500952363014221 -0.07075849175453186 0.7608242034912109 -0.12360844761133194 0.0 0.0 0.0 0.0
0.035 0.0543830431997776 -0.06312453746795654 0.7216666340827942 -0.2671118974685669 0.0 0.0 0.0 0.0
0.036 0.06461609154939651 -0.05956138297915459 0.6557834148406982 -0.396054208278656 0.0 0.0 0.0 0.0
0.037 0.07568782567977905 -0.06000863388180733 0.5701847672462463 -0.5142850875854492 0.0 0.0 0.0 0.0
0.038 0.08282286673784256 -0.06467590481042862 0.459993839263916 -0.6132177710533142 0.0 0.0 0.0 0.0
0.039 0.08709286898374557 -0.0714447870850563 0.3321223855018616 -0.692165732383728 0.0 0.0 0.0 0.0
0.04 0.08958162367343903 -0.0788121148943901 0.1897120326757431 -0.74037766456604 0.0 0.0 0.0 0.0
0.041 0.08755660802125931 -0.08721773326396942 0.04455289989709854 -0.7611580491065979 0.0 0.0 0.0 0.0
0.042 0.08374515175819397 -0.09229617565870285 -0.09894130378961563 -0.7553282976150513 0.0 0.0 0.0 0.0
0.043 0.07681436836719513 -0.0972668007016182 -0.23974384367465973 -0.718230128288269 0.0 0.0 0.0 0.0
0.044 0.06854218244552612 -0.09923607856035233 -0.3711099326610565 -0.6622349619865417 0.0 0.0 0.0 0.0
0.045 0.05966166779398918 -0.09790727496147156 -0.49344560503959656 -0.5773248076438904 0.0 0.0 0.0 0.0
0.046 0.05296407267451286 -0.09352528303861618 -0.5917540788650513 -0.47078627347946167 0.0 0.0 0.0 0.0
0.047 0.04869150370359421 -0.08627872914075851 -0.6695981025695801 -0.3514840304851532 0.0 0.0 0.0 0.0
0.048 0.045993294566869736 -0.08017407357692719 -0.7248362302780151 -0.21907249093055725 0.0 0.0 0.0 0.0
0.049 0.046743348240852356 -0.07220759987831116 -0.7470691800117493 -0.07618226110935211 0.0 0.0 0.0 0.0
0.05 0.050402622669935226 -0.06640764325857162 -0.7509845495223999 0.06646603345870972 0.0 0.0 0.0 0.0
0.051 0.053807079792022705 -0.06316531449556351 -0.7226895689964294 0.20926129817962646 0.0 0.0 0.0 0.0
0.052 0.05897575616836548 -0.06056228280067444 -0.6701738238334656 0.34146857261657715 0.0 0.0 0.0 0.0
0.053 0.06478194892406464 -0.06172166019678116 -0.5912037491798401 0.4638757109642029 0.0 0.0 0.0 0.0
0.054 0.06915224343538284 -0.06557552516460419 -0.4914689362049103 0.5653204321861267 0.0 0.0 0.0 0.0
0.055 0.07212920486927032 -0.07184538245201111 -0.3768739104270935 0.650236964225769 0.0 0.0 0.0 0.0
0.056 0.06996239721775055 -0.07759452611207962 -0.24372346699237823 0.7080568075180054 0.0 0.0 0.0 0.0
0.057 0.06589629501104355 -0.08199072629213333 -0.10592416673898697 0.7394605278968811 0.0 0.0 0.0 0.0
0.058 0.060227446258068085 -0.08584178239107132 0.03768262639641762 0.7442739605903625 0.0 0.0 0.0 0.0
0.059 0.05309475213289261 -0.08791327476501465 0.17677004635334015 0.7222169041633606 0.0 0.0 0.0 0.0
0.06 0.04394805431365967 -0.08733288198709488 0.3124382197856903 0.6753125190734863 0.0 0.0 0.0 0.0
0.061 0.03684370964765549 -0.08288504928350449 0.4324972331523895 0.6036260724067688 0.0 0.0 0.0 0.0
0.062 0.02968168817460537 -0.07615142315626144 0.5388107299804688 0.5097734332084656 0.0 0.0 0.0 0.0
0.063 0.02581770531833172 -0.0666917935013771 0.624735951423645 0.39795365929603577 0.0 0.0 0.0 0.0
0.064 0.026097455993294716 -0.05650238320231438 0.6876575946807861 0.27368685603141785 0.0 0.0 0.0 0.0
0.065 0.027162836864590645 -0.04669604450464249 0.7258816361427307 0.13606667518615723 0.0 0.0 0.0 0.0
0.066 0.03338085114955902 -0.037989307194948196 0.7380316257476807 -0.0029115136712789536 0.0 0.0 0.0 0.0
0.067 0.041630640625953674 -0.03179983049631119 0.7219074964523315 -0.14038096368312836 0.0 0.0 0.0 0.0
0.068 0.05170416831970215 -0.027987930923700333 0.6819583773612976 -0.27274754643440247 0.0 0.0 0.0 0.0
0.069 0.062046490609645844 -0.028282374143600464 0.6189882755279541 -0.396852046251297 0.0 0.0 0.0 0.0
0.07 0.06985554099082947 -0.03327896073460579 0.5334112048149109 -0.5105943083763123 0.0 0.0 0.0 0.0
0.071 0.07698613405227661 -0.03862385079264641 0.42699211835861206 -0.6005907654762268 0.0 0.0 0.0 0.0
0.072 0.08227232843637466 -0.04642317816615105 0.3017503023147583 -0.6693149209022522 0.0 0.0 0.0 0.0
0.073 0.08411531150341034 -0.05408546328544617 0.17031335830688477 -0.7129542827606201 0.0 0.0 0.0 0.0
0.074 0.08230434358119965 -0.0633312240242958 0.029123222455382347 -0.7316062450408936 0.0 0.0 0.0 0.0
0.075 0.07810034602880478 -0.07096237689256668 -0.10454889386892319 -0.7229577898979187 0.0 0.0 0.0 0.0
0.076 0.07203534990549088 -0.07802222669124603 -0.24285326898097992 -0.6935778856277466 0.0 0.0 0.0 0.0
0.077 0.063477523624897 -0.07916120439767838 -0.36845773458480835 -0.6309390664100647 0.0 0.0 0.0 0.0
0.078 0.056394997984170914 -0.07874858379364014 -0.4809049367904663 -0.5498408079147339 0.0 0.0 0.0 0.0
0.079 0.049261584877967834 -0.07798469811677933 -0.5773069262504578 -0.44812384247779846 0.0 0.0 0.0 0.0
0.08 0.044259876012802124 -0.07329017668962479 -0.6481112241744995 -0.3270719647407532 0.0 0.0 0.0 0.0
0.081 0.043251264840364456 -0.06795623898506165 -0.6982266902923584 -0.20165692269802094 0.0 0.0 0.0 0.0
0.082 0.0416354164481163 -0.06283585727214813 -0.7201655507087708 -0.06523028761148453 0.0 0.0 0.0 0.0
0.083 0.04210534691810608 -0.0587322823703289 -0.7193136811256409 0.0693393424153328 0.0 0.0 0.0 0.0
0.084 0.04271450266242027 -0.055664144456386566 -0.6934747695922852 0.20705242455005646 0.0 0.0 0.0 0.0
0.085 0.046261854469776154 -0.05283354967832565 -0.6388735771179199 0.333543062210083 0.0 0.0 0.0 0.0
0.086 0.049894776195287704 -0.05391836166381836 -0.5654964447021484 0.44888296723365784 0.0 0.0 0.0 0.0
0.087 0.051980193704366684 -0.05528690293431282 -0.47127145528793335 0.5450083613395691 0.0 0.0 0.0 0.0
0.088 0.05205759406089783 -0.056936200708150864 -0.35822510719299316 0.6228346824645996 0.0 0.0 0.0 0.0
0.089 0.052093505859375 -0.05973348394036293 -0.23554132878780365 0.6813637018203735 0.0 0.0 0.0 0.0
0.09 0.04872923344373703 -0.06205909326672554 -0.10185512155294418 0.71107017993927 0.0 0.0 0.0 0.0
0.091 0.0453045554459095 -0.06267242133617401 0.03567860648036003 0.7164161801338196 0.0 0.0 0.0 0.0
0.092 0.04090794920921326 -0.062256112694740295 0.16931715607643127 0.6978025436401367 0.0 0.0 0.0 0.0
0.093 0.035966310650110245 -0.059656910598278046 0.2983545958995819 0.6494439840316772 0.0 0.0 0.0 0.0
0.094 0.03191068395972252 -0.05369744449853897 0.41487979888916016 0.5806556940078735 0.0 0.0 0.0 0.0
0.095 0.0310979001224041 -0.04804608225822449 0.5148159861564636 0.49000635743141174 0.0 0.0 0.0 0.0
0.096 0.03127030283212662 -0.04200569540262222 0.5986633896827698 0.3842068314552307 0.0 0.0 0.0 0.0
0.097 0.03482643514871597 -0.03560687601566315 0.6613202691078186 0.26768702268600464 0.0 0.0 0.0 0.0
0.098 0.03902287036180496 -0.031024767085909843 0.6980911493301392 0.137614905834198 0.0 0.0 0.0 0.0
0.099 0.044049665331840515 -0.02787116728723049 0.7132492661476135 0.0013000955805182457 0.0 0.0 0.0 0.0
0.1 0.05013696476817131 -0.027123676612973213 0.7041324973106384 -0.1502629816532135 0.0 0.0 0.0 0.0
0.101 0.05606719106435776 -0.026238882914185524 0.6389115452766418 -0.26845306158065796 0.0 0.0 0.0 0.0
0.102 0.06228607892990112 -0.030260983854532242 0.5778908133506775 -0.3853822946548462 0.0 0.0 0.0 0.0
0.103 0.0673721432685852 -0.03380364552140236 0.49535584449768066 -0.4851991534233093 0.0 0.0 0.0 0.0
0.104 0.06955556571483612 -0.039855483919382095 0.3918578326702118 -0.5707576274871826 0.0 0.0 0.0 0.0
0.105 0.07114764302968979 -0.04591881111264229 0.2790479063987732 -0.6338530778884888 0.0 0.0 0.0 0.0
0.106 0.06930942833423615 -0.05092466250061989 0.15189866721630096 -0.6743413805961609 0.0 0.0 0.0 0.0
0.107 0.06679493188858032 -0.056804951280355453 0.02354140393435955 -0.6916751861572266 0.0 0.0 0.0 0.0
0.108 0.06250924617052078 -0.05861838161945343 -0.10884150862693787 -0.681159257888794 0.0 0.0 0.0 0.0
0.109 0.05816395953297615 -0.060768529772758484 -0.23339873552322388 -0.6485584378242493 0.0 0.0 0.0 0.0
0.11 0.05378015339374542 -0.05907498300075531 -0.3532372713088989 -0.591884434223175 0.0 0.0 0.0 0.0
0.111 0.05098559707403183 -0.05865991488099098 -0.4569609761238098 -0.5137152075767517 0.0 0.0 0.0 0.0
0.112 0.04859345406293869 -0.05441144108772278 -0.5469554662704468 -0.41867706179618835 0.0 0.0 0.0 0.0
0.113 0.04826399311423302 -0.05285272002220154 -0.6130698323249817 -0.30733177065849304 0.0 0.0 0.0 0.0
0.114 0.05037271976470947 -0.05031688138842583 -0.6611430048942566 -0.18502065539360046 0.0 0.0 0.0 0.0
0.115 0.05250242352485657 -0.048774752765893936 -0.6818188428878784 -0.05756741017103195 0.0 0.0 0.0 0.0
0.116 0.054896559566259384 -0.04851965978741646 -0.682799220085144 0.07179776579141617 0.0 0.0 0.0 0.0
0.117 0.05699200928211212 -0.050707120448350906 -0.6546077728271484 0.1990862488746643 0.0 0.0 0.0 0.0
0.118 0.05864434689283371 -0.05385047569870949 -0.605583906173706 0.31985563039779663 0.0 0.0 0.0 0.0
0.119 0.0579516664147377 -0.05747849866747856 -0.5327651500701904 0.4274706542491913 0.0 0.0 0.0 0.0
0.12 0.05604363605380058 -0.061724953353405 -0.4425397217273712 0.5202443599700928 0.0 0.0 0.0 0.0
0.121 0.051555339246988297 -0.0647105723619461 -0.3363646864891052 0.5929169058799744 0.0 0.0 0.0 0.0
0.122 0.04597378149628639 -0.06698156148195267 -0.2172558307647705 0.6436946392059326 0.0 0.0 0.0 0.0
0.123 0.03961717337369919 -0.06718308478593826 -0.0929531380534172 0.6740237474441528 0.0 0.0 0.0 0.0
0.124 0.03276130557060242 -0.06532415002584457 0.03659425675868988 0.6770204305648804 0.0 0.0 0.0 0.0
0.125 0.026027226820588112 -0.059864841401576996 0.161768838763237 0.6578777432441711 0.0 0.0 0.0 0.0
0.126 0.02202233113348484 -0.053054891526699066 0.28277626633644104 0.6145209074020386 0.0 0.0 0.0 0.0
0.127 0.01915164291858673 -0.04458688944578171 0.39406973123550415 0.5487784743309021 0.0 0.0 0.0 0.0
0.128 0.019856775179505348 -0.034600697457790375 0.48884132504463196 0.463920921087265 0.0 0.0 0.0 0.0
0.129 0.023854311555624008 -0.025805940851569176 0.5678699016571045 0.36536067724227905 0.0 0.0 0.0 0.0
0.13 0.03069288842380047 -0.01753711700439453 0.6229705214500427 0.25021931529045105 0.0 0.0 0.0 0.0
0.131 0.03969893231987953 -0.012507849372923374 0.66111159324646 0.12932226061820984 0.0 0.0 0.0 0.0
0.132 0.0501091293990612 -0.009498410858213902 0.6712347865104675 0.0036188215017318726 0.0 0.0 0.0 0.0
0.133 0.06100461259484291 -0.010656245052814484 0.6621519327163696 -0.1215217337012291 0.0 0.0 0.0 0.0
0.134 0.07143755257129669 -0.014609405770897865 0.6276580691337585 -0.24423550069332123 0.0 0.0 0.0 0.0
0.135 0.078707255423069 -0.021536339074373245 0.569481372833252 -0.3576219081878662 0.0 0.0 0.0 0.0
0.136 0.08474455028772354 -0.030370067805051804 0.4919808804988861 -0.4595366418361664 0.0 0.0 0.0 0.0
0.137 0.08590985834598541 -0.041265182197093964 0.39464905858039856 -0.5447266697883606 0.0 0.0 0.0 0.0
0.138 0.08405482023954391 -0.050688404589891434 0.2845693826675415 -0.6114735007286072 0.0 0.0 0.0 0.0
0.139 0.07998926937580109 -0.059249721467494965 0.16457509994506836 -0.6513422131538391 0.0 0.0 0.0 0.0
0.14 0.07434511929750443 -0.0659085363149643 0.03980777785181999 -0.6719021201133728 0.0 0.0 0.0 0.0
0.141 0.06568671762943268 -0.06882812082767487 -0.08908387273550034 -0.6646643280982971 0.0 0.0 0.0 0.0
0.142 0.058821599930524826 -0.06968856602907181 -0.2123928815126419 -0.6356045007705688 0.0 0.0 0.0 0.0
0.143 0.05081333592534065 -0.06809913367033005 -0.3272998332977295 -0.5826003551483154 0.0 0.0 0.0 0.0
0.144 0.04526175931096077 -0.06355726718902588 -0.431471049785614 -0.5108775496482849 0.0 0.0 0.0 0.0
0.145 0.04202573746442795 -0.05741959065198898 -0.518742561340332 -0.41777899861335754 0.0 0.0 0.0 0.0
0.146 0.04148313030600548 -0.05127262696623802 -0.5888563394546509 -0.3120841383934021 0.0 0.0 0.0 0.0
0.147 0.04244203492999077 -0.04622810706496239 -0.637995719909668 -0.19730782508850098 0.0 0.0 0.0 0.0
0.148 0.04596718028187752 -0.04157165065407753 -0.6606283187866211 -0.07329501956701279 0.0 0.0 0.0 0.0
0.149 0.050308723002672195 -0.04073917120695114 -0.664024829864502 0.052264679223299026 0.0 0.0 0.0 0.0
0.15 0.05471969023346901 -0.04027398303151131 -0.6422595381736755 0.1760816127061844 0.0 0.0 0.0 0.0
0.151 0.058535996824502945 -0.04181288182735443 -0.5968891978263855 0.294689416885376 0.0 0.0 0.0 0.0
0.152 0.061207931488752365 -0.04551105573773384 -0.5294470191001892 0.40038493275642395 0.0 0.0 0.0 0.0
0.153 0.061359282582998276 -0.049937859177589417 -0.4447968006134033 0.49351364374160767 0.0 0.0 0.0 0.0
0.154 0.05898725986480713 -0.05444708839058876 -0.3440496623516083 0.5673271417617798 0.0 0.0 0.0 0.0
0.155 0.055301327258348465 -0.058748193085193634 -0.22937527298927307 0.6222741603851318 0.0 0.0 0.0 0.0
0.156 0.05038603022694588 -0.058803580701351166 -0.10815199464559555 0.6525405645370483 0.0 0.0 0.0 0.0
0.157 0.04490874335169792 -0.057667382061481476 0.016214529052376747 0.6624765396118164 0.0 0.0 0.0 0.0
0.158 0.03797602280974388 -0.053746603429317474 0.14134828746318817 0.6440895795822144 0.0 0.0 0.0 0.0
0.159 0.0338660329580307 -0.048753052949905396 0.26170191168785095 0.6062910556793213 0.0 0.0 0.0 0.0
0.16 0.032157883048057556 -0.04023700952529907 0.36863458156585693 0.5439239144325256 0.0 0.0 0.0 0.0
0.161 0.03268205374479294 -0.0318383127450943 0.46541059017181396 0.4656931757926941 0.0 0.0 0.0 0.0
0.162 0.037413496524095535 -0.02319328859448433 0.5413931012153625 0.36988329887390137 0.0 0.0 0.0 0.0
0.163 0.04383426532149315 -0.017140228301286697 0.6037017107009888 0.2620013356208801 0.0 0.0 0.0 0.0
0.164 0.052612725645303726 -0.01221988070756197 0.6407262086868286 0.14296919107437134 0.0 0.0 0.0 0.0
0.165 0.0633869543671608 -0.010350941680371761 0.6555304527282715 0.02169574424624443 0.0 0.0 0.0 0.0
0.166 0.07430120557546616 -0.011464380659162998 0.6468055248260498 -0.1012202799320221 0.0 0.0 0.0 0.0
0.167 0.0839296504855156 -0.01632470078766346 0.6154990196228027 -0.22141218185424805 0.0 0.0 0.0 0.0
0.168 0.09149376302957535 -0.024889055639505386 0.5654675960540771 -0.3360292911529541 0.0 0.0 0.0 0.0
0.169 0.09602319449186325 -0.033815864473581314 0.48887088894844055 -0.4345097541809082 0.0 0.0 0.0 0.0
0.17 0.09960383921861649 -0.04462418705224991 0.40127861499786377 -0.5186817646026611 0.0 0.0 0.0 0.0
0.171 0.09666682034730911 -0.055321261286735535 0.29442301392555237 -0.5858030915260315 0.0 0.0 0.0 0.0
0.172 0.09229068458080292 -0.0646720677614212 0.180660679936409 -0.6322452425956726 0.0 0.0 0.0 0.0
0.173 0.08561147004365921 -0.07054093480110168 0.05572713166475296 -0.6518785357475281 0.0 0.0 0.0 0.0
0.174 0.07661719620227814 -0.07601498812437057 -0.06536494195461273 -0.6511762142181396 0.0 0.0 0.0 0.0
0.175 0.06767510622739792 -0.07681161165237427 -0.18825000524520874 -0.6275758147239685 0.0 0.0 0.0 0.0
0.176 0.05985774099826813 -0.07459738850593567 -0.302003413438797 -0.5794751048088074 0.0 0.0 0.0 0.0
0.177 0.054075103253126144 -0.07038629055023193 -0.40503638982772827 -0.5113989114761353 0.0 0.0 0.0 0.0
0.178 0.04889470338821411 -0.06405766308307648 -0.496872216463089 -0.4245070517063141 0.0 0.0 0.0 0.0
0.179 0.04780811071395874 -0.05742109194397926 -0.5652399063110352 -0.3223957121372223 0.0 0.0 0.0 0.0
0.18 0.04834962636232376 -0.0519062802195549 -0.6152907013893127 -0.21156664192676544 0.0 0.0 0.0 0.0
0.181 0.05062508210539818 -0.045956362038850784 -0.6444856524467468 -0.089924156665802 0.0 0.0 0.0 0.0
0.182 0.05394485592842102 -0.04349569231271744 -0.6486356854438782 0.03246403858065605 0.0 0.0 0.0 0.0
0.183 0.059498172253370285 -0.04284112527966499 -0.6312606930732727 0.1540302336215973 0.0 0.0 0.0 0.0
0.184 0.06260474771261215 -0.043890632688999176 -0.5899702310562134 0.2681397795677185 0.0 0.0 0.0 0.0
0.185 0.06501530110836029 -0.04520475119352341 -0.529854953289032 0.3757238984107971 0.0 0.0 0.0 0.0
0.186 0.06681821495294571 -0.04768342524766922 -0.44819632172584534 0.4669363796710968 0.0 0.0 0.0 0.0
0.187 0.06666604429483414 -0.051210321485996246 -0.35311123728752136 0.5451760292053223 0.0 0.0 0.0 0.0
0.188 0.06371086835861206 -0.052972760051488876 -0.24289706349372864 0.598927915096283 0.0 0.0 0.0 0.0
0.189 0.06020145118236542 -0.05308345705270767 -0.12570418417453766 0.6355875730514526 0.0 0.0 0.0 0.0
0.19 0.056454505771398544 -0.05232648551464081 -0.0032449383288621902 0.6459637880325317 0.0 0.0 0.0 0.0
0.191 0.052733615040779114 -0.04901605099439621 0.11885933578014374 0.6349508762359619 0.0 0.0 0.0 0.0
0.192 0.0514947883784771 -0.04389471933245659 0.23615509271621704 0.6004444360733032 0.0 0.0 0.0 0.0
0.193 0.05108814686536789 -0.03703799098730087 0.3438382148742676 0.5451358556747437 0.0 0.0 0.0 0.0
