!Created with skrf (http://scikit-rf.org).
# GHz S RI R 50.0 
!freq ReS11 ImS11 ReS21 ImS21 ReS12 ImS12 ReS22 ImS22
0.001 1.0011241436004639 -0.011790606193244457 -3.018975257873535e-05 2.265162765979767e-05 0.0 0.0 0.0 0.0
0.002 0.9998965263366699 -0.02310613915324211 2.3665837943553925e-05 6.237998604774475e-06 0.0 0.0 0.0 0.0
0.003 0.9988799691200256 -0.034234669059515 6.668269634246826e-06 2.7638860046863556e-05 0.0 0.0 0.0 0.0
0.004 0.9984663128852844 -0.04507596418261528 2.0641833543777466e-05 1.6650184988975525e-05 0.0 0.0 0.0 0.0
0.005 0.9975405931472778 -0.05577550455927849 -2.3439526557922363e-05 3.07522714138031e-06 0.0 0.0 0.0 0.0
0.006 0.9967912435531616 -0.06682607531547546 -2.603977918624878e-06 1.8875114619731903e-05 0.0 0.0 0.0 0.0
0.007 0.9959794878959656 -0.07702179998159409 -1.2672506272792816e-05 4.539266228675842e-06 0.0 0.0 0.0 0.0
0.008 0.9950420260429382 -0.08815859258174896 -5.650334060192108e-06 2.922210842370987e-05 0.0 0.0 0.0 0.0
0.009 0.9932864308357239 -0.09864050149917603 2.6742927730083466e-05 1.409929245710373e-05 0.0 0.0 0.0 0.0
0.01 0.9922670125961304 -0.10959091782569885 2.3797154426574707e-05 -1.030508428812027e-05 0.0 0.0 0.0 0.0
0.011 0.991301417350769 -0.1208457201719284 -2.2621825337409973e-06 1.0337680578231812e-06 0.0 0.0 0.0 0.0
0.012 0.9905306100845337 -0.1312294900417328 -8.04942101240158e-06 -1.1304393410682678e-05 0.0 0.0 0.0 0.0
0.013 0.9882673621177673 -0.14164696633815765 -8.310191333293915e-06 6.137415766716003e-06 0.0 0.0 0.0 0.0
0.014 0.9873048067092896 -0.15303301811218262 -5.2852556109428406e-06 -1.3018958270549774e-05 0.0 0.0 0.0 0.0
0.015 0.985181987285614 -0.16312839090824127 8.404254913330078e-06 8.699484169483185e-06 0.0 0.0 0.0 0.0
0.016 0.983481228351593 -0.174531027674675 -4.804693162441254e-06 6.419606506824493e-06 0.0 0.0 0.0 0.0
0.017 0.9812585711479187 -0.18568475544452667 5.508214235305786e-05 5.008373409509659e-05 0.0 0.0 0.0 0.0
0.018 0.9795872569084167 -0.19559252262115479 3.3332034945487976e-06 -1.202896237373352e-05 0.0 0.0 0.0 0.0
0.019 0.9772968888282776 -0.20657776296138763 -1.455843448638916e-05 1.1241063475608826e-05 0.0 0.0 0.0 0.0
0.02 0.9749779105186462 -0.2168819010257721 -1.1754222214221954e-05 8.024275302886963e-06 0.0 0.0 0.0 0.0
0.021 0.9724416136741638 -0.22780458629131317 -3.043562173843384e-06 1.1550262570381165e-05 0.0 0.0 0.0 0.0
0.022 0.9699447751045227 -0.23778757452964783 1.2371689081192017e-05 -2.6673078536987305e-05 0.0 0.0 0.0 0.0
0.023 0.9670885801315308 -0.24892684817314148 -1.341104507446289e-07 -6.658956408500671e-06 0.0 0.0 0.0 0.0
0.024 0.96510910987854 -0.259426474571228 -1.4322809875011444e-05 5.809403955936432e-05 0.0 0.0 0.0 0.0
0.025 0.9616627097129822 -0.27001097798347473 2.134125679731369e-05 6.019137799739838e-06 0.0 0.0 0.0 0.0
0.026 0.9584925174713135 -0.28003349900245667 7.526949048042297e-06 2.2239983081817627e-05 0.0 0.0 0.0 0.0
0.027 0.955564022064209 -0.29110294580459595 -1.4998950064182281e-05 2.3389235138893127e-05 0.0 0.0 0.0 0.0
0.028 0.9527211785316467 -0.3014286458492279 9.105540812015533e-06 3.636069595813751e-05 0.0 0.0 0.0 0.0
0.029 0.9489334225654602 -0.3114122450351715 9.369105100631714e-06 1.5395693480968475e-05 0.0 0.0 0.0 0.0
0.03 0.9460570216178894 -0.32228511571884155 5.093403160572052e-06 -7.537193596363068e-06 0.0 0.0 0.0 0.0
0.031 0.9422613978385925 -0.33152827620506287 2.863910049200058e-05 9.187497198581696e-06 0.0 0.0 0.0 0.0
0.032 0.9385374784469604 -0.3417786955833435 -1.7564743757247925e-05 -4.909001290798187e-06 0.0 0.0 0.0 0.0
0.033 0.9352796673774719 -0.35209181904792786 5.018897354602814e-06 1.0357238352298737e-05 0.0 0.0 0.0 0.0
0.034 0.9315456748008728 -0.36235511302948 1.064501702785492e-06 -3.093201667070389e-05 0.0 0.0 0.0 0.0
0.035 0.9269862771034241 -0.3722997307777405 9.346753358840942e-06 -3.485195338726044e-05 0.0 0.0 0.0 0.0
0.036 0.9232140183448792 -0.38256439566612244 -6.193295121192932e-07 1.3630837202072144e-05 0.0 0.0 0.0 0.0
0.037 0.9188351035118103 -0.3924969732761383 6.126239895820618e-06 4.017818719148636e-05 0.0 0.0 0.0 0.0
0.038 0.9146974086761475 -0.40227243304252625 2.5928020477294922e-05 -3.6749988794326782e-06 0.0 0.0 0.0 0.0
0.039 0.9099854230880737 -0.41229507327079773 -2.6421621441841125e-06 4.708766937255859e-06 0.0 0.0 0.0 0.0
0.04 0.9053127765655518 -0.42188677191734314 3.943033516407013e-05 -1.9995495676994324e-06 0.0 0.0 0.0 0.0
0.041 0.9006612300872803 -0.4315868616104126 2.671964466571808e-05 3.734603524208069e-06 0.0 0.0 0.0 0.0
0.042 0.8965722918510437 -0.44171059131622314 1.9120052456855774e-06 -2.0847655832767487e-05 0.0 0.0 0.0 0.0
0.043 0.8912445306777954 -0.45113182067871094 2.767890691757202e-06 1.1411495506763458e-05 0.0 0.0 0.0 0.0
0.044 0.8867731690406799 -0.4609125554561615 -1.7933547496795654e-05 1.163966953754425e-05 0.0 0.0 0.0 0.0
0.045 0.8819817900657654 -0.47038567066192627 2.8514303267002106e-05 2.1778978407382965e-05 0.0 0.0 0.0 0.0
0.046 0.8768962621688843 -0.48019370436668396 1.747719943523407e-05 -1.3718381524085999e-05 0.0 0.0 0.0 0.0
0.047 0.8715440630912781 -0.48944568634033203 1.7993152141571045e-05 -1.8347054719924927e-05 0.0 0.0 0.0 0.0
0.048 0.8660585284233093 -0.49882179498672485 2.5508925318717957e-06 9.676441550254822e-07 0.0 0.0 0.0 0.0
0.049 0.8609452843666077 -0.5078818202018738 -2.29664146900177e-06 1.3101845979690552e-05 0.0 0.0 0.0 0.0
0.05 0.8555904030799866 -0.5174272656440735 1.4817342162132263e-05 -1.1521391570568085e-05 0.0 0.0 0.0 0.0
0.051 0.8500268459320068 -0.5258066654205322 -1.2433156371116638e-06 -1.9004568457603455e-05 0.0 0.0 0.0 0.0
0.052 0.8448060154914856 -0.5351296067237854 1.3181939721107483e-05 -7.740221917629242e-06 0.0 0.0 0.0 0.0
0.053 0.8386241793632507 -0.543821394443512 -2.635270357131958e-05 1.2315809726715088e-05 0.0 0.0 0.0 0.0
0.054 0.8328214883804321 -0.5532814264297485 1.5441328287124634e-05 4.0978193283081055e-08 0.0 0.0 0.0 0.0
0.055 0.8268234729766846 -0.5620695352554321 4.077330231666565e-05 1.0209158062934875e-05 0.0 0.0 0.0 0.0
0.056 0.8210103511810303 -0.5705132484436035 1.939665526151657e-05 -1.0666437447071075e-05 0.0 0.0 0.0 0.0
0.057 0.8151631951332092 -0.5792585611343384 -1.9585713744163513e-06 -1.6755424439907074e-05 0.0 0.0 0.0 0.0
0.058 0.808799147605896 -0.5880672931671143 -4.973262548446655e-07 3.5114586353302e-05 0.0 0.0 0.0 0.0
0.059 0.8025000095367432 -0.5966393947601318 6.337650120258331e-06 -4.6510249376297e-06 0.0 0.0 0.0 0.0
0.06 0.7962257266044617 -0.6052682995796204 -1.4657154679298401e-05 4.2496249079704285e-06 0.0 0.0 0.0 0.0
0.061 0.7897500991821289 -0.613721489906311 9.872019290924072e-06 1.0695308446884155e-05 0.0 0.0 0.0 0.0
0.062 0.7830855250358582 -0.622188150882721 8.374452590942383e-06 -1.7778947949409485e-05 0.0 0.0 0.0 0.0
0.063 0.776645839214325 -0.6302074193954468 5.435198545455933e-06 2.5371089577674866e-05 0.0 0.0 0.0 0.0
0.064 0.7692282199859619 -0.6390810608863831 -1.1305324733257294e-05 -1.9525177776813507e-05 0.0 0.0 0.0 0.0
0.065 0.7635537981987 -0.646726131439209 2.093985676765442e-05 -3.7282705307006836e-05 0.0 0.0 0.0 0.0
0.066 0.756732165813446 -0.6545657515525818 3.818422555923462e-07 -8.761882781982422e-06 0.0 0.0 0.0 0.0
0.067 0.7496486902236938 -0.6624036431312561 1.0361894965171814e-05 -3.1404197216033936e-06 0.0 0.0 0.0 0.0
0.068 0.7425446510314941 -0.6704679727554321 9.909272193908691e-07 -3.450922667980194e-05 0.0 0.0 0.0 0.0
0.069 0.7350472211837769 -0.6784515380859375 -3.5956501960754395e-05 -3.4024007618427277e-05 0.0 0.0 0.0 0.0
0.07 0.7286137938499451 -0.6859922409057617 -6.758607923984528e-06 -3.1497329473495483e-06 0.0 0.0 0.0 0.0
0.071 0.7218164205551147 -0.694080114364624 -8.994713425636292e-06 -9.436160326004028e-06 0.0 0.0 0.0 0.0
0.072 0.7138358354568481 -0.7019657492637634 1.2862496078014374e-05 6.796792149543762e-06 0.0 0.0 0.0 0.0
0.073 0.7066170573234558 -0.7091456651687622 -1.1944212019443512e-05 -3.321375697851181e-05 0.0 0.0 0.0 0.0
0.074 0.699128270149231 -0.7163683772087097 6.136484444141388e-06 -2.8522685170173645e-05 0.0 0.0 0.0 0.0
0.075 0.691806435585022 -0.7237317562103271 -7.3229894042015076e-06 1.0990537703037262e-05 0.0 0.0 0.0 0.0
0.076 0.6839221119880676 -0.731088399887085 1.3607554137706757e-05 -7.534399628639221e-06 0.0 0.0 0.0 0.0
0.077 0.676627516746521 -0.7384648323059082 -9.519979357719421e-06 -5.414709448814392e-06 0.0 0.0 0.0 0.0
0.078 0.6689735651016235 -0.7450406551361084 -1.7846934497356415e-05 -8.289702236652374e-06 0.0 0.0 0.0 0.0
0.079 0.6613603234291077 -0.7524228692054749 4.4061802327632904e-05 2.777203917503357e-06 0.0 0.0 0.0 0.0
0.08 0.6536957025527954 -0.7590318322181702 9.465962648391724e-06 -3.2221898436546326e-05 0.0 0.0 0.0 0.0
0.081 0.6460481882095337 -0.7658209204673767 4.886649549007416e-05 2.3642554879188538e-05 0.0 0.0 0.0 0.0
0.082 0.6373919248580933 -0.7728815674781799 -3.2084062695503235e-05 -3.670528531074524e-05 0.0 0.0 0.0 0.0
0.083 0.6293364763259888 -0.7799789309501648 3.130454570055008e-05 -2.2042542695999146e-05 0.0 0.0 0.0 0.0
0.084 0.6218245625495911 -0.7864371538162231 1.2644566595554352e-05 -1.0505318641662598e-06 0.0 0.0 0.0 0.0
0.085 0.613876223564148 -0.7927567362785339 3.883615136146545e-06 3.1311996281147e-05 0.0 0.0 0.0 0.0
0.086 0.6055704355239868 -0.7992107272148132 5.28339296579361e-06 -1.4789402484893799e-05 0.0 0.0 0.0 0.0
0.087 0.5970311760902405 -0.8057333827018738 -5.930662155151367e-06 -1.5450641512870789e-06 0.0 0.0 0.0 0.0
0.088 0.589140772819519 -0.8117470741271973 1.0007992386817932e-05 8.159317076206207e-06 0.0 0.0 0.0 0.0
0.089 0.5809763669967651 -0.8180992007255554 1.585017889738083e-05 6.265006959438324e-06 0.0 0.0 0.0 0.0
0.09 0.5725436210632324 -0.8240994215011597 1.9380822777748108e-05 2.1822750568389893e-05 0.0 0.0 0.0 0.0
0.091 0.5637037754058838 -0.8299636840820312 6.064120680093765e-05 6.191432476043701e-06 0.0 0.0 0.0 0.0
0.092 0.5557963252067566 -0.8361322283744812 -8.19377601146698e-06 4.8959627747535706e-06 0.0 0.0 0.0 0.0
0.093 0.5472254157066345 -0.841471791267395 1.397542655467987e-05 -4.103034734725952e-05 0.0 0.0 0.0 0.0
0.094 0.5387427806854248 -0.847203254699707 -2.660788595676422e-06 1.909583806991577e-05 0.0 0.0 0.0 0.0
0.095 0.5300262570381165 -0.8529662489891052 -2.4279579520225525e-06 9.872019290924072e-07 0.0 0.0 0.0 0.0
0.096 0.5208625793457031 -0.8580458760261536 2.162531018257141e-06 1.4780089259147644e-05 0.0 0.0 0.0 0.0
0.097 0.5137020945549011 -0.8634614944458008 -1.225341111421585e-05 2.6671215891838074e-05 0.0 0.0 0.0 0.0
0.098 0.5047798156738281 -0.8688670992851257 3.165844827890396e-05 -2.910848706960678e-05 0.0 0.0 0.0 0.0
0.099 0.49614131450653076 -0.8739815950393677 9.430572390556335e-06 2.2104941308498383e-05 0.0 0.0 0.0 0.0
0.1 0.4871598482131958 -0.8792863488197327 3.6978162825107574e-05 2.1550804376602173e-05 0.0 0.0 0.0 0.0
0.101 0.44101718068122864 -0.8725911378860474 -1.938454806804657e-05 1.717451959848404e-05 0.0 0.0 0.0 0.0
0.102 0.43201982975006104 -0.8766582608222961 2.061016857624054e-05 -9.354203939437866e-06 0.0 0.0 0.0 0.0
0.103 0.4223739504814148 -0.8802439570426941 1.2842938303947449e-05 -1.4739111065864563e-05 0.0 0.0 0.0 0.0
0.104 0.4137679934501648 -0.8842947483062744 -2.8586015105247498e-05 2.618413418531418e-05 0.0 0.0 0.0 0.0
0.105 0.4044778347015381 -0.8880326151847839 2.0752660930156708e-05 -2.7031637728214264e-05 0.0 0.0 0.0 0.0
0.106 0.3958905041217804 -0.8918025493621826 -2.2617168724536896e-05 -7.546506822109222e-06 0.0 0.0 0.0 0.0
0.107 0.38674482703208923 -0.8958592414855957 -1.5757977962493896e-06 1.3951212167739868e-05 0.0 0.0 0.0 0.0
0.108 0.3778190612792969 -0.8990433216094971 -1.0516494512557983e-05 5.8552250266075134e-06 0.0 0.0 0.0 0.0
0.109 0.3689535856246948 -0.9028097987174988 -2.8219074010849e-06 3.457348793745041e-05 0.0 0.0 0.0 0.0
0.11 0.35994821786880493 -0.9058867692947388 1.5926547348499298e-05 4.917383193969727e-07 0.0 0.0 0.0 0.0
0.111 0.3506481945514679 -0.9091930985450745 1.7430633306503296e-05 1.873355358839035e-05 0.0 0.0 0.0 0.0
0.112 0.3410261571407318 -0.9121308326721191 -3.688037395477295e-07 -7.97957181930542e-06 0.0 0.0 0.0 0.0
0.113 0.33236879110336304 -0.9155793190002441 -1.1486932635307312e-05 3.920309245586395e-05 0.0 0.0 0.0 0.0
0.114 0.32334500551223755 -0.9182853102684021 -1.846160739660263e-05 2.7070753276348114e-05 0.0 0.0 0.0 0.0
0.115 0.31411004066467285 -0.9212253093719482 -6.4820051193237305e-06 -1.5526078641414642e-05 0.0 0.0 0.0 0.0
0.116 0.3051515221595764 -0.924019455909729 2.505257725715637e-07 7.869675755500793e-07 0.0 0.0 0.0 0.0
0.117 0.29599621891975403 -0.9266133308410645 -6.663613021373749e-06 1.4400109648704529e-05 0.0 0.0 0.0 0.0
0.118 0.2869662940502167 -0.9293355345726013 2.0590610802173615e-05 -1.2712553143501282e-05 0.0 0.0 0.0 0.0
0.119 0.27788376808166504 -0.9319902062416077 -1.6602687537670135e-05 -1.840200275182724e-05 0.0 0.0 0.0 0.0
0.12 0.26856374740600586 -0.9347436428070068 -1.278705894947052e-05 1.846812665462494e-06 0.0 0.0 0.0 0.0
0.121 0.259439617395401 -0.9366109371185303 -1.0113231837749481e-05 2.389773726463318e-06 0.0 0.0 0.0 0.0
0.122 0.25017109513282776 -0.9389914870262146 2.77860090136528e-05 3.066007047891617e-05 0.0 0.0 0.0 0.0
0.123 0.24116250872612 -0.9414612054824829 -1.82250514626503e-05 1.3520941138267517e-05 0.0 0.0 0.0 0.0
0.124 0.2320525050163269 -0.9434834718704224 1.304037868976593e-05 1.2503005564212799e-05 0.0 0.0 0.0 0.0
0.125 0.22294676303863525 -0.945259690284729 1.4833174645900726e-05 -2.727564424276352e-05 0.0 0.0 0.0 0.0
0.126 0.21423488855361938 -0.9471490383148193 -4.639849066734314e-06 9.872019290924072e-06 0.0 0.0 0.0 0.0
0.127 0.20469233393669128 -0.949289858341217 1.3766810297966003e-05 7.097609341144562e-06 0.0 0.0 0.0 0.0
0.128 0.19676467776298523 -0.9510976672172546 1.7520040273666382e-05 7.82310962677002e-06 0.0 0.0 0.0 0.0
0.129 0.18649092316627502 -0.9526985883712769 -2.787727862596512e-05 -3.124680370092392e-05 0.0 0.0 0.0 0.0
0.13 0.17743843793869019 -0.9540345668792725 -2.41696834564209e-05 -1.500733196735382e-05 0.0 0.0 0.0 0.0
0.131 0.168252095580101 -0.9556591510772705 -2.6465393602848053e-05 -4.320964217185974e-05 0.0 0.0 0.0 0.0
0.132 0.15937228500843048 -0.9572722315788269 -7.902272045612335e-06 2.305954694747925e-06 0.0 0.0 0.0 0.0
0.133 0.15014547109603882 -0.9582211971282959 -3.930088132619858e-05 -1.5737488865852356e-05 0.0 0.0 0.0 0.0
0.134 0.14141859114170074 -0.9600494503974915 -1.3141892850399017e-05 2.7392059564590454e-05 0.0 0.0 0.0 0.0
0.135 0.13208435475826263 -0.961233377456665 1.8991529941558838e-05 1.0434538125991821e-05 0.0 0.0 0.0 0.0
0.136 0.12286236137151718 -0.9620165228843689 2.965424209833145e-05 -7.809139788150787e-06 0.0 0.0 0.0 0.0
0.137 0.11395962536334991 -0.9631789922714233 2.394057810306549e-05 2.8838403522968292e-05 0.0 0.0 0.0 0.0
0.138 0.10463162511587143 -0.9638662338256836 -8.964911103248596e-06 2.3257918655872345e-05 0.0 0.0 0.0 0.0
0.139 0.09610474854707718 -0.965451180934906 2.4294480681419373e-05 4.451349377632141e-05 0.0 0.0 0.0 0.0
0.14 0.08646465837955475 -0.9657497406005859 1.6158446669578552e-06 -1.4551915228366852e-05 0.0 0.0 0.0 0.0
0.141 0.07786621898412704 -0.966585099697113 1.9754283130168915e-05 2.6728026568889618e-05 0.0 0.0 0.0 0.0
0.142 0.06832151114940643 -0.9668416976928711 -2.8201378881931305e-05 3.3076852560043335e-05 0.0 0.0 0.0 0.0
0.143 0.059656281024217606 -0.9678451418876648 -1.8347054719924927e-07 -1.4972873032093048e-05 0.0 0.0 0.0 0.0
0.144 0.050997279584407806 -0.9684011936187744 -7.306225597858429e-06 -2.3194588720798492e-05 0.0 0.0 0.0 0.0
0.145 0.04158800467848778 -0.9683479070663452 -3.821123391389847e-05 -2.361927181482315e-05 0.0 0.0 0.0 0.0
0.146 0.03241590037941933 -0.96908038854599 2.980232238769531e-07 -7.423572242259979e-06 0.0 0.0 0.0 0.0
0.147 0.023569295182824135 -0.9692019820213318 1.8152408301830292e-05 -3.157183527946472e-06 0.0 0.0 0.0 0.0
0.148 0.01467270776629448 -0.9693602919578552 -2.4230219423770905e-05 -1.7434358596801758e-05 0.0 0.0 0.0 0.0
0.149 0.005537400022149086 -0.9691371321678162 2.1476298570632935e-06 7.763504981994629e-06 0.0 0.0 0.0 0.0
0.15 -0.002696358598768711 -0.9696435332298279 -8.091330528259277e-06 -3.7802383303642273e-06 0.0 0.0 0.0 0.0
0.151 -0.012181110680103302 -0.969153642654419 1.4647841453552246e-05 -2.5238841772079468e-05 0.0 0.0 0.0 0.0
0.152 -0.021383417770266533 -0.9690089225769043 4.773028194904327e-06 -2.1345913410186768e-06 0.0 0.0 0.0 0.0
0.153 -0.030316820368170738 -0.9692749977111816 2.8498470783233643e-06 -6.225891411304474e-06 0.0 0.0 0.0 0.0
0.154 -0.038662590086460114 -0.9685442447662354 -1.185201108455658e-05 1.6164034605026245e-05 0.0 0.0 0.0 0.0
0.155 -0.04768435284495354 -0.9694750905036926 1.898687332868576e-05 1.2254342436790466e-05 0.0 0.0 0.0 0.0
0.156 -0.056306540966033936 -0.968944787979126 -1.8123537302017212e-06 -1.6633421182632446e-06 0.0 0.0 0.0 0.0
0.157 -0.0654592365026474 -0.9685249328613281 -1.2707896530628204e-05 3.7392601370811462e-06 0.0 0.0 0.0 0.0
0.158 -0.07401446253061295 -0.967250406742096 -1.6155652701854706e-05 4.298333078622818e-05 0.0 0.0 0.0 0.0
0.159 -0.08313398063182831 -0.9670952558517456 1.4470890164375305e-05 1.604389399290085e-05 0.0 0.0 0.0 0.0
0.16 -0.09098239243030548 -0.966019332408905 2.074427902698517e-05 3.401283174753189e-05 0.0 0.0 0.0 0.0
0.161 -0.10053429007530212 -0.9651670455932617 9.958632290363312e-06 -1.039355993270874e-05 0.0 0.0 0.0 0.0
0.162 -0.10874629020690918 -0.9647057056427002 1.553073525428772e-05 1.4262273907661438e-05 0.0 0.0 0.0 0.0
0.163 -0.11805655807256699 -0.9640532732009888 2.597179263830185e-05 1.109391450881958e-05 0.0 0.0 0.0 0.0
0.164 -0.126981720328331 -0.9622812867164612 8.803792297840118e-06 -2.3789703845977783e-05 0.0 0.0 0.0 0.0
0.165 -0.13511797785758972 -0.9615308046340942 1.6707926988601685e-06 -9.977258741855621e-06 0.0 0.0 0.0 0.0
0.166 -0.14385421574115753 -0.9603591561317444 6.6729262471199036e-06 2.1916814148426056e-05 0.0 0.0 0.0 0.0
0.167 -0.153020977973938 -0.9591510891914368 -7.487833499908447e-06 8.32974910736084e-06 0.0 0.0 0.0 0.0
0.168 -0.161461740732193 -0.9584938883781433 6.833113729953766e-06 -6.950460374355316e-06 0.0 0.0 0.0 0.0
0.169 -0.16926731169223785 -0.9570195078849792 1.8238089978694916e-05 -3.499817103147507e-05 0.0 0.0 0.0 0.0
0.17 -0.17832931876182556 -0.9554368853569031 1.2116506695747375e-06 -6.661750376224518e-06 0.0 0.0 0.0 0.0
0.171 -0.18723510205745697 -0.9540356993675232 3.6891549825668335e-05 -1.2405216693878174e-05 0.0 0.0 0.0 0.0
0.172 -0.1957838386297226 -0.952896237373352 -1.6856007277965546e-05 5.51808625459671e-06 0.0 0.0 0.0 0.0
0.173 -0.2042558193206787 -0.951148509979248 8.742325007915497e-06 -1.087971031665802e-05 0.0 0.0 0.0 0.0
0.174 -0.21259190142154694 -0.9493823647499084 4.0825456380844116e-05 1.1256895959377289e-05 0.0 0.0 0.0 0.0
0.175 -0.22162406146526337 -0.947839081287384 -2.300366759300232e-07 6.2873587012290955e-06 0.0 0.0 0.0 0.0
0.176 -0.22975698113441467 -0.9455658793449402 -4.095025360584259e-06 1.3286247849464417e-05 0.0 0.0 0.0 0.0
0.177 -0.2380906045436859 -0.9441865682601929 1.7795711755752563e-05 -5.597248673439026e-06 0.0 0.0 0.0 0.0
0.178 -0.24648264050483704 -0.9422543048858643 2.648215740919113e-05 5.901791155338287e-06 0.0 0.0 0.0 0.0
0.179 -0.25549206137657166 -0.9400920867919922 6.248243153095245e-06 -2.382323145866394e-06 0.0 0.0 0.0 0.0
0.18 -0.26327794790267944 -0.9380373954772949 -4.0551647543907166e-05 2.497714012861252e-05 0.0 0.0 0.0 0.0
0.181 -0.27206140756607056 -0.935920000076294 2.3733824491500854e-05 1.9865110516548157e-06 0.0 0.0 0.0 0.0
0.182 -0.2799680531024933 -0.9337572455406189 -1.3479962944984436e-05 -2.320762723684311e-05 0.0 0.0 0.0 0.0
0.183 -0.2888942062854767 -0.9313918352127075 2.60109081864357e-05 -1.7222948372364044e-05 0.0 0.0 0.0 0.0
0.184 -0.2967011034488678 -0.9293981194496155 -2.0041130483150482e-05 -6.268732249736786e-06 0.0 0.0 0.0 0.0
0.185 -0.3053637444972992 -0.926866888999939 -2.561509609222412e-05 6.51925802230835e-07 0.0 0.0 0.0 0.0
