!Created with skrf (http://scikit-rf.org).
# GHz S RI R 50.0 
!freq ReS11 ImS11 ReS21 ImS21 ReS12 ImS12 ReS22 ImS22
0.001 -1.1891683340072632 -0.11954633891582489 4.357658326625824e-06 -2.6008114218711853e-05 0.0 0.0 0.0 0.0
0.002 -1.1261557340621948 -0.00251727644354105 1.1159107089042664e-05 -9.350478649139404e-07 0.0 0.0 0.0 0.0
0.003 -1.0939627885818481 0.04058287292718887 -4.5075081288814545e-05 -4.1785649955272675e-05 0.0 0.0 0.0 0.0
0.004 -1.0672048330307007 0.05923188477754593 2.9426999390125275e-05 1.568719744682312e-05 0.0 0.0 0.0 0.0
0.005 -1.0463736057281494 0.06703857332468033 -1.627020537853241e-06 1.4534220099449158e-05 0.0 0.0 0.0 0.0
0.006 -1.0296443700790405 0.0690842717885971 -2.621673047542572e-05 7.270835340023041e-06 0.0 0.0 0.0 0.0
0.007 -1.0168850421905518 0.06820505112409592 -2.662278711795807e-05 5.1176175475120544e-06 0.0 0.0 0.0 0.0
0.008 -1.008133888244629 0.06668271124362946 -1.7589889466762543e-05 -1.0747462511062622e-05 0.0 0.0 0.0 0.0
0.009 -1.0012754201889038 0.06410697102546692 9.781681001186371e-06 -2.045556902885437e-05 0.0 0.0 0.0 0.0
0.01 -0.996009111404419 0.0612935908138752 -8.895061910152435e-06 -1.7931684851646423e-05 0.0 0.0 0.0 0.0
0.011 -0.992013156414032 0.059309422969818115 7.618218660354614e-07 -5.739741027355194e-06 0.0 0.0 0.0 0.0
0.012 -0.9895855188369751 0.057175688445568085 4.610978066921234e-06 -3.1773000955581665e-05 0.0 0.0 0.0 0.0
0.013 -0.9871899485588074 0.0554027296602726 -2.4223700165748596e-05 -1.777149736881256e-05 0.0 0.0 0.0 0.0
0.014 -0.9855871796607971 0.05412676930427551 4.448927938938141e-06 2.7650967240333557e-06 0.0 0.0 0.0 0.0
0.015 -0.9843040108680725 0.05291798710823059 1.703668385744095e-05 3.117043524980545e-05 0.0 0.0 0.0 0.0
0.016 -0.9842213988304138 0.05256601423025131 -5.364418029785156e-06 1.51023268699646e-05 0.0 0.0 0.0 0.0
0.017 -0.983153760433197 0.05154569819569588 -1.8583610653877258e-05 -4.301033914089203e-05 0.0 0.0 0.0 0.0
0.018 -0.9828362464904785 0.051667507737874985 1.778826117515564e-05 -9.971670806407928e-06 0.0 0.0 0.0 0.0
0.019 -0.982781171798706 0.05169385299086571 -1.2237578630447388e-06 3.538094460964203e-06 0.0 0.0 0.0 0.0
0.02 -0.9825288653373718 0.051662296056747437 -1.701340079307556e-05 -1.2720003724098206e-05 0.0 0.0 0.0 0.0
0.021 -0.9821953177452087 0.05166582763195038 -2.8065405786037445e-05 -1.0128132998943329e-05 0.0 0.0 0.0 0.0
0.022 -0.9823030233383179 0.051741208881139755 -3.095250576734543e-05 -1.4059245586395264e-05 0.0 0.0 0.0 0.0
0.023 -0.9825947880744934 0.05241161584854126 -1.2237578630447388e-05 -2.530030906200409e-05 0.0 0.0 0.0 0.0
0.024 -0.9822551012039185 0.05272679403424263 -3.290455788373947e-05 -1.4777295291423798e-05 0.0 0.0 0.0 0.0
0.025 -0.9826611876487732 0.05402970314025879 -4.0592625737190247e-05 -3.1301751732826233e-06 0.0 0.0 0.0 0.0
0.026 -0.9829755425453186 0.05381055921316147 -9.523704648017883e-06 -4.376564174890518e-05 0.0 0.0 0.0 0.0
0.027 -0.9833033680915833 0.05567922815680504 7.507391273975372e-06 8.448958396911621e-06 0.0 0.0 0.0 0.0
0.028 -0.9832044839859009 0.056532006710767746 -1.3840384781360626e-05 -2.3640692234039307e-05 0.0 0.0 0.0 0.0
0.029 -0.9834614992141724 0.05744439736008644 2.6300549507141113e-06 -1.5086494386196136e-05 0.0 0.0 0.0 0.0
0.03 -0.9838890433311462 0.0584133006632328 -3.0083581805229187e-05 -2.4097971618175507e-05 0.0 0.0 0.0 0.0
0.031 -0.9841034412384033 0.05938440188765526 -1.997966319322586e-05 -1.2512318789958954e-05 0.0 0.0 0.0 0.0
0.032 -0.9837746024131775 0.06000445783138275 -6.1765313148498535e-06 5.111098289489746e-06 0.0 0.0 0.0 0.0
0.033 -0.9839270710945129 0.061455558985471725 1.4649704098701477e-06 3.147311508655548e-05 0.0 0.0 0.0 0.0
0.034 -0.9848124384880066 0.06281781941652298 -1.9545666873455048e-05 8.547678589820862e-06 0.0 0.0 0.0 0.0
0.035 -0.9850243330001831 0.06423968076705933 -1.846347004175186e-05 -1.3295561075210571e-05 0.0 0.0 0.0 0.0
0.036 -0.9853204488754272 0.06491775810718536 -1.5011988580226898e-05 2.042669802904129e-05 0.0 0.0 0.0 0.0
0.037 -0.9856237173080444 0.06682350486516953 -3.766920417547226e-05 3.973953425884247e-06 0.0 0.0 0.0 0.0
0.038 -0.9851740598678589 0.0680142343044281 -1.8620863556861877e-05 7.39656388759613e-06 0.0 0.0 0.0 0.0
0.039 -0.9859505891799927 0.06941109150648117 -4.050321877002716e-06 3.7532299757003784e-06 0.0 0.0 0.0 0.0
0.04 -0.98578941822052 0.07090656459331512 -1.886766403913498e-05 -5.979090929031372e-06 0.0 0.0 0.0 0.0
0.041 -0.9863062500953674 0.07214870303869247 -1.2608245015144348e-05 2.247653901576996e-05 0.0 0.0 0.0 0.0
0.042 -0.9861621260643005 0.07385752350091934 -2.3138709366321564e-05 1.2156553566455841e-05 0.0 0.0 0.0 0.0
0.043 -0.9865059852600098 0.07565836608409882 1.5033408999443054e-05 -8.614733815193176e-06 0.0 0.0 0.0 0.0
0.044 -0.9865478873252869 0.0771467387676239 2.2737309336662292e-05 2.5064684450626373e-05 0.0 0.0 0.0 0.0
0.045 -0.9876030087471008 0.07844283431768417 -6.321817636489868e-06 -2.2375956177711487e-05 0.0 0.0 0.0 0.0
0.046 -0.9873462915420532 0.07974125444889069 -1.7676502466201782e-06 -4.759989678859711e-06 0.0 0.0 0.0 0.0
0.047 -0.9874257445335388 0.08113527297973633 2.7474015951156616e-07 -2.2931024432182312e-05 0.0 0.0 0.0 0.0
0.048 -0.9873319268226624 0.08289004862308502 -6.925314664840698e-06 9.63546335697174e-06 0.0 0.0 0.0 0.0
0.049 -0.9880605936050415 0.08497200906276703 -3.132130950689316e-05 1.416727900505066e-05 0.0 0.0 0.0 0.0
0.05 -0.9880945682525635 0.08664211630821228 -7.012858986854553e-07 -1.4054588973522186e-05 0.0 0.0 0.0 0.0
0.051 -0.9886602163314819 0.08796597272157669 1.0895542800426483e-05 5.534850060939789e-06 0.0 0.0 0.0 0.0
0.052 -0.9884853363037109 0.08928582072257996 7.648393511772156e-05 -6.408430635929108e-06 0.0 0.0 0.0 0.0
0.053 -0.9881970882415771 0.09103254973888397 1.607462763786316e-05 -6.0889869928359985e-06 0.0 0.0 0.0 0.0
0.054 -0.9888275265693665 0.09335517138242722 -6.713904440402985e-06 8.597038686275482e-06 0.0 0.0 0.0 0.0
0.055 -0.9886371493339539 0.09406691044569016 -3.394950181245804e-05 -3.0742958188056946e-06 0.0 0.0 0.0 0.0
0.056 -0.9896701574325562 0.09603848308324814 -1.4249235391616821e-05 4.557892680168152e-06 0.0 0.0 0.0 0.0
0.057 -0.9892726540565491 0.09801706671714783 2.0544975996017456e-06 -1.1831521987915039e-05 0.0 0.0 0.0 0.0
0.058 -0.9892372488975525 0.09975063800811768 8.495524525642395e-06 2.5228597223758698e-05 0.0 0.0 0.0 0.0
0.059 -0.9897634983062744 0.10126245766878128 -2.4918466806411743e-05 1.0504387319087982e-05 0.0 0.0 0.0 0.0
0.06 -0.9897995591163635 0.1030324175953865 6.640329957008362e-06 3.8836151361465454e-07 0.0 0.0 0.0 0.0
0.061 -0.9897775053977966 0.10471654683351517 4.232767969369888e-05 4.4330954551696777e-07 0.0 0.0 0.0 0.0
0.062 -0.9902663230895996 0.1068911924958229 -3.959145396947861e-05 -8.649192750453949e-06 0.0 0.0 0.0 0.0
0.063 -0.9899667501449585 0.1079028844833374 9.152106940746307e-06 2.9771588742733002e-05 0.0 0.0 0.0 0.0
0.064 -0.9900612235069275 0.11034776270389557 -2.910476177930832e-05 -1.5927478671073914e-05 0.0 0.0 0.0 0.0
0.065 -0.9896296858787537 0.11173701286315918 -4.08785417675972e-05 -7.765833288431168e-05 0.0 0.0 0.0 0.0
0.066 -0.990419328212738 0.11308247596025467 -9.192153811454773e-07 1.0351650416851044e-05 0.0 0.0 0.0 0.0
0.067 -0.9904714822769165 0.11474024504423141 -3.853067755699158e-05 -3.7806108593940735e-05 0.0 0.0 0.0 0.0
0.068 -0.9906859397888184 0.1168757975101471 -1.5058554708957672e-05 7.169321179389954e-06 0.0 0.0 0.0 0.0
0.069 -0.9907428026199341 0.11871708184480667 -4.1425228118896484e-06 3.1703151762485504e-05 0.0 0.0 0.0 0.0
0.07 -0.9907199740409851 0.12008336931467056 -2.2297725081443787e-05 -9.653158485889435e-06 0.0 0.0 0.0 0.0
0.071 -0.990845799446106 0.12241598963737488 -1.4642253518104553e-05 -3.6492012441158295e-05 0.0 0.0 0.0 0.0
0.072 -0.9911845922470093 0.12397594749927521 1.3514421880245209e-05 -6.903894245624542e-06 0.0 0.0 0.0 0.0
0.073 -0.9914935231208801 0.12555581331253052 -4.520639777183533e-06 2.1037645637989044e-05 0.0 0.0 0.0 0.0
0.074 -0.9910331964492798 0.127362459897995 -2.980232238769531e-07 1.6530044376850128e-05 0.0 0.0 0.0 0.0
0.075 -0.9908141493797302 0.12947456538677216 -9.639188647270203e-07 -2.1931715309619904e-05 0.0 0.0 0.0 0.0
0.076 -0.9915288686752319 0.1313043087720871 -2.3410655558109283e-05 -9.433366358280182e-06 0.0 0.0 0.0 0.0
0.077 -0.9916383624076843 0.13263154029846191 -1.994892954826355e-06 -1.4439225196838379e-05 0.0 0.0 0.0 0.0
0.078 -0.9913394451141357 0.134360209107399 -2.8992071747779846e-06 3.8409605622291565e-05 0.0 0.0 0.0 0.0
0.079 -0.9914639592170715 0.13634361326694489 3.110431134700775e-05 2.7371570467948914e-06 0.0 0.0 0.0 0.0
0.08 -0.9916832447052002 0.13894201815128326 -2.859998494386673e-05 -1.4780089259147644e-06 0.0 0.0 0.0 0.0
0.081 -0.9922402501106262 0.14017552137374878 2.3990869522094727e-05 -4.087202250957489e-05 0.0 0.0 0.0 0.0
0.082 -0.9916345477104187 0.14183364808559418 -2.734735608100891e-05 2.99159437417984e-05 0.0 0.0 0.0 0.0
0.083 -0.9922801852226257 0.14386820793151855 -3.521237522363663e-05 -2.4028122425079346e-06 0.0 0.0 0.0 0.0
0.084 -0.9917395710945129 0.14547136425971985 -5.808193236589432e-05 2.0577572286128998e-05 0.0 0.0 0.0 0.0
0.085 -0.9919906258583069 0.1476292461156845 -1.4156103134155273e-07 3.5892240703105927e-05 0.0 0.0 0.0 0.0
0.086 -0.9919930696487427 0.14892993867397308 -2.3283064365386963e-05 1.5626661479473114e-05 0.0 0.0 0.0 0.0
0.087 -0.9917004108428955 0.15181736648082733 1.661200076341629e-05 2.6584602892398834e-05 0.0 0.0 0.0 0.0
0.088 -0.9923642873764038 0.1533300131559372 -1.4572404325008392e-05 -3.91155481338501e-07 0.0 0.0 0.0 0.0
0.089 -0.9923141002655029 0.15527686476707458 -3.8700178265571594e-05 1.6901642084121704e-05 0.0 0.0 0.0 0.0
0.09 -0.9917963147163391 0.15691524744033813 -2.2011809051036835e-05 4.4065527617931366e-05 0.0 0.0 0.0 0.0
0.091 -0.9922325611114502 0.15889529883861542 -7.28284940123558e-05 4.4376589357852936e-05 0.0 0.0 0.0 0.0
0.092 -0.9924311637878418 0.16071827709674835 1.7923302948474884e-05 2.565234899520874e-05 0.0 0.0 0.0 0.0
0.093 -0.9922111630439758 0.16232025623321533 -1.2151896953582764e-05 1.3686716556549072e-05 0.0 0.0 0.0 0.0
0.094 -0.9925123453140259 0.16408167779445648 -5.79003244638443e-06 -4.118774086236954e-05 0.0 0.0 0.0 0.0
0.095 -0.9924387335777283 0.16619449853897095 -4.855915904045105e-06 8.994713425636292e-06 0.0 0.0 0.0 0.0
0.096 -0.9918578267097473 0.16826602816581726 -3.0768103897571564e-05 1.1502765119075775e-05 0.0 0.0 0.0 0.0
0.097 -0.9923256039619446 0.16996127367019653 -1.399405300617218e-05 2.030283212661743e-06 0.0 0.0 0.0 0.0
0.098 -0.9921272397041321 0.172000452876091 4.2168423533439636e-05 -1.4415010809898376e-05 0.0 0.0 0.0 0.0
0.099 -0.9928516149520874 0.1738026887178421 -1.2082047760486603e-05 2.3273751139640808e-05 0.0 0.0 0.0 0.0
0.1 -0.9925448894500732 0.17567184567451477 -2.2067688405513763e-05 1.3977289199829102e-05 0.0 0.0 0.0 0.0
0.101 -0.9243295788764954 0.15168321132659912 -1.4473684132099152e-05 9.462237358093262e-06 0.0 0.0 0.0 0.0
0.102 -0.9250293970108032 0.15323561429977417 -6.565824151039124e-07 -7.090158760547638e-06 0.0 0.0 0.0 0.0
0.103 -0.9246007204055786 0.15481236577033997 1.3714656233787537e-05 -3.791414201259613e-06 0.0 0.0 0.0 0.0
0.104 -0.9253948330879211 0.15620765089988708 -5.7190656661987305e-05 -4.452653229236603e-06 0.0 0.0 0.0 0.0
0.105 -0.9251189827919006 0.15785403549671173 -1.85258686542511e-05 -2.881418913602829e-05 0.0 0.0 0.0 0.0
0.106 -0.9251418113708496 0.1592845469713211 1.4591962099075317e-05 9.889714419841766e-06 0.0 0.0 0.0 0.0
0.107 -0.9252814054489136 0.16061878204345703 -1.5038996934890747e-05 6.312504410743713e-06 0.0 0.0 0.0 0.0
0.108 -0.925364077091217 0.16244001686573029 -1.9908882677555084e-05 -5.144625902175903e-06 0.0 0.0 0.0 0.0
0.109 -0.9261554479598999 0.16358666121959686 -1.7377547919750214e-05 8.325092494487762e-06 0.0 0.0 0.0 0.0
0.11 -0.9265051484107971 0.16515909135341644 2.9509887099266052e-05 -2.1138228476047516e-05 0.0 0.0 0.0 0.0
0.111 -0.9255979657173157 0.16662061214447021 1.8144026398658752e-05 4.760921001434326e-06 0.0 0.0 0.0 0.0
0.112 -0.9267931580543518 0.1685873121023178 -6.260350346565247e-06 1.2625940144062042e-05 0.0 0.0 0.0 0.0
0.113 -0.9268222451210022 0.17002123594284058 2.5138258934020996e-05 -1.0115094482898712e-05 0.0 0.0 0.0 0.0
0.114 -0.926676332950592 0.17113207280635834 9.169802069664001e-06 -2.69254669547081e-05 0.0 0.0 0.0 0.0
0.115 -0.9275724291801453 0.173039048910141 7.421709597110748e-06 6.874091923236847e-06 0.0 0.0 0.0 0.0
0.116 -0.9270225763320923 0.1744541972875595 -4.186481237411499e-05 9.154900908470154e-07 0.0 0.0 0.0 0.0
0.117 -0.9270349740982056 0.17593759298324585 -1.2323260307312012e-05 -2.6203691959381104e-05 0.0 0.0 0.0 0.0
0.118 -0.9278607368469238 0.17741097509860992 4.41819429397583e-06 -6.12158328294754e-06 0.0 0.0 0.0 0.0
0.119 -0.9276397228240967 0.17943747341632843 -1.063477247953415e-05 1.4603137969970703e-06 0.0 0.0 0.0 0.0
0.12 -0.9284966588020325 0.1806592345237732 -1.463666558265686e-05 -7.208436727523804e-06 0.0 0.0 0.0 0.0
0.121 -0.9282912611961365 0.1823137402534485 3.909692168235779e-06 -2.1355226635932922e-06 0.0 0.0 0.0 0.0
0.122 -0.9283418655395508 0.18411080539226532 1.8747523427009583e-05 -9.974464774131775e-07 0.0 0.0 0.0 0.0
0.123 -0.9286841750144958 0.18535208702087402 1.039355993270874e-06 1.2991949915885925e-06 0.0 0.0 0.0 0.0
0.124 -0.9285711646080017 0.18736843764781952 -1.2433156371116638e-06 -9.152106940746307e-06 0.0 0.0 0.0 0.0
0.125 -0.9289982318878174 0.18853487074375153 -1.6521662473678589e-06 -4.783459007740021e-05 0.0 0.0 0.0 0.0
0.126 -0.928931713104248 0.19057177007198334 -1.2492761015892029e-05 -1.6714446246623993e-05 0.0 0.0 0.0 0.0
0.127 -0.9293534159660339 0.19188618659973145 -4.725530743598938e-05 -1.0056421160697937e-05 0.0 0.0 0.0 0.0
0.128 -0.9294126033782959 0.19265566766262054 -1.3295561075210571e-05 -4.298985004425049e-05 0.0 0.0 0.0 0.0
0.129 -0.9294952750205994 0.19535721838474274 1.0654330253601074e-06 -2.6073306798934937e-05 0.0 0.0 0.0 0.0
0.13 -0.9297129511833191 0.1970396190881729 1.1346302926540375e-05 -1.9244849681854248e-05 0.0 0.0 0.0 0.0
0.131 -0.930353581905365 0.19895052909851074 -1.4048069715499878e-05 -2.818182110786438e-06 0.0 0.0 0.0 0.0
0.132 -0.9306963682174683 0.20006117224693298 -5.340203642845154e-06 -3.0131079256534576e-05 0.0 0.0 0.0 0.0
0.133 -0.9300075769424438 0.2019849419593811 2.2877007722854614e-05 4.634261131286621e-06 0.0 0.0 0.0 0.0
0.134 -0.9303712844848633 0.20336325466632843 -1.2257136404514313e-05 2.3148953914642334e-05 0.0 0.0 0.0 0.0
0.135 -0.9304002523422241 0.20546096563339233 -1.2616626918315887e-05 -1.0157003998756409e-05 0.0 0.0 0.0 0.0
0.136 -0.9307820200920105 0.2070501446723938 -2.2538937628269196e-05 -3.3499673008918762e-06 0.0 0.0 0.0 0.0
0.137 -0.9318907260894775 0.20881591737270355 -3.2354146242141724e-05 -3.8362108170986176e-05 0.0 0.0 0.0 0.0
0.138 -0.9312418699264526 0.2103249430656433 -2.3422762751579285e-05 -3.480818122625351e-05 0.0 0.0 0.0 0.0
0.139 -0.9310629963874817 0.21245409548282623 2.148374915122986e-05 -3.4485943615436554e-05 0.0 0.0 0.0 0.0
0.14 -0.9314029216766357 0.21397444605827332 2.580694854259491e-06 -1.3690441846847534e-07 0.0 0.0 0.0 0.0
0.141 -0.9324004650115967 0.21578764915466309 -1.1146068572998047e-05 1.0168179869651794e-05 0.0 0.0 0.0 0.0
0.142 -0.9317525625228882 0.21763870120048523 7.320195436477661e-07 9.763985872268677e-06 0.0 0.0 0.0 0.0
0.143 -0.9319116473197937 0.2193513661623001 4.4833868741989136e-06 2.193264663219452e-06 0.0 0.0 0.0 0.0
0.144 -0.9318472743034363 0.22084854543209076 -3.238581120967865e-05 -1.0893680155277252e-05 0.0 0.0 0.0 0.0
0.145 -0.9322813153266907 0.2231059968471527 6.632879376411438e-06 9.349547326564789e-06 0.0 0.0 0.0 0.0
0.146 -0.9320629239082336 0.2244897484779358 -1.0183081030845642e-05 1.4337711036205292e-05 0.0 0.0 0.0 0.0
0.147 -0.932755708694458 0.22610056400299072 -3.0734576284885406e-05 -4.222802817821503e-05 0.0 0.0 0.0 0.0
0.148 -0.9322431087493896 0.22804643213748932 1.7741695046424866e-06 -1.2075528502464294e-05 0.0 0.0 0.0 0.0
0.149 -0.9328613877296448 0.22974301874637604 -1.887790858745575e-06 -3.826897591352463e-05 0.0 0.0 0.0 0.0
0.15 -0.9326935410499573 0.23140572011470795 -1.3193115592002869e-05 1.602061092853546e-05 0.0 0.0 0.0 0.0
0.151 -0.9326035380363464 0.2334117442369461 -6.910413503646851e-07 -2.4965964257717133e-05 0.0 0.0 0.0 0.0
0.152 -0.9330757856369019 0.23527182638645172 -2.0536594092845917e-05 3.895722329616547e-06 0.0 0.0 0.0 0.0
0.153 -0.9338030219078064 0.23697057366371155 -3.889109939336777e-05 8.322298526763916e-06 0.0 0.0 0.0 0.0
0.154 -0.933169424533844 0.23902998864650726 -2.8116628527641296e-06 1.19796022772789e-05 0.0 0.0 0.0 0.0
0.155 -0.9332225322723389 0.24010320007801056 -3.840215504169464e-05 -4.41819429397583e-06 0.0 0.0 0.0 0.0
0.156 -0.9327355027198792 0.24264712631702423 4.584901034832001e-06 1.117214560508728e-05 0.0 0.0 0.0 0.0
0.157 -0.933000922203064 0.24402301013469696 -7.343478500843048e-06 -2.682674676179886e-05 0.0 0.0 0.0 0.0
0.158 -0.9340748190879822 0.24604301154613495 -1.81589275598526e-05 4.532746970653534e-06 0.0 0.0 0.0 0.0
0.159 -0.9334481954574585 0.24810011684894562 -1.8680468201637268e-05 -1.631118357181549e-05 0.0 0.0 0.0 0.0
0.16 -0.933931827545166 0.2494698017835617 9.820796549320221e-06 -1.651328057050705e-05 0.0 0.0 0.0 0.0
0.161 -0.9344689249992371 0.25164204835891724 -1.1403113603591919e-05 1.8703751266002655e-05 0.0 0.0 0.0 0.0
0.162 -0.9332703948020935 0.25379058718681335 -2.287980169057846e-05 -2.8567388653755188e-05 0.0 0.0 0.0 0.0
0.163 -0.9334681034088135 0.25514253973960876 -8.231960237026215e-06 -8.312985301017761e-06 0.0 0.0 0.0 0.0
0.164 -0.9346597194671631 0.2574801445007324 -1.9805505871772766e-05 -2.8013251721858978e-05 0.0 0.0 0.0 0.0
0.165 -0.9341832399368286 0.2591748535633087 -7.529743015766144e-06 -2.398621290922165e-05 0.0 0.0 0.0 0.0
0.166 -0.9339168071746826 0.2609221935272217 -2.6300549507141113e-06 1.4132820069789886e-05 0.0 0.0 0.0 0.0
0.167 -0.9346609711647034 0.26330792903900146 1.4851801097393036e-05 4.279427230358124e-06 0.0 0.0 0.0 0.0
0.168 -0.9340335130691528 0.2647891044616699 -1.9579194486141205e-05 7.776543498039246e-07 0.0 0.0 0.0 0.0
0.169 -0.9345071315765381 0.26651647686958313 -9.082257747650146e-06 -4.5320019125938416e-05 0.0 0.0 0.0 0.0
0.17 -0.9340469241142273 0.2688899338245392 3.1186267733573914e-05 -1.139473170042038e-05 0.0 0.0 0.0 0.0
0.171 -0.9347531795501709 0.27052929997444153 1.3950280845165253e-05 -8.59331339597702e-06 0.0 0.0 0.0 0.0
0.172 -0.934133768081665 0.27260056138038635 -7.831491529941559e-06 2.8889626264572144e-06 0.0 0.0 0.0 0.0
0.173 -0.9340050220489502 0.2743123173713684 -1.0842457413673401e-05 9.81055200099945e-06 0.0 0.0 0.0 0.0
0.174 -0.9345466494560242 0.2761487662792206 6.817281246185303e-07 1.1312775313854218e-05 0.0 0.0 0.0 0.0
0.175 -0.9342001676559448 0.2783067524433136 2.5987625122070312e-05 -4.0755607187747955e-05 0.0 0.0 0.0 0.0
0.176 -0.9341049790382385 0.28130248188972473 3.049522638320923e-05 -2.7332454919815063e-05 0.0 0.0 0.0 0.0
0.177 -0.9344346523284912 0.2820272743701935 1.3447366654872894e-05 -3.0103139579296112e-05 0.0 0.0 0.0 0.0
0.178 -0.9351615905761719 0.2839294672012329 -8.205883204936981e-06 -2.4650245904922485e-05 0.0 0.0 0.0 0.0
0.179 -0.9349729418754578 0.2865474224090576 -1.2971460819244385e-05 -1.2129545211791992e-05 0.0 0.0 0.0 0.0
0.18 -0.9345210194587708 0.287997841835022 -5.885958671569824e-07 -1.3479962944984436e-05 0.0 0.0 0.0 0.0
0.181 -0.935054361820221 0.29044151306152344 -1.5100464224815369e-05 -1.2808479368686676e-05 0.0 0.0 0.0 0.0
0.182 -0.9346808791160583 0.29229265451431274 -1.8370337784290314e-05 -3.239605575799942e-05 0.0 0.0 0.0 0.0
0.183 -0.9345473647117615 0.29423096776008606 -3.312714397907257e-05 -5.1975250244140625e-05 0.0 0.0 0.0 0.0
0.184 -0.9344849586486816 0.2960576117038727 -2.0858831703662872e-05 -2.0143575966358185e-05 0.0 0.0 0.0 0.0
