!Created with skrf (http://scikit-rf.org).
# GHz S RI R 50.0 
!freq ReS11 ImS11 ReS21 ImS21 ReS12 ImS12 ReS22 ImS22
0.001 -0.1362529844045639 -0.059644777327775955 -1.6866251826286316e-05 4.4374726712703705e-05 0.0 0.0 0.0 0.0
0.002 -0.10932305455207825 -0.005245169624686241 -4.257075488567352e-06 -2.936180680990219e-05 0.0 0.0 0.0 0.0
0.003 -0.09373390674591064 0.012293047271668911 2.896226942539215e-05 4.591420292854309e-06 0.0 0.0 0.0 0.0
0.004 -0.08232945203781128 0.018784264102578163 3.1040050089359283e-05 -1.841038465499878e-05 0.0 0.0 0.0 0.0
0.005 -0.07414403557777405 0.020503759384155273 2.557598054409027e-05 -8.271075785160065e-06 0.0 0.0 0.0 0.0
0.006 -0.06842547655105591 0.020400753244757652 -1.1041760444641113e-05 -4.207715392112732e-05 0.0 0.0 0.0 0.0
0.007 -0.06449420750141144 0.019615786150097847 -3.800727427005768e-06 1.1070631444454193e-05 0.0 0.0 0.0 0.0
0.008 -0.06175161898136139 0.018480530008673668 -1.6242265701293945e-05 2.7745962142944336e-05 0.0 0.0 0.0 0.0
0.009 -0.05976659059524536 0.01726599782705307 8.367933332920074e-06 5.961395800113678e-06 0.0 0.0 0.0 0.0
0.01 -0.05834653228521347 0.016563594341278076 1.6177073121070862e-06 2.2302381694316864e-05 0.0 0.0 0.0 0.0
0.011 -0.057415083050727844 0.01574954017996788 1.2799166142940521e-05 2.3050233721733093e-06 0.0 0.0 0.0 0.0
0.012 -0.05660521611571312 0.015218062326312065 6.581656634807587e-06 2.105068415403366e-05 0.0 0.0 0.0 0.0
0.013 -0.056112565100193024 0.01477982010692358 2.909451723098755e-06 1.2999400496482849e-05 0.0 0.0 0.0 0.0
0.014 -0.05567311868071556 0.014563935808837414 -4.046596586704254e-05 -5.85801899433136e-06 0.0 0.0 0.0 0.0
0.015 -0.05527747422456741 0.014404622837901115 -2.0712614059448242e-06 -4.301778972148895e-06 0.0 0.0 0.0 0.0
0.016 -0.05498646944761276 0.014441808685660362 0.00011091399937868118 6.472039967775345e-05 0.0 0.0 0.0 0.0
0.017 -0.05459052696824074 0.014074116945266724 0.00016099028289318085 -5.230400711297989e-05 0.0 0.0 0.0 0.0
0.018 -0.054480183869600296 0.014356503263115883 1.934356987476349e-06 2.3466534912586212e-05 0.0 0.0 0.0 0.0
0.019 -0.05431101471185684 0.014445330016314983 -1.4035962522029877e-05 -3.005377948284149e-06 0.0 0.0 0.0 0.0
0.02 -0.05394836887717247 0.014528259634971619 -8.731149137020111e-06 1.3206154108047485e-06 0.0 0.0 0.0 0.0
0.021 -0.05379769578576088 0.014807009138166904 -5.209818482398987e-06 -3.1006522476673126e-05 0.0 0.0 0.0 0.0
0.022 -0.053590040653944016 0.015061712823808193 -7.06501305103302e-06 -2.824980765581131e-05 0.0 0.0 0.0 0.0
0.023 -0.05338707193732262 0.015370678156614304 1.4275312423706055e-05 2.8448179364204407e-05 0.0 0.0 0.0 0.0
0.024 -0.053132712841033936 0.01565445587038994 -1.3935379683971405e-05 7.401220500469208e-06 0.0 0.0 0.0 0.0
0.025 -0.052873361855745316 0.016009731218218803 4.2263418436050415e-06 -1.9271858036518097e-05 0.0 0.0 0.0 0.0
0.026 -0.05266755074262619 0.016316015273332596 -3.101583570241928e-05 1.8767081201076508e-05 0.0 0.0 0.0 0.0
0.027 -0.052311159670352936 0.016571104526519775 -3.049708902835846e-05 -2.724677324295044e-05 0.0 0.0 0.0 0.0
0.028 -0.05209068953990936 0.017009204253554344 -2.7126632630825043e-05 -1.0310672223567963e-05 0.0 0.0 0.0 0.0
0.029 -0.05178861692547798 0.0174344964325428 -3.5781413316726685e-06 5.781650543212891e-06 0.0 0.0 0.0 0.0
0.03 -0.051487997174263 0.01781497523188591 2.4148263037204742e-05 -5.790963768959045e-06 0.0 0.0 0.0 0.0
0.031 -0.05109305679798126 0.018135476857423782 1.9352883100509644e-05 -2.820882946252823e-05 0.0 0.0 0.0 0.0
0.032 -0.05067833885550499 0.0185395460575819 4.478823393583298e-05 8.530914783477783e-06 0.0 0.0 0.0 0.0
0.033 -0.05048179626464844 0.01903560198843479 -2.411380410194397e-05 8.98074358701706e-06 0.0 0.0 0.0 0.0
0.034 -0.050047218799591064 0.01960945874452591 5.086231976747513e-05 9.34116542339325e-06 0.0 0.0 0.0 0.0
0.035 -0.049776460975408554 0.019899798557162285 -1.6685575246810913e-05 -3.0435621738433838e-05 0.0 0.0 0.0 0.0
0.036 -0.0494125671684742 0.020363962277770042 2.1677464246749878e-05 1.9079074263572693e-05 0.0 0.0 0.0 0.0
0.037 -0.04893358051776886 0.020757218822836876 1.3951212167739868e-05 -1.4751218259334564e-05 0.0 0.0 0.0 0.0
0.038 -0.04857824370265007 0.021202459931373596 -3.388896584510803e-05 -1.7449259757995605e-05 0.0 0.0 0.0 0.0
0.039 -0.0480884313583374 0.02160990796983242 1.4360994100570679e-06 1.183338463306427e-05 0.0 0.0 0.0 0.0
0.04 -0.04771408066153526 0.022106343880295753 -1.0457821190357208e-05 -2.248864620923996e-05 0.0 0.0 0.0 0.0
0.041 -0.04716279357671738 0.022422701120376587 -3.0798837542533875e-05 -4.352442920207977e-05 0.0 0.0 0.0 0.0
0.042 -0.0466596819460392 0.02295061945915222 2.3234635591506958e-05 -6.907619535923004e-06 0.0 0.0 0.0 0.0
0.043 -0.046058572828769684 0.023236768320202827 4.772841930389404e-05 -1.1006370186805725e-05 0.0 0.0 0.0 0.0
0.044 -0.04561958834528923 0.023739350959658623 -3.4460797905921936e-05 -1.4423392713069916e-05 0.0 0.0 0.0 0.0
0.045 -0.04510004073381424 0.02414589188992977 -1.5970319509506226e-05 1.0951422154903412e-05 0.0 0.0 0.0 0.0
0.046 -0.044603027403354645 0.02465471811592579 -1.276843249797821e-06 1.8494203686714172e-05 0.0 0.0 0.0 0.0
0.047 -0.043905455619096756 0.024943292140960693 -5.260109901428223e-06 4.269089549779892e-05 0.0 0.0 0.0 0.0
0.048 -0.043401088565588 0.025432206690311432 -4.0316954255104065e-06 7.28946179151535e-06 0.0 0.0 0.0 0.0
0.049 -0.04277631640434265 0.025648964568972588 -2.8908252716064453e-06 3.0044466257095337e-05 0.0 0.0 0.0 0.0
0.05 -0.0421370193362236 0.026071444153785706 -3.798864781856537e-05 4.918314516544342e-06 0.0 0.0 0.0 0.0
0.051 -0.04162817820906639 0.026272766292095184 -7.807277143001556e-06 -4.409905523061752e-05 0.0 0.0 0.0 0.0
0.052 -0.040905579924583435 0.026712412014603615 -1.5108846127986908e-05 2.905726432800293e-05 0.0 0.0 0.0 0.0
0.053 -0.040175311267375946 0.027046287432312965 3.340281546115875e-05 -1.4825724065303802e-05 0.0 0.0 0.0 0.0
0.054 -0.03956440091133118 0.027386978268623352 1.70096755027771e-05 -2.8293579816818237e-06 0.0 0.0 0.0 0.0
0.055 -0.03902692347764969 0.027750130742788315 -7.53253698348999e-06 -1.208484172821045e-05 0.0 0.0 0.0 0.0
0.056 -0.038225267082452774 0.02794555574655533 9.194016456604004e-06 1.0660849511623383e-05 0.0 0.0 0.0 0.0
0.057 -0.03756798803806305 0.028262635692954063 2.625212073326111e-05 2.295617014169693e-05 0.0 0.0 0.0 0.0
0.058 -0.036764729768037796 0.02860475890338421 -5.324371159076691e-06 3.483705222606659e-05 0.0 0.0 0.0 0.0
0.059 -0.036093391478061676 0.028852906078100204 -1.7482787370681763e-05 2.9848888516426086e-06 0.0 0.0 0.0 0.0
0.06 -0.035442937165498734 0.02916223555803299 -2.588517963886261e-05 6.776303052902222e-06 0.0 0.0 0.0 0.0
0.061 -0.034593552350997925 0.029209071770310402 -7.964670658111572e-06 -8.704140782356262e-06 0.0 0.0 0.0 0.0
0.062 -0.0337984599173069 0.02955203503370285 8.34837555885315e-06 8.217059075832367e-06 0.0 0.0 0.0 0.0
0.063 -0.03309961035847664 0.02978581376373768 2.398621290922165e-05 -6.75395131111145e-06 0.0 0.0 0.0 0.0
0.064 -0.03229899704456329 0.029847323894500732 -7.997266948223114e-06 1.956149935722351e-05 0.0 0.0 0.0 0.0
0.065 -0.03161853551864624 0.030198942869901657 1.0742805898189545e-05 -5.960464477539062e-07 0.0 0.0 0.0 0.0
0.066 -0.03085329383611679 0.0302900243550539 -2.291519194841385e-05 -3.7534162402153015e-05 0.0 0.0 0.0 0.0
0.067 -0.030028680339455605 0.030495118349790573 3.7122517824172974e-06 2.195313572883606e-05 0.0 0.0 0.0 0.0
0.068 -0.029227955266833305 0.03074968233704567 1.516006886959076e-05 1.9939616322517395e-05 0.0 0.0 0.0 0.0
0.069 -0.028411056846380234 0.03074708580970764 1.0596588253974915e-05 4.22867015004158e-05 0.0 0.0 0.0 0.0
0.07 -0.02759251929819584 0.03098049759864807 5.6801363825798035e-06 2.9142014682292938e-05 0.0 0.0 0.0 0.0
0.071 -0.026749104261398315 0.031018873676657677 1.5793368220329285e-05 1.1548399925231934e-06 0.0 0.0 0.0 0.0
0.072 -0.025989480316638947 0.031192118301987648 -8.035451173782349e-06 -3.696605563163757e-05 0.0 0.0 0.0 0.0
0.073 -0.025011558085680008 0.03116152063012123 1.723412424325943e-05 2.7399510145187378e-05 0.0 0.0 0.0 0.0
0.074 -0.02420460246503353 0.031408075243234634 -2.4505890905857086e-05 2.5080516934394836e-06 0.0 0.0 0.0 0.0
0.075 -0.023351330310106277 0.031304534524679184 2.1445564925670624e-05 5.168840289115906e-07 0.0 0.0 0.0 0.0
0.076 -0.022547295317053795 0.0314350351691246 2.755783498287201e-06 -4.371814429759979e-05 0.0 0.0 0.0 0.0
0.077 -0.02171090617775917 0.0316045917570591 1.4755874872207642e-05 2.194475382566452e-05 0.0 0.0 0.0 0.0
0.078 -0.020742174237966537 0.031356699764728546 -1.17570161819458e-05 -1.2964941561222076e-05 0.0 0.0 0.0 0.0
0.079 -0.01978929713368416 0.031369175761938095 5.260109901428223e-06 -2.0334497094154358e-05 0.0 0.0 0.0 0.0
0.08 -0.019045352935791016 0.03138202801346779 -1.0299496352672577e-05 2.389121800661087e-05 0.0 0.0 0.0 0.0
0.081 -0.018027693033218384 0.031245775520801544 -3.819353878498077e-06 -7.300637662410736e-06 0.0 0.0 0.0 0.0
0.082 -0.017283717170357704 0.031359102576971054 7.865950465202332e-06 4.5676715672016144e-05 0.0 0.0 0.0 0.0
0.083 -0.01635357365012169 0.03124142996966839 -2.244114875793457e-05 3.3192336559295654e-05 0.0 0.0 0.0 0.0
0.084 -0.015444500371813774 0.03127162158489227 4.192814230918884e-06 -2.4014152586460114e-05 0.0 0.0 0.0 0.0
0.085 -0.014571224339306355 0.031075268983840942 5.103554576635361e-05 -5.446374416351318e-06 0.0 0.0 0.0 0.0
0.086 -0.013694711029529572 0.03096260502934456 -3.032572567462921e-05 -2.847611904144287e-05 0.0 0.0 0.0 0.0
0.087 -0.012661213055253029 0.03090531751513481 -2.5612302124500275e-05 -1.6330741345882416e-05 0.0 0.0 0.0 0.0
0.088 -0.011724991723895073 0.030741387978196144 2.1268613636493683e-05 6.420537829399109e-05 0.0 0.0 0.0 0.0
0.089 -0.010829359292984009 0.030502833425998688 -1.9237399101257324e-05 -3.338512033224106e-05 0.0 0.0 0.0 0.0
0.09 -0.009910314343869686 0.030262459069490433 4.864297807216644e-06 -2.3599714040756226e-05 0.0 0.0 0.0 0.0
0.091 -0.009009405970573425 0.03012760356068611 -9.70158725976944e-06 -2.289470285177231e-05 0.0 0.0 0.0 0.0
0.092 -0.00800691545009613 0.02988363802433014 -1.4341436326503754e-05 3.707036375999451e-05 0.0 0.0 0.0 0.0
0.093 -0.007022880017757416 0.029671253636479378 -6.730668246746063e-06 -9.773299098014832e-06 0.0 0.0 0.0 0.0
0.094 -0.006140224635601044 0.029431652277708054 3.69194895029068e-05 1.3189390301704407e-05 0.0 0.0 0.0 0.0
0.095 -0.005186951719224453 0.029169965535402298 -1.0196119546890259e-05 -5.769822746515274e-05 0.0 0.0 0.0 0.0
0.096 -0.004184936173260212 0.028835479170084 8.434988558292389e-06 2.1359883248806e-05 0.0 0.0 0.0 0.0
0.097 -0.0034113172441720963 0.028594549745321274 1.2896023690700531e-05 1.2655742466449738e-05 0.0 0.0 0.0 0.0
0.098 -0.0023650554940104485 0.028339626267552376 -8.25151801109314e-07 9.634532034397125e-06 0.0 0.0 0.0 0.0
0.099 -0.0014380309730768204 0.027876822277903557 -5.885027348995209e-06 7.710419595241547e-06 0.0 0.0 0.0 0.0
0.1 0.0001836046576499939 0.027908707037568092 -8.0084428191185e-06 -2.423301339149475e-06 0.0 0.0 0.0 0.0
0.101 0.0009639393538236618 0.026806017383933067 2.2151507437229156e-05 3.783963620662689e-06 0.0 0.0 0.0 0.0
0.102 0.001928192563354969 0.026273762807250023 1.0107643902301788e-05 -2.5345012545585632e-05 0.0 0.0 0.0 0.0
0.103 0.0027679167687892914 0.025857992470264435 -4.372559487819672e-06 2.729427069425583e-05 0.0 0.0 0.0 0.0
0.104 0.003660067915916443 0.025415651500225067 1.619011163711548e-05 -2.9765069484710693e-06 0.0 0.0 0.0 0.0
0.105 0.0045423805713653564 0.025001563131809235 2.8720125555992126e-05 4.348345100879669e-06 0.0 0.0 0.0 0.0
0.106 0.005469516851007938 0.024588465690612793 -1.3826414942741394e-05 -6.210058927536011e-06 0.0 0.0 0.0 0.0
0.107 0.006346549838781357 0.024052049964666367 -1.5366822481155396e-07 1.9215047359466553e-05 0.0 0.0 0.0 0.0
0.108 0.007227017544209957 0.02360169216990471 2.6071444153785706e-05 2.3412518203258514e-05 0.0 0.0 0.0 0.0
0.109 0.008125231601297855 0.023094644770026207 -1.1914409697055817e-05 3.305263817310333e-05 0.0 0.0 0.0 0.0
0.11 0.009047814644873142 0.022603431716561317 4.720874130725861e-06 1.5498138964176178e-05 0.0 0.0 0.0 0.0
0.111 0.009894204325973988 0.022069605067372322 1.1803582310676575e-05 2.565421164035797e-05 0.0 0.0 0.0 0.0
0.112 0.01084863767027855 0.02153727039694786 -1.5264376997947693e-05 -3.417022526264191e-05 0.0 0.0 0.0 0.0
0.113 0.011749315075576305 0.020868651568889618 -3.906898200511932e-06 7.718801498413086e-06 0.0 0.0 0.0 0.0
0.114 0.012729307636618614 0.02035159058868885 3.99639829993248e-05 -1.3482756912708282e-05 0.0 0.0 0.0 0.0
0.115 0.013520375825464725 0.019737811759114265 -1.1048279702663422e-05 -1.742597669363022e-05 0.0 0.0 0.0 0.0
0.116 0.014387505128979683 0.019083406776189804 8.699484169483185e-06 1.4089979231357574e-05 0.0 0.0 0.0 0.0
0.117 0.015211774967610836 0.01851491816341877 1.0530464351177216e-05 3.528036177158356e-05 0.0 0.0 0.0 0.0
0.118 0.016128024086356163 0.017833106219768524 1.4016404747962952e-05 1.2167729437351227e-05 0.0 0.0 0.0 0.0
0.119 0.016912944614887238 0.017272209748625755 1.0141171514987946e-05 -4.541128873825073e-06 0.0 0.0 0.0 0.0
0.12 0.017857085913419724 0.01659715734422207 3.4411437809467316e-05 1.5873461961746216e-05 0.0 0.0 0.0 0.0
0.121 0.018649671226739883 0.01585671864449978 -4.989095032215118e-06 4.366971552371979e-06 0.0 0.0 0.0 0.0
0.122 0.019542133435606956 0.01512068696320057 4.732981324195862e-06 -2.0335428416728973e-05 0.0 0.0 0.0 0.0
0.123 0.02036137878894806 0.014433967880904675 -1.2006610631942749e-05 -2.0752660930156708e-05 0.0 0.0 0.0 0.0
0.124 0.021236730739474297 0.013706919737160206 -6.771646440029144e-06 -1.6065314412117004e-05 0.0 0.0 0.0 0.0
0.125 0.02217147685587406 0.012899113819003105 2.5995075702667236e-05 -8.87550413608551e-06 0.0 0.0 0.0 0.0
0.126 0.02294694259762764 0.012163414619863033 9.126029908657074e-06 -3.0510127544403076e-06 0.0 0.0 0.0 0.0
0.127 0.023769758641719818 0.011319447308778763 2.0723789930343628e-05 1.1621974408626556e-05 0.0 0.0 0.0 0.0
0.128 0.024637235328555107 0.010459274984896183 6.872229278087616e-06 -1.3397075235843658e-05 0.0 0.0 0.0 0.0
0.129 0.02533493936061859 0.00971225742250681 -2.5078654289245605e-05 1.0982155799865723e-05 0.0 0.0 0.0 0.0
0.13 0.026100903749465942 0.008870161138474941 -2.2063031792640686e-05 1.8280930817127228e-05 0.0 0.0 0.0 0.0
0.131 0.026961255818605423 0.007967323996126652 -2.3515895009040833e-06 -5.714595317840576e-06 0.0 0.0 0.0 0.0
0.132 0.027798395603895187 0.007121122442185879 3.018788993358612e-05 -1.0525807738304138e-05 0.0 0.0 0.0 0.0
0.133 0.028568832203745842 0.006244376301765442 9.716488420963287e-06 -2.680998295545578e-05 0.0 0.0 0.0 0.0
0.134 0.0292211901396513 0.005295497365295887 1.0505318641662598e-06 -1.02166086435318e-06 0.0 0.0 0.0 0.0
0.135 0.0300478283315897 0.00445325393229723 -1.4210119843482971e-05 1.6473233699798584e-05 0.0 0.0 0.0 0.0
0.136 0.03085031732916832 0.003442710265517235 -2.8689391911029816e-05 1.778826117515564e-06 0.0 0.0 0.0 0.0
0.137 0.03156742826104164 0.0025162165984511375 -1.95307657122612e-05 9.548850357532501e-06 0.0 0.0 0.0 0.0
0.138 0.03240089491009712 0.001603834331035614 -4.000496119260788e-05 -1.1232681572437286e-05 0.0 0.0 0.0 0.0
0.139 0.03299210965633392 0.0006535649299621582 1.496821641921997e-05 8.581206202507019e-06 0.0 0.0 0.0 0.0
0.14 0.03377370536327362 -0.00032912660390138626 2.1265819668769836e-05 -1.2672506272792816e-05 0.0 0.0 0.0 0.0
0.141 0.03454279527068138 -0.0013931132853031158 2.3877248167991638e-05 5.459412932395935e-06 0.0 0.0 0.0 0.0
0.142 0.03514542430639267 -0.0023618461564183235 3.467220813035965e-05 1.5582889318466187e-05 0.0 0.0 0.0 0.0
0.143 0.035977959632873535 -0.003423883579671383 1.731421798467636e-05 2.0108185708522797e-05 0.0 0.0 0.0 0.0
0.144 0.03659734129905701 -0.004508588463068008 4.513189196586609e-06 1.6893260180950165e-05 0.0 0.0 0.0 0.0
0.145 0.037147484719753265 -0.005521336570382118 -2.115592360496521e-05 1.3580545783042908e-05 0.0 0.0 0.0 0.0
0.146 0.03788026422262192 -0.006660105660557747 -1.0006129741668701e-05 1.3539567589759827e-05 0.0 0.0 0.0 0.0
0.147 0.0386047400534153 -0.007719885557889938 -2.3014843463897705e-05 1.2937933206558228e-05 0.0 0.0 0.0 0.0
0.148 0.03918631747364998 -0.008822863921523094 2.7662143111228943e-05 -1.041404902935028e-05 0.0 0.0 0.0 0.0
0.149 0.0397779755294323 -0.010024757124483585 2.9433518648147583e-05 1.8749386072158813e-05 0.0 0.0 0.0 0.0
0.15 0.040408045053482056 -0.01109466515481472 2.2251158952713013e-05 5.980953574180603e-06 0.0 0.0 0.0 0.0
0.151 0.04096914455294609 -0.012188135646283627 -7.470138370990753e-06 -1.91517174243927e-05 0.0 0.0 0.0 0.0
0.152 0.04156680032610893 -0.013387284241616726 -1.4035031199455261e-06 3.0168332159519196e-05 0.0 0.0 0.0 0.0
0.153 0.04219032824039459 -0.014582939445972443 3.3068470656871796e-05 2.864748239517212e-05 0.0 0.0 0.0 0.0
0.154 0.042751945555210114 -0.015759369358420372 -3.1054019927978516e-05 5.402602255344391e-06 0.0 0.0 0.0 0.0
0.155 0.04324622452259064 -0.01691886968910694 -1.0794028639793396e-06 -1.3057142496109009e-06 0.0 0.0 0.0 0.0
0.156 0.043863046914339066 -0.018185222521424294 -2.9898248612880707e-05 1.7667189240455627e-05 0.0 0.0 0.0 0.0
0.157 0.044358301907777786 -0.01941033825278282 1.2576580047607422e-05 3.982428461313248e-05 0.0 0.0 0.0 0.0
0.158 0.04489608854055405 -0.020573759451508522 -1.2382864952087402e-05 4.675239324569702e-05 0.0 0.0 0.0 0.0
0.159 0.04546387121081352 -0.02195596694946289 8.28225165605545e-06 4.81773167848587e-06 0.0 0.0 0.0 0.0
0.16 0.045902855694293976 -0.023225806653499603 3.771856427192688e-07 3.682449460029602e-06 0.0 0.0 0.0 0.0
0.161 0.04627995193004608 -0.024500897154211998 -2.106931060552597e-05 -3.6209821701049805e-06 0.0 0.0 0.0 0.0
0.162 0.04682764783501625 -0.02573247067630291 -1.8756836652755737e-06 -1.6527250409126282e-05 0.0 0.0 0.0 0.0
0.163 0.04717957228422165 -0.027065062895417213 1.0544434189796448e-05 2.0236708223819733e-05 0.0 0.0 0.0 0.0
0.164 0.04762706905603409 -0.02848588302731514 1.5799887478351593e-05 -1.516193151473999e-06 0.0 0.0 0.0 0.0
0.165 0.04806489497423172 -0.029801366850733757 3.712717443704605e-05 -1.2262724339962006e-05 0.0 0.0 0.0 0.0
0.166 0.048428792506456375 -0.031081847846508026 2.483651041984558e-05 1.4855526387691498e-05 0.0 0.0 0.0 0.0
0.167 0.04880959168076515 -0.03253031522035599 8.841976523399353e-06 -1.689419150352478e-05 0.0 0.0 0.0 0.0
0.168 0.04919104278087616 -0.033932875841856 3.1429342925548553e-05 -4.054047167301178e-06 0.0 0.0 0.0 0.0
0.169 0.04953116551041603 -0.03530743718147278 1.0779127478599548e-05 2.327747642993927e-05 0.0 0.0 0.0 0.0
0.17 0.04979286342859268 -0.03655407950282097 1.3387762010097504e-05 1.2534670531749725e-05 0.0 0.0 0.0 0.0
0.171 0.050118155777454376 -0.038018837571144104 8.652918040752411e-06 -1.94525346159935e-05 0.0 0.0 0.0 0.0
0.172 0.050511568784713745 -0.03947855159640312 9.874813258647919e-06 8.909031748771667e-06 0.0 0.0 0.0 0.0
0.173 0.050736602395772934 -0.04080696031451225 8.178874850273132e-06 -3.488454967737198e-05 0.0 0.0 0.0 0.0
0.174 0.051019635051488876 -0.042219288647174835 -9.980984032154083e-06 -1.4334917068481445e-05 0.0 0.0 0.0 0.0
0.175 0.05125275254249573 -0.04370849207043648 6.771646440029144e-06 1.206807792186737e-05 0.0 0.0 0.0 0.0
0.176 0.051533788442611694 -0.045180369168519974 1.2718141078948975e-05 -2.0675361156463623e-06 0.0 0.0 0.0 0.0
0.177 0.05169457942247391 -0.04664475843310356 3.659352660179138e-05 -4.19076532125473e-05 0.0 0.0 0.0 0.0
0.178 0.05194874852895737 -0.04808615520596504 7.634982466697693e-06 -3.537815064191818e-05 0.0 0.0 0.0 0.0
0.179 0.0520688071846962 -0.049652207642793655 1.6255304217338562e-05 -2.1288171410560608e-05 0.0 0.0 0.0 0.0
0.18 0.05226026475429535 -0.05114386975765228 -5.817972123622894e-06 2.010725438594818e-05 0.0 0.0 0.0 0.0
0.181 0.052343957126140594 -0.052643004804849625 -6.983987987041473e-06 -1.7955899238586426e-06 0.0 0.0 0.0 0.0
