!Created with skrf (http://scikit-rf.org).
# GHz S RI R 50.0 
!freq ReS11 ImS11 ReS21 ImS21 ReS12 ImS12 ReS22 ImS22
0.001 -0.13512839376926422 -0.069680355489254 1.2074006795883179 -0.036956362426280975 0.0 0.0 0.0 0.0
0.002 -0.10835853219032288 -0.008451282046735287 1.10902738571167 -0.09740691632032394 0.0 0.0 0.0 0.0
0.003 -0.09380929172039032 0.013278362341225147 1.0590755939483643 -0.11695219576358795 0.0 0.0 0.0 0.0
0.004 -0.0819513276219368 0.02325987070798874 1.0241299867630005 -0.12254411727190018 0.0 0.0 0.0 0.0
0.005 -0.07300932705402374 0.027614599093794823 1.0007984638214111 -0.12207673490047455 0.0 0.0 0.0 0.0
0.006 -0.06621246784925461 0.02955905720591545 0.9838497638702393 -0.12024695426225662 0.0 0.0 0.0 0.0
0.007 -0.06119522824883461 0.030406787991523743 0.9727092981338501 -0.11798319965600967 0.0 0.0 0.0 0.0
0.008 -0.05745625123381615 0.030779024586081505 0.9646153450012207 -0.11668795347213745 0.0 0.0 0.0 0.0
0.009 -0.054581187665462494 0.03107522428035736 0.9588562250137329 -0.11676625907421112 0.0 0.0 0.0 0.0
0.01 -0.05230513587594032 0.0312589555978775 0.9551115036010742 -0.11710584163665771 0.0 0.0 0.0 0.0
0.011 -0.05042055621743202 0.031580373644828796 0.952404260635376 -0.1186838150024414 0.0 0.0 0.0 0.0
0.012 -0.04901996999979019 0.03209131211042404 0.9507814645767212 -0.12118846923112869 0.0 0.0 0.0 0.0
0.013 -0.04769880324602127 0.03276746720075607 0.9492846131324768 -0.12420433759689331 0.0 0.0 0.0 0.0
0.014 -0.04643546789884567 0.033371519297361374 0.9481146931648254 -0.12794798612594604 0.0 0.0 0.0 0.0
0.015 -0.04533761739730835 0.034273628145456314 0.947452187538147 -0.13199970126152039 0.0 0.0 0.0 0.0
0.016 -0.044314995408058167 0.03498136252164841 0.9465740919113159 -0.13731835782527924 0.0 0.0 0.0 0.0
0.017 -0.043233998119831085 0.035866305232048035 0.9462441205978394 -0.14226916432380676 0.0 0.0 0.0 0.0
0.018 -0.042213086038827896 0.03678262233734131 0.945591926574707 -0.14759193360805511 0.0 0.0 0.0 0.0
0.019 -0.04117371141910553 0.03788476064801216 0.9453221559524536 -0.15347528457641602 0.0 0.0 0.0 0.0
0.02 -0.04009838029742241 0.0389505997300148 0.9449588656425476 -0.15901421010494232 0.0 0.0 0.0 0.0
0.021 -0.03893911466002464 0.039926305413246155 0.9439799785614014 -0.16564194858074188 0.0 0.0 0.0 0.0
0.022 -0.037808261811733246 0.041003383696079254 0.943387508392334 -0.17186129093170166 0.0 0.0 0.0 0.0
0.023 -0.03677845373749733 0.042070575058460236 0.9432203769683838 -0.17812678217887878 0.0 0.0 0.0 0.0
0.024 -0.03571406006813049 0.043239060789346695 0.9426873922348022 -0.18512511253356934 0.0 0.0 0.0 0.0
0.025 -0.03447064757347107 0.044285982847213745 0.941731333732605 -0.19178617000579834 0.0 0.0 0.0 0.0
0.026 -0.0331885926425457 0.045189209282398224 0.9406068921089172 -0.19859234988689423 0.0 0.0 0.0 0.0
0.027 -0.03208575397729874 0.046348050236701965 0.9394579529762268 -0.20556719601154327 0.0 0.0 0.0 0.0
0.028 -0.030806200578808784 0.04738862067461014 0.9387555122375488 -0.2125731110572815 0.0 0.0 0.0 0.0
0.029 -0.029520489275455475 0.04838693141937256 0.9378374814987183 -0.2196667492389679 0.0 0.0 0.0 0.0
0.03 -0.028214728459715843 0.049531057476997375 0.9370239973068237 -0.22685499489307404 0.0 0.0 0.0 0.0
0.031 -0.026825420558452606 0.050591181963682175 0.9359359741210938 -0.23415572941303253 0.0 0.0 0.0 0.0
0.032 -0.025500502437353134 0.05159716680645943 0.9337167143821716 -0.24156489968299866 0.0 0.0 0.0 0.0
0.033 -0.0240160059183836 0.05261554196476936 0.9331715703010559 -0.24917817115783691 0.0 0.0 0.0 0.0
0.034 -0.02259170450270176 0.0534844696521759 0.9316338300704956 -0.2563129961490631 0.0 0.0 0.0 0.0
0.035 -0.02118932455778122 0.054554447531700134 0.9303498864173889 -0.26323699951171875 0.0 0.0 0.0 0.0
0.036 -0.01957395114004612 0.05543217062950134 0.9288038015365601 -0.2712211608886719 0.0 0.0 0.0 0.0
0.037 -0.018107686191797256 0.05627646669745445 0.9267356395721436 -0.27854347229003906 0.0 0.0 0.0 0.0
0.038 -0.016362197697162628 0.057207558304071426 0.9250591397285461 -0.2858930826187134 0.0 0.0 0.0 0.0
0.039 -0.014810788445174694 0.058065395802259445 0.9227389693260193 -0.29366496205329895 0.0 0.0 0.0 0.0
0.04 -0.013164759613573551 0.05879129096865654 0.9208862781524658 -0.30097121000289917 0.0 0.0 0.0 0.0
0.041 -0.011429914273321629 0.059406425803899765 0.918894350528717 -0.3086571991443634 0.0 0.0 0.0 0.0
0.042 -0.009686041623353958 0.06033303961157799 0.916558563709259 -0.31601768732070923 0.0 0.0 0.0 0.0
0.043 -0.008012502454221249 0.06095576658844948 0.9142287969589233 -0.3237317204475403 0.0 0.0 0.0 0.0
0.044 -0.006259866990149021 0.06178491935133934 0.9125706553459167 -0.331531286239624 0.0 0.0 0.0 0.0
0.045 -0.0042646415531635284 0.0625331923365593 0.9102591276168823 -0.3386821448802948 0.0 0.0 0.0 0.0
0.046 -0.002514088526368141 0.06295496970415115 0.9077974557876587 -0.3461800813674927 0.0 0.0 0.0 0.0
0.047 -0.0006580781191587448 0.06356437504291534 0.9052693247795105 -0.35327407717704773 0.0 0.0 0.0 0.0
0.048 0.0012298841029405594 0.06400866061449051 0.9025742411613464 -0.3619304299354553 0.0 0.0 0.0 0.0
0.049 0.0031155170872807503 0.06461288779973984 0.8999195694923401 -0.36929866671562195 0.0 0.0 0.0 0.0
0.05 0.004993646405637264 0.06500604748725891 0.8970473408699036 -0.3764992356300354 0.0 0.0 0.0 0.0
0.051 0.007024796679615974 0.06524837762117386 0.8944219946861267 -0.3840041756629944 0.0 0.0 0.0 0.0
0.052 0.008934365585446358 0.06582256406545639 0.8913983106613159 -0.39158281683921814 0.0 0.0 0.0 0.0
0.053 0.010908116586506367 0.06608697772026062 0.888336181640625 -0.39869412779808044 0.0 0.0 0.0 0.0
0.054 0.013015004806220531 0.06621615588665009 0.8854102492332458 -0.4064146876335144 0.0 0.0 0.0 0.0
0.055 0.015046280808746815 0.06645133346319199 0.8824417591094971 -0.41335663199424744 0.0 0.0 0.0 0.0
0.056 0.017082208767533302 0.0666833445429802 0.8795984983444214 -0.4205739498138428 0.0 0.0 0.0 0.0
0.057 0.01905824989080429 0.0668109878897667 0.8760045170783997 -0.4284558594226837 0.0 0.0 0.0 0.0
0.058 0.02121211215853691 0.06687436997890472 0.8725175857543945 -0.43573784828186035 0.0 0.0 0.0 0.0
0.059 0.023323260247707367 0.06702160835266113 0.8689276576042175 -0.44339919090270996 0.0 0.0 0.0 0.0
0.06 0.0253776703029871 0.06697482615709305 0.8654781579971313 -0.45024290680885315 0.0 0.0 0.0 0.0
0.061 0.027558526024222374 0.06699756532907486 0.8618593215942383 -0.45751553773880005 0.0 0.0 0.0 0.0
0.062 0.02962692268192768 0.06688845157623291 0.8582650423049927 -0.46494168043136597 0.0 0.0 0.0 0.0
0.063 0.03193233534693718 0.06685025244951248 0.8547539114952087 -0.4719676971435547 0.0 0.0 0.0 0.0
0.064 0.03389872610569 0.06668481975793839 0.8503354787826538 -0.4795398712158203 0.0 0.0 0.0 0.0
0.065 0.03616268187761307 0.06649808585643768 0.8471351265907288 -0.4865226447582245 0.0 0.0 0.0 0.0
0.066 0.038293518126010895 0.06615734845399857 0.843122661113739 -0.4932357370853424 0.0 0.0 0.0 0.0
0.067 0.04045921936631203 0.06584364175796509 0.8390378952026367 -0.5006311535835266 0.0 0.0 0.0 0.0
0.068 0.0425889790058136 0.0655207708477974 0.8347898125648499 -0.5076594352722168 0.0 0.0 0.0 0.0
0.069 0.04480686038732529 0.06508182734251022 0.8311248421669006 -0.5144757032394409 0.0 0.0 0.0 0.0
0.07 0.04701428860425949 0.06461217254400253 0.8266987204551697 -0.5219650864601135 0.0 0.0 0.0 0.0
0.071 0.04923909157514572 0.06412756443023682 0.8227327466011047 -0.52884441614151 0.0 0.0 0.0 0.0
0.072 0.05139049515128136 0.06354671716690063 0.8180564641952515 -0.5356388092041016 0.0 0.0 0.0 0.0
0.073 0.053671471774578094 0.06301188468933105 0.8135941028594971 -0.5429272055625916 0.0 0.0 0.0 0.0
0.074 0.05582297220826149 0.062257226556539536 0.809351921081543 -0.5495800375938416 0.0 0.0 0.0 0.0
0.075 0.058079805225133896 0.06163490563631058 0.804740846157074 -0.5564940571784973 0.0 0.0 0.0 0.0
0.076 0.06009867787361145 0.0608123280107975 0.79999178647995 -0.5634844899177551 0.0 0.0 0.0 0.0
0.077 0.06239873170852661 0.060170773416757584 0.7957246899604797 -0.5699165463447571 0.0 0.0 0.0 0.0
0.078 0.06459488719701767 0.05931161344051361 0.7911430597305298 -0.5765003561973572 0.0 0.0 0.0 0.0
0.079 0.06675873696804047 0.05847198888659477 0.7862153053283691 -0.583358108997345 0.0 0.0 0.0 0.0
0.08 0.06887130439281464 0.05753608047962189 0.7813035249710083 -0.589904248714447 0.0 0.0 0.0 0.0
0.081 0.07109081000089645 0.05653446912765503 0.7763095498085022 -0.5968065857887268 0.0 0.0 0.0 0.0
0.082 0.07318542897701263 0.05561724677681923 0.7714768052101135 -0.6033855080604553 0.0 0.0 0.0 0.0
0.083 0.07547258585691452 0.05460705608129501 0.7667944431304932 -0.6098741888999939 0.0 0.0 0.0 0.0
0.084 0.07755983620882034 0.053493648767471313 0.7618622183799744 -0.6164374351501465 0.0 0.0 0.0 0.0
0.085 0.0797218605875969 0.05225343257188797 0.7561553716659546 -0.6228683590888977 0.0 0.0 0.0 0.0
0.086 0.08177465200424194 0.05094349756836891 0.7509729862213135 -0.629248321056366 0.0 0.0 0.0 0.0
0.087 0.08370582014322281 0.04988529160618782 0.7461947202682495 -0.635335385799408 0.0 0.0 0.0 0.0
0.088 0.08587716519832611 0.04850973188877106 0.7402908802032471 -0.6419875025749207 0.0 0.0 0.0 0.0
0.089 0.08811017870903015 0.04723319038748741 0.7356628179550171 -0.6483115553855896 0.0 0.0 0.0 0.0
0.09 0.09013040363788605 0.04587768763303757 0.7296940684318542 -0.6545112133026123 0.0 0.0 0.0 0.0
0.091 0.09215395152568817 0.04446272552013397 0.72428297996521 -0.6609302759170532 0.0 0.0 0.0 0.0
0.092 0.09419739991426468 0.042940400540828705 0.7191393971443176 -0.6670396327972412 0.0 0.0 0.0 0.0
0.093 0.09628289192914963 0.04149476811289787 0.713453471660614 -0.6728307604789734 0.0 0.0 0.0 0.0
0.094 0.09815897792577744 0.03992322087287903 0.7077009081840515 -0.6787007451057434 0.0 0.0 0.0 0.0
0.095 0.10011884570121765 0.038350436836481094 0.7023856043815613 -0.6849427223205566 0.0 0.0 0.0 0.0
0.096 0.10213278234004974 0.03667585551738739 0.6956157088279724 -0.6906546950340271 0.0 0.0 0.0 0.0
0.097 0.10399656742811203 0.03492883965373039 0.6911333203315735 -0.6964892148971558 0.0 0.0 0.0 0.0
0.098 0.10587581247091293 0.033238936215639114 0.6846985816955566 -0.7024200558662415 0.0 0.0 0.0 0.0
0.099 0.10784288495779037 0.031469736248254776 0.6790434718132019 -0.7081396579742432 0.0 0.0 0.0 0.0
0.1 0.11143210530281067 0.02717326022684574 0.6610670685768127 -0.7368406057357788 0.0 0.0 0.0 0.0
0.101 0.10948413610458374 0.024974288418889046 0.6371192932128906 -0.7150624990463257 0.0 0.0 0.0 0.0
0.102 0.11127429455518723 0.023068483918905258 0.6306579113006592 -0.7204719185829163 0.0 0.0 0.0 0.0
0.103 0.11288716644048691 0.021103855222463608 0.6243607401847839 -0.7257984280586243 0.0 0.0 0.0 0.0
0.104 0.11470674723386765 0.019135598093271255 0.6186020970344543 -0.7315056920051575 0.0 0.0 0.0 0.0
0.105 0.11632972210645676 0.01710723154246807 0.6123778820037842 -0.7363355159759521 0.0 0.0 0.0 0.0
0.106 0.11800685524940491 0.015018918551504612 0.6060438752174377 -0.7415727376937866 0.0 0.0 0.0 0.0
0.107 0.1195349469780922 0.012965313158929348 0.6001041531562805 -0.7470178008079529 0.0 0.0 0.0 0.0
0.108 0.12122223526239395 0.010825477540493011 0.5935928225517273 -0.7519926428794861 0.0 0.0 0.0 0.0
0.109 0.12263466417789459 0.008642523549497128 0.5875706076622009 -0.7564741969108582 0.0 0.0 0.0 0.0
0.11 0.12424780428409576 0.00643145851790905 0.5816240310668945 -0.7620025277137756 0.0 0.0 0.0 0.0
0.111 0.12573367357254028 0.004215750843286514 0.5750961303710938 -0.7669059038162231 0.0 0.0 0.0 0.0
0.112 0.1272081583738327 0.002025528810918331 0.5684613585472107 -0.7716913223266602 0.0 0.0 0.0 0.0
0.113 0.12846605479717255 -0.0003743171691894531 0.5617164969444275 -0.7763686776161194 0.0 0.0 0.0 0.0
0.114 0.13008497655391693 -0.0025983434170484543 0.5554995536804199 -0.7812322974205017 0.0 0.0 0.0 0.0
0.115 0.13143235445022583 -0.004983745515346527 0.5492109656333923 -0.7863488793373108 0.0 0.0 0.0 0.0
0.116 0.13265827298164368 -0.007440982386469841 0.5424659848213196 -0.790753185749054 0.0 0.0 0.0 0.0
0.117 0.1340734213590622 -0.009777761064469814 0.5360935926437378 -0.7953227162361145 0.0 0.0 0.0 0.0
0.118 0.13531959056854248 -0.012250554747879505 0.5294241309165955 -0.7998438477516174 0.0 0.0 0.0 0.0
0.119 0.13648168742656708 -0.014720352366566658 0.5221940279006958 -0.8043432831764221 0.0 0.0 0.0 0.0
0.12 0.1378151774406433 -0.017212601378560066 0.515868067741394 -0.8083816766738892 0.0 0.0 0.0 0.0
0.121 0.1388651579618454 -0.019848445430397987 0.5089960098266602 -0.8130969405174255 0.0 0.0 0.0 0.0
0.122 0.1400623619556427 -0.02236015722155571 0.5016859769821167 -0.817367434501648 0.0 0.0 0.0 0.0
0.123 0.1412115842103958 -0.02499430812895298 0.4950031042098999 -0.8210526704788208 0.0 0.0 0.0 0.0
0.124 0.14216828346252441 -0.02762128785252571 0.4882620573043823 -0.8256024122238159 0.0 0.0 0.0 0.0
0.125 0.14321129024028778 -0.030217599123716354 0.4809207618236542 -0.8300105929374695 0.0 0.0 0.0 0.0
0.126 0.14420294761657715 -0.032950133085250854 0.47407200932502747 -0.8338666558265686 0.0 0.0 0.0 0.0
0.127 0.1450168639421463 -0.03564143180847168 0.46714287996292114 -0.8378912210464478 0.0 0.0 0.0 0.0
0.128 0.1459456831216812 -0.03853242099285126 0.4600400924682617 -0.8418561220169067 0.0 0.0 0.0 0.0
0.129 0.14682869613170624 -0.04116089269518852 0.45275044441223145 -0.8457313776016235 0.0 0.0 0.0 0.0
0.13 0.1476910412311554 -0.043898891657590866 0.4458563029766083 -0.8493694067001343 0.0 0.0 0.0 0.0
0.131 0.14850904047489166 -0.04674660414457321 0.4385071098804474 -0.8532261252403259 0.0 0.0 0.0 0.0
0.132 0.14920276403427124 -0.04959415644407272 0.43154653906822205 -0.8565448522567749 0.0 0.0 0.0 0.0
0.133 0.14983859658241272 -0.05231385678052902 0.42377158999443054 -0.8603301644325256 0.0 0.0 0.0 0.0
0.134 0.15058168768882751 -0.055287763476371765 0.41698285937309265 -0.8638617396354675 0.0 0.0 0.0 0.0
0.135 0.15103890001773834 -0.058207545429468155 0.40915408730506897 -0.8670911192893982 0.0 0.0 0.0 0.0
0.136 0.15173542499542236 -0.06111283600330353 0.40215712785720825 -0.8707641363143921 0.0 0.0 0.0 0.0
0.137 0.15235258638858795 -0.06411328911781311 0.3947063982486725 -0.8744111657142639 0.0 0.0 0.0 0.0
0.138 0.1526215523481369 -0.06698814779520035 0.3868567645549774 -0.8770930767059326 0.0 0.0 0.0 0.0
0.139 0.15305006504058838 -0.06994252651929855 0.37980151176452637 -0.8808221220970154 0.0 0.0 0.0 0.0
0.14 0.15351428091526031 -0.07294405996799469 0.37222278118133545 -0.8837970495223999 0.0 0.0 0.0 0.0
0.141 0.15377585589885712 -0.07590916007757187 0.3649404048919678 -0.8871860504150391 0.0 0.0 0.0 0.0
0.142 0.1540335714817047 -0.07886945456266403 0.35730013251304626 -0.8899048566818237 0.0 0.0 0.0 0.0
0.143 0.15431076288223267 -0.08195779472589493 0.34954163432121277 -0.8927460312843323 0.0 0.0 0.0 0.0
0.144 0.1545916497707367 -0.08505766838788986 0.34207141399383545 -0.8956075310707092 0.0 0.0 0.0 0.0
0.145 0.1547192484140396 -0.0880664512515068 0.3342062532901764 -0.8984699249267578 0.0 0.0 0.0 0.0
0.146 0.1548452228307724 -0.09120920300483704 0.3265988826751709 -0.9012449383735657 0.0 0.0 0.0 0.0
0.147 0.15482541918754578 -0.09412723034620285 0.31903010606765747 -0.9036905765533447 0.0 0.0 0.0 0.0
0.148 0.15496571362018585 -0.09727568179368973 0.31133854389190674 -0.9064117670059204 0.0 0.0 0.0 0.0
0.149 0.15493251383304596 -0.10042376071214676 0.30375489592552185 -0.9088990092277527 0.0 0.0 0.0 0.0
0.15 0.15483565628528595 -0.10355176776647568 0.295955091714859 -0.9112287759780884 0.0 0.0 0.0 0.0
0.151 0.15466083586215973 -0.10664326697587967 0.2881750464439392 -0.9136567711830139 0.0 0.0 0.0 0.0
0.152 0.15442775189876556 -0.10961215943098068 0.28045785427093506 -0.9158576130867004 0.0 0.0 0.0 0.0
0.153 0.1542297899723053 -0.11278367787599564 0.27268844842910767 -0.9181357026100159 0.0 0.0 0.0 0.0
0.154 0.15408562123775482 -0.11594550311565399 0.2650666832923889 -0.9205577373504639 0.0 0.0 0.0 0.0
0.155 0.15367300808429718 -0.11903662234544754 0.25676608085632324 -0.9224570393562317 0.0 0.0 0.0 0.0
0.156 0.15334603190422058 -0.12226580828428268 0.24897392094135284 -0.9244421720504761 0.0 0.0 0.0 0.0
0.157 0.15306301414966583 -0.12551721930503845 0.241349995136261 -0.9265623688697815 0.0 0.0 0.0 0.0
0.158 0.15244902670383453 -0.1283831149339676 0.23329849541187286 -0.9278073906898499 0.0 0.0 0.0 0.0
0.159 0.1521289348602295 -0.1317148059606552 0.2254311740398407 -0.9302741885185242 0.0 0.0 0.0 0.0
0.16 0.15161992609500885 -0.13467860221862793 0.21787896752357483 -0.9317063689231873 0.0 0.0 0.0 0.0
0.161 0.15088272094726562 -0.13809442520141602 0.20939183235168457 -0.9335488080978394 0.0 0.0 0.0 0.0
0.162 0.1502944976091385 -0.14110499620437622 0.20152999460697174 -0.9348481297492981 0.0 0.0 0.0 0.0
0.163 0.14977720379829407 -0.1441277265548706 0.19405260682106018 -0.9364560842514038 0.0 0.0 0.0 0.0
0.164 0.14892283082008362 -0.14749225974082947 0.18553762137889862 -0.9378811120986938 0.0 0.0 0.0 0.0
0.165 0.14813120663166046 -0.15044350922107697 0.17795634269714355 -0.9394876956939697 0.0 0.0 0.0 0.0
0.166 0.1474430114030838 -0.15387213230133057 0.17000296711921692 -0.9410984516143799 0.0 0.0 0.0 0.0
0.167 0.14651383459568024 -0.15676680207252502 0.16146646440029144 -0.9418854713439941 0.0 0.0 0.0 0.0
0.168 0.14545215666294098 -0.15998663008213043 0.1537054479122162 -0.942976713180542 0.0 0.0 0.0 0.0
0.169 0.1446526050567627 -0.16293759644031525 0.1461886614561081 -0.9437376260757446 0.0 0.0 0.0 0.0
0.17 0.14369715750217438 -0.16646620631217957 0.13773366808891296 -0.9454083442687988 0.0 0.0 0.0 0.0
0.171 0.14264342188835144 -0.16937290132045746 0.13009227812290192 -0.9457713961601257 0.0 0.0 0.0 0.0
0.172 0.1414688676595688 -0.1724269986152649 0.1216561496257782 -0.9470679759979248 0.0 0.0 0.0 0.0
0.173 0.14044076204299927 -0.17555426061153412 0.11409814655780792 -0.9480209350585938 0.0 0.0 0.0 0.0
0.174 0.13905905187129974 -0.1785087287425995 0.10562419146299362 -0.9480615854263306 0.0 0.0 0.0 0.0
0.175 0.13800539076328278 -0.18165846168994904 0.09792224317789078 -0.9487230777740479 0.0 0.0 0.0 0.0
0.176 0.13660122454166412 -0.18483814597129822 0.08856115490198135 -0.9500088691711426 0.0 0.0 0.0 0.0
0.177 0.1354503184556961 -0.18789799511432648 0.08178262412548065 -0.9500734210014343 0.0 0.0 0.0 0.0
0.178 0.13411442935466766 -0.19110988080501556 0.07369454950094223 -0.9506497979164124 0.0 0.0 0.0 0.0
0.179 0.13265514373779297 -0.19405953586101532 0.06563055515289307 -0.9506864547729492 0.0 0.0 0.0 0.0
0.18 0.13107194006443024 -0.19688984751701355 0.05795974284410477 -0.9516814947128296 0.0 0.0 0.0 0.0
0.181 0.12946340441703796 -0.19999010860919952 0.04941069707274437 -0.9518135190010071 0.0 0.0 0.0 0.0
0.182 0.12824761867523193 -0.2030714452266693 0.04194321855902672 -0.9516788125038147 0.0 0.0 0.0 0.0
0.183 0.1264956146478653 -0.2061018943786621 0.033392734825611115 -0.9517700672149658 0.0 0.0 0.0 0.0
0.184 0.12484481185674667 -0.2089417278766632 0.025675855576992035 -0.9517990350723267 0.0 0.0 0.0 0.0
0.185 0.12318529933691025 -0.21190552413463593 0.01737767830491066 -0.9519754648208618 0.0 0.0 0.0 0.0
0.186 0.12148814648389816 -0.2147817611694336 0.009623190388083458 -0.9520246982574463 0.0 0.0 0.0 0.0
0.187 0.11977620422840118 -0.2179233431816101 0.0018415097147226334 -0.9516433477401733 0.0 0.0 0.0 0.0
0.188 0.11787954717874527 -0.2208840698003769 -0.0066406698897480965 -0.9513133764266968 0.0 0.0 0.0 0.0
0.189 0.11605339497327805 -0.22372788190841675 -0.0146583691239357 -0.9506111741065979 0.0 0.0 0.0 0.0
0.19 0.11412999778985977 -0.22650668025016785 -0.022319940850138664 -0.9505656957626343 0.0 0.0 0.0 0.0
0.191 0.1123255267739296 -0.2294391244649887 -0.030025703832507133 -0.9499433636665344 0.0 0.0 0.0 0.0
0.192 0.11020825058221817 -0.23229308426380157 -0.038627829402685165 -0.948621928691864 0.0 0.0 0.0 0.0
0.193 0.10827440768480301 -0.23507460951805115 -0.04617740213871002 -0.9492508172988892 0.0 0.0 0.0 0.0
0.194 0.10624735802412033 -0.23793485760688782 -0.05402732640504837 -0.9476829171180725 0.0 0.0 0.0 0.0
