!Created with skrf (http://scikit-rf.org).
# GHz S RI R 50.0 
!freq ReS11 ImS11 ReS21 ImS21 ReS12 ImS12 ReS22 ImS22
0.001 0.808525562286377 -0.07958167791366577 -7.495656609535217e-05 0.00011539366096258163 0.0 0.0 0.0 0.0
0.002 0.7745417952537537 -0.1240079253911972 5.587935447692871e-07 -0.000123574398458004 0.0 0.0 0.0 0.0
0.003 0.8050994873046875 -0.20275206863880157 2.46269628405571e-05 7.409695535898209e-05 0.0 0.0 0.0 0.0
0.004 0.8167546391487122 -0.32186710834503174 2.483837306499481e-06 -0.0001993635669350624 0.0 0.0 0.0 0.0
0.005 0.7905479073524475 -0.45222991704940796 -5.034264177083969e-05 0.00012227799743413925 0.0 0.0 0.0 0.0
0.006 0.7106087803840637 -0.6097971796989441 5.006883293390274e-05 4.278495907783508e-06 0.0 0.0 0.0 0.0
0.007 0.5507590770721436 -0.7325466871261597 6.27981498837471e-05 0.000129050575196743 0.0 0.0 0.0 0.0
0.008 0.30408674478530884 -0.7629506587982178 -5.931127816438675e-05 0.0001591946929693222 0.0 0.0 0.0 0.0
0.009 0.07684106379747391 -0.7244520783424377 -0.00012743845582008362 6.78403303027153e-05 0.0 0.0 0.0 0.0
0.01 -0.06381447613239288 -0.6941012740135193 -0.000109122134745121 0.00011768937110900879 0.0 0.0 0.0 0.0
0.011 -0.14999108016490936 -0.6423539519309998 4.418659955263138e-05 -7.379800081253052e-06 0.0 0.0 0.0 0.0
0.012 -0.1953987181186676 -0.5923418402671814 1.8440186977386475e-05 0.00012536533176898956 0.0 0.0 0.0 0.0
0.013 -0.23090247809886932 -0.5545293092727661 6.934348493814468e-05 7.892120629549026e-05 0.0 0.0 0.0 0.0
0.014 -0.26381030678749084 -0.5312198400497437 -2.6251189410686493e-05 -4.063360393047333e-05 0.0 0.0 0.0 0.0
0.015 -0.30021607875823975 -0.5103216767311096 2.5937333703041077e-06 -9.98983159661293e-05 0.0 0.0 0.0 0.0
0.016 -0.31980156898498535 -0.48575156927108765 -7.608160376548767e-05 0.00011028628796339035 0.0 0.0 0.0 0.0
0.017 -0.346093088388443 -0.4700012505054474 -6.38868659734726e-05 -9.34898853302002e-05 0.0 0.0 0.0 0.0
0.018 -0.36631929874420166 -0.45835164189338684 -1.545436680316925e-05 0.0002056080847978592 0.0 0.0 0.0 0.0
0.019 -0.3877761960029602 -0.44717344641685486 7.209926843643188e-05 0.00015745218843221664 0.0 0.0 0.0 0.0
0.02 -0.409871906042099 -0.4396207928657532 8.984562009572983e-05 2.2815540432929993e-05 0.0 0.0 0.0 0.0
0.021 -0.4260103404521942 -0.42902255058288574 0.00010271742939949036 -2.359692007303238e-05 0.0 0.0 0.0 0.0
0.022 -0.4469957947731018 -0.41235724091529846 -2.708379179239273e-05 -6.120465695858002e-05 0.0 0.0 0.0 0.0
0.023 -0.46321508288383484 -0.3977717161178589 -2.2372230887413025e-05 2.958253026008606e-05 0.0 0.0 0.0 0.0
0.024 -0.48009270429611206 -0.38588765263557434 -0.00013104267418384552 4.1282735764980316e-05 0.0 0.0 0.0 0.0
0.025 -0.49394363164901733 -0.37842506170272827 7.612351328134537e-05 6.559118628501892e-05 0.0 0.0 0.0 0.0
0.026 -0.5105255246162415 -0.36831894516944885 3.789551556110382e-06 6.021372973918915e-05 0.0 0.0 0.0 0.0
0.027 -0.5304893255233765 -0.35590100288391113 -3.129243850708008e-05 -3.3439137041568756e-05 0.0 0.0 0.0 0.0
0.028 -0.544029712677002 -0.3429631292819977 -0.00018776115030050278 6.559863686561584e-05 0.0 0.0 0.0 0.0
0.029 -0.5546533465385437 -0.3301528990268707 2.8331764042377472e-05 0.00013711582869291306 0.0 0.0 0.0 0.0
0.03 -0.5682930946350098 -0.31719914078712463 0.00013859663158655167 9.102653712034225e-05 0.0 0.0 0.0 0.0
0.031 -0.5759424567222595 -0.2977105677127838 5.9233978390693665e-05 0.00011915061622858047 0.0 0.0 0.0 0.0
0.032 -0.5871477127075195 -0.280050665140152 -7.096584886312485e-05 -4.6975910663604736e-05 0.0 0.0 0.0 0.0
0.033 -0.5957058072090149 -0.26787370443344116 7.751863449811935e-05 -7.421709597110748e-06 0.0 0.0 0.0 0.0
0.034 -0.6048309803009033 -0.25139281153678894 -2.084672451019287e-05 -8.048396557569504e-05 0.0 0.0 0.0 0.0
0.035 -0.6129278540611267 -0.23405763506889343 -9.253993630409241e-05 -0.0002218419685959816 0.0 0.0 0.0 0.0
0.036 -0.6132532954216003 -0.21754564344882965 -6.177742034196854e-05 2.8967857360839844e-05 0.0 0.0 0.0 0.0
0.037 -0.6160049438476562 -0.2033885270357132 -8.9290551841259e-05 0.00019398238509893417 0.0 0.0 0.0 0.0
0.038 -0.620202898979187 -0.18470284342765808 4.548579454421997e-06 6.627850234508514e-05 0.0 0.0 0.0 0.0
0.039 -0.6201292872428894 -0.16688701510429382 -4.664529114961624e-05 3.3262185752391815e-05 0.0 0.0 0.0 0.0
0.04 -0.6228681802749634 -0.14714619517326355 -0.00012592598795890808 -3.5822391510009766e-05 0.0 0.0 0.0 0.0
0.041 -0.6237902045249939 -0.1335756778717041 -9.195879101753235e-06 0.00010361243039369583 0.0 0.0 0.0 0.0
0.042 -0.6206102967262268 -0.1162206158041954 -0.00016973260790109634 8.622650057077408e-05 0.0 0.0 0.0 0.0
0.043 -0.618337869644165 -0.10463175922632217 -8.112471550703049e-05 0.00017532706260681152 0.0 0.0 0.0 0.0
0.044 -0.6180937886238098 -0.09395496547222137 -7.604248821735382e-06 0.00012101419270038605 0.0 0.0 0.0 0.0
0.045 -0.6204361319541931 -0.07923906296491623 -0.00028948206454515457 -3.893859684467316e-06 0.0 0.0 0.0 0.0
0.046 -0.61906498670578 -0.06859605759382248 -0.00014211051166057587 0.0001940978690981865 0.0 0.0 0.0 0.0
0.047 -0.6164907217025757 -0.05550505593419075 -0.00013636983931064606 0.0001863129436969757 0.0 0.0 0.0 0.0
0.048 -0.6146870851516724 -0.04357641935348511 -2.7266331017017365e-05 0.00033978652209043503 0.0 0.0 0.0 0.0
0.049 -0.6143008470535278 -0.0342671163380146 0.00025805458426475525 0.00018183235079050064 0.0 0.0 0.0 0.0
0.05 -0.6179036498069763 -0.018643712624907494 0.00021647196263074875 0.0002481415867805481 0.0 0.0 0.0 0.0
0.051 -0.612383246421814 -0.006252661347389221 0.00015276111662387848 0.00045233964920043945 0.0 0.0 0.0 0.0
0.052 -0.606752336025238 0.0025866935029625893 0.0004055015742778778 0.0004985863342881203 0.0 0.0 0.0 0.0
0.053 -0.6051221489906311 0.011288857087492943 0.0008660433813929558 0.00036041904240846634 0.0 0.0 0.0 0.0
0.054 -0.6030263900756836 0.02124049700796604 0.0012400494888424873 -0.000369485467672348 0.0 0.0 0.0 0.0
0.055 -0.6016070246696472 0.03353685885667801 0.0006453171372413635 -0.0014914609491825104 0.0 0.0 0.0 0.0
0.056 -0.5980949401855469 0.043397124856710434 -0.0002824552357196808 -0.0008694566786289215 0.0 0.0 0.0 0.0
0.057 -0.5916483998298645 0.05301562324166298 -0.0004689907655119896 -0.0005207592621445656 0.0 0.0 0.0 0.0
0.058 -0.5940381288528442 0.0575128048658371 -0.00022315699607133865 -0.00038191303610801697 0.0 0.0 0.0 0.0
0.059 -0.5933001041412354 0.06852904707193375 -0.0003644013777375221 -0.00024751946330070496 0.0 0.0 0.0 0.0
0.06 -0.5897951126098633 0.07930830866098404 -0.0004099849611520767 -0.00019445084035396576 0.0 0.0 0.0 0.0
0.061 -0.5891417860984802 0.09250553697347641 -0.00040907785296440125 -0.00011425185948610306 0.0 0.0 0.0 0.0
0.062 -0.5853912830352783 0.10538680106401443 -0.0002795206382870674 -0.00014316942542791367 0.0 0.0 0.0 0.0
0.063 -0.5783990025520325 0.11745584011077881 -0.00038605742156505585 -1.0553747415542603e-05 0.0 0.0 0.0 0.0
0.064 -0.5725345015525818 0.12844577431678772 -0.0004427218809723854 -7.236562669277191e-05 0.0 0.0 0.0 0.0
0.065 -0.5650826692581177 0.14239977300167084 -0.0003597652539610863 -2.9282644391059875e-05 0.0 0.0 0.0 0.0
0.066 -0.5566331744194031 0.15924789011478424 -0.00022587552666664124 6.870739161968231e-05 0.0 0.0 0.0 0.0
0.067 -0.5436083078384399 0.18609236180782318 -0.00023638363927602768 8.383207023143768e-05 0.0 0.0 0.0 0.0
0.068 -0.5350824594497681 0.20733338594436646 -0.00011888239532709122 0.0002525812014937401 0.0 0.0 0.0 0.0
0.069 -0.5282599329948425 0.22548246383666992 -0.00027904659509658813 0.0002144835889339447 0.0 0.0 0.0 0.0
0.07 -0.5239693522453308 0.24183006584644318 -0.00011567585170269012 0.00021293573081493378 0.0 0.0 0.0 0.0
0.071 -0.5160927772521973 0.2525046765804291 -0.00010684970766305923 0.00041399896144866943 0.0 0.0 0.0 0.0
0.072 -0.5054751038551331 0.2670421600341797 -0.0002419929951429367 0.00041882507503032684 0.0 0.0 0.0 0.0
0.073 -0.4977077543735504 0.2832024395465851 -0.000167100690305233 0.0004485873505473137 0.0 0.0 0.0 0.0
0.074 -0.4876812994480133 0.2935779094696045 3.133341670036316e-05 0.00043882522732019424 0.0 0.0 0.0 0.0
0.075 -0.4799577295780182 0.29771310091018677 7.258635014295578e-05 0.0005367565900087357 0.0 0.0 0.0 0.0
0.076 -0.47099587321281433 0.30302077531814575 8.25393944978714e-05 0.0004674075171351433 0.0 0.0 0.0 0.0
0.077 -0.46556562185287476 0.3050188422203064 0.00041344668716192245 0.0005935998633503914 0.0 0.0 0.0 0.0
0.078 -0.4581076204776764 0.3111255168914795 0.00044277869164943695 0.0003649219870567322 0.0 0.0 0.0 0.0
0.079 -0.44878020882606506 0.31767821311950684 0.000681673176586628 0.0003786124289035797 0.0 0.0 0.0 0.0
0.08 -0.443215012550354 0.32482030987739563 0.0007297452539205551 0.00021321605890989304 0.0 0.0 0.0 0.0
0.081 -0.43597134947776794 0.3270379602909088 0.0009253351017832756 3.161560744047165e-05 0.0 0.0 0.0 0.0
0.082 -0.4298601746559143 0.333086222410202 0.0009465394541621208 -0.0004183407872915268 0.0 0.0 0.0 0.0
0.083 -0.4223182201385498 0.33865678310394287 0.0007540052756667137 -0.001012205146253109 0.0 0.0 0.0 0.0
0.084 -0.4168843626976013 0.34006181359291077 0.0002051219344139099 -0.0014344863593578339 0.0 0.0 0.0 0.0
0.085 -0.4139057397842407 0.34507232904434204 -0.0002562291920185089 -0.0010389303788542747 0.0 0.0 0.0 0.0
0.086 -0.4093131124973297 0.34521108865737915 -0.0006708772853016853 -0.0006379364058375359 0.0 0.0 0.0 0.0
0.087 -0.40456855297088623 0.3458680212497711 -0.0006939312443137169 -0.0005029384046792984 0.0 0.0 0.0 0.0
0.088 -0.39970603585243225 0.3460817039012909 -0.000570518895983696 -0.00011634360998868942 0.0 0.0 0.0 0.0
0.089 -0.3957219421863556 0.34934884309768677 -0.0002777855843305588 -4.7497451305389404e-07 0.0 0.0 0.0 0.0
0.09 -0.38735705614089966 0.35317566990852356 -0.0004372028633952141 -4.3781474232673645e-05 0.0 0.0 0.0 0.0
0.091 -0.3826574385166168 0.3553234338760376 -0.000321144238114357 -3.0423514544963837e-05 0.0 0.0 0.0 0.0
0.092 -0.3741300106048584 0.35745832324028015 -0.0004659956321120262 3.852136433124542e-05 0.0 0.0 0.0 0.0
0.093 -0.3677152097225189 0.357060968875885 -0.00035569071769714355 0.0001095915213227272 0.0 0.0 0.0 0.0
0.094 -0.36487510800361633 0.3551730513572693 -3.828480839729309e-05 0.00017290376126766205 0.0 0.0 0.0 0.0
0.095 -0.3657107353210449 0.3559683561325073 0.00010119006037712097 1.2986361980438232e-05 0.0 0.0 0.0 0.0
0.096 -0.36233898997306824 0.3549703061580658 -0.00014744699001312256 -9.06866043806076e-05 0.0 0.0 0.0 0.0
0.097 -0.35866841673851013 0.35362258553504944 -1.2681819498538971e-05 -4.741363227367401e-06 0.0 0.0 0.0 0.0
0.098 -0.35796281695365906 0.3555203378200531 -0.0003625359386205673 -0.00013121962547302246 0.0 0.0 0.0 0.0
0.099 -0.35118716955184937 0.35524776577949524 -0.0005478449165821075 0.00027699582278728485 0.0 0.0 0.0 0.0
0.1 -0.34833112359046936 0.3695363402366638 -0.00014430098235607147 0.000466751866042614 0.0 0.0 0.0 0.0
0.101 -0.31516706943511963 0.36738064885139465 -0.00010097678750753403 0.00042388495057821274 0.0 0.0 0.0 0.0
0.102 -0.3101396858692169 0.3706652522087097 -6.75395131111145e-05 0.0002921679988503456 0.0 0.0 0.0 0.0
0.103 -0.30901679396629333 0.36861294507980347 0.00024104677140712738 0.0003718296065926552 0.0 0.0 0.0 0.0
0.104 -0.3068159520626068 0.3685193359851837 0.0001680273562669754 0.00022790394723415375 0.0 0.0 0.0 0.0
0.105 -0.30352720618247986 0.37071871757507324 8.063577115535736e-05 2.213660627603531e-05 0.0 0.0 0.0 0.0
0.106 -0.3000410497188568 0.3701418340206146 0.00013273581862449646 -0.00011278502643108368 0.0 0.0 0.0 0.0
0.107 -0.29730814695358276 0.3687335252761841 0.00022044777870178223 8.102506399154663e-06 0.0 0.0 0.0 0.0
0.108 -0.296124130487442 0.3694460988044739 4.3725594878196716e-05 5.316641181707382e-05 0.0 0.0 0.0 0.0
0.109 -0.29667600989341736 0.367840439081192 0.0002749357372522354 -0.00010756775736808777 0.0 0.0 0.0 0.0
0.11 -0.2999003827571869 0.3689524531364441 0.00025289785116910934 -0.00016822293400764465 0.0 0.0 0.0 0.0
0.111 -0.2984371781349182 0.36972641944885254 0.00019557494670152664 2.305954694747925e-06 0.0 0.0 0.0 0.0
0.112 -0.29947948455810547 0.37058764696121216 -1.3653188943862915e-06 -0.0001540137454867363 0.0 0.0 0.0 0.0
0.113 -0.30106061697006226 0.3713224530220032 -0.00024029240012168884 -0.00026551075279712677 0.0 0.0 0.0 0.0
0.114 -0.29999929666519165 0.37092074751853943 6.63120299577713e-05 8.672196418046951e-05 0.0 0.0 0.0 0.0
0.115 -0.2995072603225708 0.37243175506591797 0.00014816224575042725 1.8195249140262604e-05 0.0 0.0 0.0 0.0
0.116 -0.2995072603225708 0.37755733728408813 -2.4702399969100952e-05 -7.945392280817032e-05 0.0 0.0 0.0 0.0
0.117 -0.29801565408706665 0.3810717463493347 8.265208452939987e-05 -2.6625581085681915e-05 0.0 0.0 0.0 0.0
0.118 -0.29679402709007263 0.3845924735069275 0.0001379735767841339 7.247738540172577e-05 0.0 0.0 0.0 0.0
0.119 -0.2969517707824707 0.38997721672058105 2.6848167181015015e-05 -0.0001449882984161377 0.0 0.0 0.0 0.0
0.12 -0.2961772084236145 0.3932420313358307 -0.0001317095011472702 -8.779671043157578e-05 0.0 0.0 0.0 0.0
0.121 -0.2965438663959503 0.3981528878211975 4.211254417896271e-05 -8.003413677215576e-05 0.0 0.0 0.0 0.0
0.122 -0.29578202962875366 0.4013829529285431 -8.862558752298355e-05 -7.759220898151398e-05 0.0 0.0 0.0 0.0
0.123 -0.293962687253952 0.4068211615085602 -4.275701940059662e-05 -2.6176683604717255e-05 0.0 0.0 0.0 0.0
0.124 -0.2931554317474365 0.41065463423728943 -2.804212272167206e-06 1.0602176189422607e-05 0.0 0.0 0.0 0.0
0.125 -0.2917134463787079 0.4160464406013489 -6.319675594568253e-05 -0.00017813220620155334 0.0 0.0 0.0 0.0
0.126 -0.2882849872112274 0.4196526110172272 -3.0549243092536926e-05 -5.504116415977478e-06 0.0 0.0 0.0 0.0
0.127 -0.28661665320396423 0.42586350440979004 0.00014228839427232742 -2.2523105144500732e-05 0.0 0.0 0.0 0.0
0.128 -0.2830734848976135 0.4318069517612457 -8.253473788499832e-05 -7.066503167152405e-05 0.0 0.0 0.0 0.0
0.129 -0.2808752954006195 0.4394853413105011 -5.824770778417587e-05 3.5946257412433624e-05 0.0 0.0 0.0 0.0
0.13 -0.27656611800193787 0.4440796375274658 6.841123104095459e-05 -2.119503915309906e-05 0.0 0.0 0.0 0.0
0.131 -0.27252015471458435 0.453512579202652 0.00011809449642896652 -1.0546296834945679e-05 0.0 0.0 0.0 0.0
0.132 -0.2691750228404999 0.45819854736328125 -3.7439167499542236e-06 -8.105114102363586e-05 0.0 0.0 0.0 0.0
0.133 -0.26653948426246643 0.4639816880226135 7.98981636762619e-06 -0.00010595563799142838 0.0 0.0 0.0 0.0
0.134 -0.2630617618560791 0.466167151927948 -5.608610808849335e-05 -9.036250412464142e-05 0.0 0.0 0.0 0.0
0.135 -0.2599145770072937 0.47068312764167786 -0.00011991336941719055 -0.00013964343816041946 0.0 0.0 0.0 0.0
0.136 -0.25659364461898804 0.4745210111141205 2.0813196897506714e-05 -5.064159631729126e-05 0.0 0.0 0.0 0.0
0.137 -0.2504023313522339 0.4784492254257202 0.00010970234870910645 8.788798004388809e-05 0.0 0.0 0.0 0.0
0.138 -0.24562719464302063 0.48223719000816345 4.189368337392807e-05 8.361414074897766e-06 0.0 0.0 0.0 0.0
0.139 -0.24088294804096222 0.48854389786720276 -1.7668120563030243e-05 -0.00011091027408838272 0.0 0.0 0.0 0.0
0.14 -0.23497797548770905 0.4910413920879364 6.91218301653862e-05 -2.8030946850776672e-05 0.0 0.0 0.0 0.0
0.141 -0.22826820611953735 0.4962485432624817 -6.18230551481247e-05 -6.983894854784012e-05 0.0 0.0 0.0 0.0
0.142 -0.22113893926143646 0.5007575750350952 -1.592840999364853e-05 2.6183202862739563e-05 0.0 0.0 0.0 0.0
0.143 -0.21591009199619293 0.5052534341812134 9.559094905853271e-05 -0.00013500358909368515 0.0 0.0 0.0 0.0
0.144 -0.20881301164627075 0.5098282694816589 5.371216684579849e-05 -0.00013825390487909317 0.0 0.0 0.0 0.0
0.145 -0.20082975924015045 0.51353520154953 0.00015417486429214478 -3.458186984062195e-05 0.0 0.0 0.0 0.0
0.146 -0.19137243926525116 0.519010603427887 -4.408787935972214e-05 -2.372823655605316e-05 0.0 0.0 0.0 0.0
0.147 -0.18529848754405975 0.5231945514678955 -3.1395815312862396e-05 -0.0001431647688150406 0.0 0.0 0.0 0.0
0.148 -0.17553158104419708 0.5267684459686279 1.756567507982254e-05 -1.525040715932846e-05 0.0 0.0 0.0 0.0
0.149 -0.1684619039297104 0.5291685461997986 9.006820619106293e-06 -0.00018775742501020432 0.0 0.0 0.0 0.0
0.15 -0.1606622040271759 0.5328951478004456 -4.771817475557327e-05 -4.836078733205795e-05 0.0 0.0 0.0 0.0
0.151 -0.15070821344852448 0.5361731648445129 -7.617287337779999e-05 3.164634108543396e-05 0.0 0.0 0.0 0.0
0.152 -0.14273333549499512 0.5398650169372559 -3.624334931373596e-05 -0.0001187492161989212 0.0 0.0 0.0 0.0
0.153 -0.1320643424987793 0.5422506332397461 -0.00023613031953573227 0.0001367097720503807 0.0 0.0 0.0 0.0
0.154 -0.12238501012325287 0.5458874106407166 -0.00011801905930042267 8.575618267059326e-06 0.0 0.0 0.0 0.0
0.155 -0.11331161856651306 0.5474348664283752 -0.00019735004752874374 -0.00011409446597099304 0.0 0.0 0.0 0.0
0.156 -0.10341418534517288 0.5505701303482056 -0.0001225825399160385 -6.459187716245651e-05 0.0 0.0 0.0 0.0
0.157 -0.09463336318731308 0.5514318346977234 -0.0001199701800942421 -4.2486004531383514e-05 0.0 0.0 0.0 0.0
0.158 -0.08518461883068085 0.5538861751556396 3.0385330319404602e-05 6.463658064603806e-05 0.0 0.0 0.0 0.0
0.159 -0.07478067278862 0.5541926622390747 2.175942063331604e-05 0.00015150569379329681 0.0 0.0 0.0 0.0
0.16 -0.06472743302583694 0.5562859773635864 -2.7745962142944336e-05 6.744544953107834e-05 0.0 0.0 0.0 0.0
0.161 -0.05448991432785988 0.5564391613006592 0.00010144896805286407 7.612630724906921e-05 0.0 0.0 0.0 0.0
0.162 -0.043693333864212036 0.558146059513092 0.00013412535190582275 0.0001573599874973297 0.0 0.0 0.0 0.0
0.163 -0.033491507172584534 0.5566394329071045 0.00023802928626537323 1.4711171388626099e-05 0.0 0.0 0.0 0.0
0.164 -0.024185316637158394 0.5572512745857239 0.0002244766801595688 -0.00014902465045452118 0.0 0.0 0.0 0.0
0.165 -0.01329633966088295 0.5553810596466064 0.0001784246414899826 -5.547422915697098e-05 0.0 0.0 0.0 0.0
0.166 -0.0024578580632805824 0.5559420585632324 0.00014457851648330688 -0.00012487173080444336 0.0 0.0 0.0 0.0
0.167 0.006411368027329445 0.5540357232093811 5.0980597734451294e-05 -0.00014276523143053055 0.0 0.0 0.0 0.0
0.168 0.016655901446938515 0.5540267825126648 -0.00018366053700447083 -0.00015763100236654282 0.0 0.0 0.0 0.0
0.169 0.027717143297195435 0.5513188242912292 -5.058757960796356e-05 -0.00011261552572250366 0.0 0.0 0.0 0.0
0.17 0.03546300530433655 0.5499662756919861 -2.553686499595642e-05 -4.780478775501251e-05 0.0 0.0 0.0 0.0
0.171 0.04601456597447395 0.5470889806747437 -7.510930299758911e-05 -0.00013725832104682922 0.0 0.0 0.0 0.0
0.172 0.05661323294043541 0.5452082753181458 -4.576612263917923e-05 -0.00011961720883846283 0.0 0.0 0.0 0.0
0.173 0.06528253853321075 0.5410177707672119 -0.0001017991453409195 -0.00011058058589696884 0.0 0.0 0.0 0.0
0.174 0.0745861753821373 0.5381109714508057 -0.0001263357698917389 5.200505256652832e-06 0.0 0.0 0.0 0.0
0.175 0.08264964073896408 0.5343126654624939 -0.00021900609135627747 2.4206936359405518e-05 0.0 0.0 0.0 0.0
0.176 0.09196148067712784 0.5314103364944458 -0.0002016201615333557 -0.0001294771209359169 0.0 0.0 0.0 0.0
0.177 0.09992203116416931 0.5262594819068909 -0.00011064484715461731 1.9232742488384247e-05 0.0 0.0 0.0 0.0
0.178 0.10852911323308945 0.523472249507904 -0.00012567359954118729 -0.00014080479741096497 0.0 0.0 0.0 0.0
0.179 0.11700328439474106 0.5176456570625305 -0.00020440015941858292 1.2858770787715912e-05 0.0 0.0 0.0 0.0
0.18 0.12470034509897232 0.5145677328109741 -0.00027296505868434906 -3.33394855260849e-05 0.0 0.0 0.0 0.0
0.181 0.13304337859153748 0.5094485282897949 -0.00021656788885593414 -7.604248821735382e-05 0.0 0.0 0.0 0.0
0.182 0.14258618652820587 0.5041470527648926 -8.549913763999939e-05 8.651800453662872e-05 0.0 0.0 0.0 0.0
0.183 0.15106438100337982 0.5006037354469299 -0.0002719219774007797 9.061861783266068e-05 0.0 0.0 0.0 0.0
0.184 0.15915878117084503 0.4963723123073578 -0.00023085996508598328 0.0002457844093441963 0.0 0.0 0.0 0.0
