!Created with skrf (http://scikit-rf.org).
# GHz S RI R 50.0 
!freq ReS11 ImS11 ReS21 ImS21 ReS12 ImS12 ReS22 ImS22
0.001 0.8089432120323181 -0.07909508794546127 0.00011694151908159256 -9.837839752435684e-05 0.0 0.0 0.0 0.0
0.002 0.7735586166381836 -0.12664170563220978 -2.3987144231796265e-05 -0.0002321545034646988 0.0 0.0 0.0 0.0
0.003 0.8031706809997559 -0.20514686405658722 -7.073860615491867e-05 0.00010291021317243576 0.0 0.0 0.0 0.0
0.004 0.813590407371521 -0.3212668299674988 -4.641339182853699e-05 2.6880763471126556e-05 0.0 0.0 0.0 0.0
0.005 0.791701078414917 -0.4646209180355072 -3.159046173095703e-06 -8.914992213249207e-05 0.0 0.0 0.0 0.0
0.006 0.7108097672462463 -0.6105955839157104 9.196624159812927e-05 4.724971950054169e-05 0.0 0.0 0.0 0.0
0.007 0.552868664264679 -0.7386347055435181 -0.00018360745161771774 2.3292377591133118e-05 0.0 0.0 0.0 0.0
0.008 0.3265165090560913 -0.7892065048217773 0.00010396167635917664 -1.5553086996078491e-06 0.0 0.0 0.0 0.0
0.009 0.0875190794467926 -0.746170699596405 7.795263081789017e-05 0.000122792087495327 0.0 0.0 0.0 0.0
0.01 -0.04872150346636772 -0.7035353779792786 -3.3872202038764954e-05 -2.1466054022312164e-05 0.0 0.0 0.0 0.0
0.011 -0.13736432790756226 -0.6591488122940063 -7.617287337779999e-05 9.77981835603714e-06 0.0 0.0 0.0 0.0
0.012 -0.20063486695289612 -0.620036244392395 -1.839548349380493e-05 0.00019181426614522934 0.0 0.0 0.0 0.0
0.013 -0.2531158924102783 -0.584113359451294 -6.115622818470001e-05 5.870312452316284e-05 0.0 0.0 0.0 0.0
0.014 -0.29571425914764404 -0.554836630821228 2.0277686417102814e-05 4.045851528644562e-05 0.0 0.0 0.0 0.0
0.015 -0.33517342805862427 -0.5321456789970398 -3.838352859020233e-05 -2.5656074285507202e-05 0.0 0.0 0.0 0.0
0.016 -0.3615318536758423 -0.5028825998306274 -0.00020150933414697647 5.8105215430259705e-06 0.0 0.0 0.0 0.0
0.017 -0.39280253648757935 -0.48324838280677795 -0.00014295987784862518 -0.00013295840471982956 0.0 0.0 0.0 0.0
0.018 -0.4177580177783966 -0.463742733001709 -0.00012877769768238068 6.445217877626419e-05 0.0 0.0 0.0 0.0
0.019 -0.43949639797210693 -0.44560331106185913 -9.037833660840988e-05 0.00018412433564662933 0.0 0.0 0.0 0.0
0.02 -0.46043816208839417 -0.43239977955818176 0.00010314676910638809 0.00015720725059509277 0.0 0.0 0.0 0.0
0.021 -0.4801000952720642 -0.4129200875759125 -5.860254168510437e-05 0.0002054106444120407 0.0 0.0 0.0 0.0
0.022 -0.5006523132324219 -0.3932833969593048 -6.441213190555573e-05 -4.2484141886234283e-05 0.0 0.0 0.0 0.0
0.023 -0.5161253213882446 -0.37512603402137756 -9.399931877851486e-05 -0.00011621043086051941 0.0 0.0 0.0 0.0
0.024 -0.5259172320365906 -0.3584301471710205 -1.0157003998756409e-05 1.6820617020130157e-05 0.0 0.0 0.0 0.0
0.025 -0.5412333011627197 -0.3391093611717224 4.995428025722504e-05 -1.8248334527015686e-05 0.0 0.0 0.0 0.0
0.026 -0.551118016242981 -0.3209822475910187 7.932819426059723e-05 -7.125549018383026e-05 0.0 0.0 0.0 0.0
0.027 -0.5591214299201965 -0.3055674135684967 -9.312201291322708e-05 0.00011239666491746902 0.0 0.0 0.0 0.0
0.028 -0.5686326026916504 -0.2895716726779938 2.4645589292049408e-05 0.00012478139251470566 0.0 0.0 0.0 0.0
0.029 -0.5775837898254395 -0.2701088488101959 4.6868808567523956e-05 -0.0001026783138513565 0.0 0.0 0.0 0.0
0.03 -0.5829912424087524 -0.2520211637020111 -5.756597965955734e-05 5.651451647281647e-05 0.0 0.0 0.0 0.0
0.031 -0.5871280431747437 -0.23627632856369019 9.861495345830917e-05 -0.00011255405843257904 0.0 0.0 0.0 0.0
0.032 -0.5928089618682861 -0.224105104804039 3.3381395041942596e-05 -0.0001789545640349388 0.0 0.0 0.0 0.0
0.033 -0.5909777879714966 -0.2067832201719284 -8.470471948385239e-05 5.0203874707221985e-05 0.0 0.0 0.0 0.0
0.034 -0.5925106406211853 -0.1926310509443283 0.00011687725782394409 8.712522685527802e-06 0.0 0.0 0.0 0.0
0.035 -0.5970561504364014 -0.181193009018898 -2.6446767151355743e-05 0.00010045431554317474 0.0 0.0 0.0 0.0
0.036 -0.5976923108100891 -0.16645947098731995 -0.00011696759611368179 4.8141926527023315e-05 0.0 0.0 0.0 0.0
0.037 -0.5979158282279968 -0.15203352272510529 -0.00018191616982221603 -8.420273661613464e-05 0.0 0.0 0.0 0.0
0.038 -0.597567617893219 -0.1402428150177002 -0.00010859780013561249 6.431899964809418e-05 0.0 0.0 0.0 0.0
0.039 -0.5953614711761475 -0.12935389578342438 -5.642883479595184e-06 0.00014289189130067825 0.0 0.0 0.0 0.0
0.04 -0.598712146282196 -0.1207287460565567 9.110383689403534e-05 -4.502292722463608e-05 0.0 0.0 0.0 0.0
0.041 -0.5947900414466858 -0.10855795443058014 3.900006413459778e-05 8.042063564062119e-05 0.0 0.0 0.0 0.0
0.042 -0.5972894430160522 -0.09933092445135117 0.0001534903421998024 4.8141926527023315e-05 0.0 0.0 0.0 0.0
0.043 -0.5962927341461182 -0.08838249742984772 9.723939001560211e-06 -0.00010641664266586304 0.0 0.0 0.0 0.0
0.044 -0.5930379033088684 -0.07763981819152832 -0.00012528151273727417 2.9188580811023712e-05 0.0 0.0 0.0 0.0
0.045 -0.5921053290367126 -0.07048837840557098 -2.2510066628456116e-06 0.000228147953748703 0.0 0.0 0.0 0.0
0.046 -0.5897231698036194 -0.06066197529435158 -3.4332275390625e-05 0.00023144390434026718 0.0 0.0 0.0 0.0
0.047 -0.5912852883338928 -0.05444132909178734 5.2158720791339874e-05 0.00032726582139730453 0.0 0.0 0.0 0.0
0.048 -0.5903868079185486 -0.043456900864839554 0.00017556361854076385 0.00018632132560014725 0.0 0.0 0.0 0.0
0.049 -0.58561110496521 -0.03438841924071312 4.394166171550751e-05 0.00044311024248600006 0.0 0.0 0.0 0.0
0.05 -0.5863618850708008 -0.025828925892710686 7.103569805622101e-05 0.00044652074575424194 0.0 0.0 0.0 0.0
0.051 -0.5851283073425293 -0.018560748547315598 0.00044751260429620743 0.0002922201529145241 0.0 0.0 0.0 0.0
0.052 -0.58476722240448 -0.009747699834406376 0.0003499845042824745 0.00020759552717208862 0.0 0.0 0.0 0.0
0.053 -0.5826727151870728 -0.0022964654490351677 0.0006783176213502884 0.00037877634167671204 0.0 0.0 0.0 0.0
0.054 -0.5796873569488525 0.0034772492945194244 0.0011449474841356277 -8.184462785720825e-05 0.0 0.0 0.0 0.0
0.055 -0.5826922655105591 0.010696498677134514 0.0005807699635624886 -0.0013590389862656593 0.0 0.0 0.0 0.0
0.056 -0.5799074769020081 0.019087553024291992 -1.1350028216838837e-05 -0.0007545612752437592 0.0 0.0 0.0 0.0
0.057 -0.578615665435791 0.028455587103962898 -0.00040755048394203186 -0.0006406614556908607 0.0 0.0 0.0 0.0
0.058 -0.5766416788101196 0.03529871627688408 -0.0004204055294394493 -0.00036780815571546555 0.0 0.0 0.0 0.0
0.059 -0.5749641060829163 0.04087508097290993 -0.00023008603602647781 -0.0002317586913704872 0.0 0.0 0.0 0.0
0.06 -0.5775064826011658 0.05025314539670944 -0.00021014083176851273 -0.0002697659656405449 0.0 0.0 0.0 0.0
0.061 -0.5729965567588806 0.056915611028671265 -0.00013291742652654648 -2.6172958314418793e-05 0.0 0.0 0.0 0.0
0.062 -0.5721083879470825 0.06266412883996964 -0.0001635570079088211 -4.4648535549640656e-05 0.0 0.0 0.0 0.0
0.063 -0.5719451308250427 0.073131263256073 -0.0002905260771512985 -0.0001077437773346901 0.0 0.0 0.0 0.0
0.064 -0.5668923258781433 0.07949338108301163 -0.0003436850383877754 -0.00012887176126241684 0.0 0.0 0.0 0.0
0.065 -0.566785454750061 0.08898312598466873 -0.0001652827486395836 -0.00011542532593011856 0.0 0.0 0.0 0.0
0.066 -0.5652262568473816 0.09610341489315033 -0.00019727647304534912 1.9641593098640442e-05 0.0 0.0 0.0 0.0
0.067 -0.5617195963859558 0.10503115504980087 -0.0003689909353852272 0.00012577418237924576 0.0 0.0 0.0 0.0
0.068 -0.5598258376121521 0.11206290870904922 -0.00029517803341150284 0.00029093027114868164 0.0 0.0 0.0 0.0
0.069 -0.5566351413726807 0.1180473044514656 -2.235453575849533e-05 0.00035173259675502777 0.0 0.0 0.0 0.0
0.07 -0.5582108497619629 0.125707745552063 -2.680998295545578e-05 0.0002595866098999977 0.0 0.0 0.0 0.0
0.071 -0.5542436838150024 0.13252997398376465 5.8086588978767395e-06 0.00020706374198198318 0.0 0.0 0.0 0.0
0.072 -0.5522217154502869 0.14206719398498535 -4.770606756210327e-05 0.00018706731498241425 0.0 0.0 0.0 0.0
0.073 -0.5510937571525574 0.14825671911239624 -1.6475096344947815e-06 0.00022319797426462173 0.0 0.0 0.0 0.0
0.074 -0.5480086207389832 0.1537407636642456 -2.7254223823547363e-05 0.00018432363867759705 0.0 0.0 0.0 0.0
0.075 -0.5444778203964233 0.1606736183166504 -8.177012205123901e-05 0.0003237845376133919 0.0 0.0 0.0 0.0
0.076 -0.5421177744865417 0.16754457354545593 3.903452306985855e-05 0.00023241527378559113 0.0 0.0 0.0 0.0
0.077 -0.5405852794647217 0.1720452457666397 0.00015573017299175262 0.00035077985376119614 0.0 0.0 0.0 0.0
0.078 -0.5388690829277039 0.17963722348213196 0.00021793413907289505 0.0002970481291413307 0.0 0.0 0.0 0.0
0.079 -0.5345433354377747 0.18505226075649261 0.00027298182249069214 0.00038204435259103775 0.0 0.0 0.0 0.0
0.08 -0.5349104404449463 0.19363686442375183 0.000513891689479351 0.0002226484939455986 0.0 0.0 0.0 0.0
0.081 -0.5313360095024109 0.19972123205661774 0.0005537960678339005 0.00032381247729063034 0.0 0.0 0.0 0.0
0.082 -0.5290114283561707 0.20742735266685486 0.0008899318054318428 -0.00017204508185386658 0.0 0.0 0.0 0.0
0.083 -0.5258683562278748 0.2148752063512802 0.0007867524400353432 -0.0005245665088295937 0.0 0.0 0.0 0.0
0.084 -0.5208716988563538 0.2183101326227188 0.0006034960970282555 -0.0006403299048542976 0.0 0.0 0.0 0.0
0.085 -0.5207310914993286 0.22648270428180695 0.0002568718045949936 -0.0008337246254086494 0.0 0.0 0.0 0.0
0.086 -0.5169552564620972 0.23269259929656982 -0.00015102792531251907 -0.0006421469151973724 0.0 0.0 0.0 0.0
0.087 -0.5145808458328247 0.2416200041770935 -0.00026899296790361404 -0.00048404932022094727 0.0 0.0 0.0 0.0
0.088 -0.5112647414207458 0.24832282960414886 -0.00034254882484674454 -0.00040988344699144363 0.0 0.0 0.0 0.0
0.089 -0.5075665712356567 0.2543545365333557 -3.6213546991348267e-05 3.418140113353729e-05 0.0 0.0 0.0 0.0
0.09 -0.503594696521759 0.2624410092830658 -0.00026971567422151566 -0.0001334724947810173 0.0 0.0 0.0 0.0
0.091 -0.4985271096229553 0.26645275950431824 -0.0002254033461213112 -0.0001367097720503807 0.0 0.0 0.0 0.0
0.092 -0.4955393075942993 0.2755294740200043 -0.0003057662397623062 -0.0001384597271680832 0.0 0.0 0.0 0.0
0.093 -0.4903532564640045 0.28281617164611816 -0.00017711147665977478 5.9153884649276733e-05 0.0 0.0 0.0 0.0
0.094 -0.48477640748023987 0.28757861256599426 -2.4876557290554047e-05 0.0004074489697813988 0.0 0.0 0.0 0.0
0.095 -0.48206067085266113 0.29410797357559204 -9.332224726676941e-05 0.00016594864428043365 0.0 0.0 0.0 0.0
0.096 -0.4770471751689911 0.2997640073299408 0.0003376714885234833 -0.00019477121531963348 0.0 0.0 0.0 0.0
0.097 -0.4731404781341553 0.3081246018409729 1.1052936315536499e-05 -0.0003092614933848381 0.0 0.0 0.0 0.0
0.098 -0.46755167841911316 0.31600648164749146 -0.0002956623211503029 -0.0004825526848435402 0.0 0.0 0.0 0.0
0.099 -0.4603874385356903 0.3200930655002594 -0.0007310733199119568 0.00020748842507600784 0.0 0.0 0.0 0.0
0.1 -0.45811283588409424 0.3423863351345062 -0.00036479998379945755 0.00034770090132951736 0.0 0.0 0.0 0.0
0.101 -0.4192308783531189 0.3609139323234558 -0.00024890806525945663 0.00038359593600034714 0.0 0.0 0.0 0.0
0.102 -0.4141479432582855 0.367246150970459 -5.162041634321213e-05 0.0004576658830046654 0.0 0.0 0.0 0.0
0.103 -0.4093864858150482 0.3732394576072693 0.00010547228157520294 0.0002477932721376419 0.0 0.0 0.0 0.0
0.104 -0.40377068519592285 0.3784887492656708 0.00011392682790756226 0.0003677941858768463 0.0 0.0 0.0 0.0
0.105 -0.39856499433517456 0.38366028666496277 -2.490077167749405e-05 1.9566155970096588e-05 0.0 0.0 0.0 0.0
0.106 -0.3941260874271393 0.39015844464302063 -1.715961843729019e-05 0.00016294047236442566 0.0 0.0 0.0 0.0
0.107 -0.38835057616233826 0.3938726782798767 0.0001658303663134575 2.7733854949474335e-05 0.0 0.0 0.0 0.0
0.108 -0.3841078281402588 0.40018489956855774 0.00013031717389822006 -6.543472409248352e-06 0.0 0.0 0.0 0.0
0.109 -0.3772152364253998 0.40592101216316223 7.934682071208954e-05 -6.379839032888412e-05 0.0 0.0 0.0 0.0
0.11 -0.371469646692276 0.41193416714668274 0.00012406893074512482 -0.00010725948959589005 0.0 0.0 0.0 0.0
0.111 -0.3643786907196045 0.41461750864982605 2.0209699869155884e-06 -3.093760460615158e-05 0.0 0.0 0.0 0.0
0.112 -0.35670188069343567 0.42051756381988525 8.071120828390121e-05 9.753741323947906e-05 0.0 0.0 0.0 0.0
0.113 -0.34995588660240173 0.42556390166282654 4.0421262383461e-05 -0.0001673409715294838 0.0 0.0 0.0 0.0
0.114 -0.34240150451660156 0.4314599335193634 -0.0001649223268032074 -9.285006672143936e-05 0.0 0.0 0.0 0.0
0.115 -0.3351614475250244 0.4347841143608093 -4.396960139274597e-05 5.987286567687988e-05 0.0 0.0 0.0 0.0
0.116 -0.3299740254878998 0.4396423101425171 7.302500307559967e-05 5.851592868566513e-05 0.0 0.0 0.0 0.0
0.117 -0.3228553235530853 0.44463449716567993 7.95433297753334e-05 7.044896483421326e-05 0.0 0.0 0.0 0.0
0.118 -0.31452569365501404 0.4495738744735718 4.3536536395549774e-05 4.5998021960258484e-05 0.0 0.0 0.0 0.0
0.119 -0.30750948190689087 0.45149436593055725 0.00018554087728261948 6.819702684879303e-05 0.0 0.0 0.0 0.0
0.12 -0.30052241683006287 0.45439037680625916 0.000168665312230587 -9.736418724060059e-05 0.0 0.0 0.0 0.0
0.121 -0.2924647629261017 0.45934221148490906 0.00012286938726902008 0.0001838216558098793 0.0 0.0 0.0 0.0
0.122 -0.28632402420043945 0.4626457691192627 3.693532198667526e-05 2.368353307247162e-06 0.0 0.0 0.0 0.0
0.123 -0.27923983335494995 0.4653781056404114 -9.468197822570801e-05 1.1339783668518066e-05 0.0 0.0 0.0 0.0
0.124 -0.2725699841976166 0.46767356991767883 1.8229708075523376e-05 0.00012141931802034378 0.0 0.0 0.0 0.0
0.125 -0.26658573746681213 0.46998822689056396 0.00013127177953720093 0.00010348763316869736 0.0 0.0 0.0 0.0
0.126 -0.2612740695476532 0.474136084318161 -0.00010992400348186493 -0.00016352534294128418 0.0 0.0 0.0 0.0
0.127 -0.2547605335712433 0.4768124222755432 7.303338497877121e-05 -5.648471415042877e-06 0.0 0.0 0.0 0.0
0.128 -0.2472498118877411 0.47676554322242737 0.00010272767394781113 -4.3958425521850586e-05 0.0 0.0 0.0 0.0
0.129 -0.24080651998519897 0.4807032644748688 -2.869684249162674e-05 9.29785892367363e-05 0.0 0.0 0.0 0.0
0.13 -0.23427513241767883 0.4792245030403137 0.00011165626347064972 -0.00015186145901679993 0.0 0.0 0.0 0.0
0.131 -0.22636449337005615 0.48140549659729004 4.1554681956768036e-05 2.6543624699115753e-05 0.0 0.0 0.0 0.0
0.132 -0.2205808311700821 0.48132219910621643 1.2246891856193542e-05 -0.00010727532207965851 0.0 0.0 0.0 0.0
0.133 -0.21386483311653137 0.4814353287220001 6.942451000213623e-05 -0.0001726178452372551 0.0 0.0 0.0 0.0
0.134 -0.20791643857955933 0.48225995898246765 0.00010748673230409622 8.029863238334656e-06 0.0 0.0 0.0 0.0
0.135 -0.20181506872177124 0.48511990904808044 -9.470991790294647e-05 6.316602230072021e-05 0.0 0.0 0.0 0.0
0.136 -0.1957651525735855 0.4839588403701782 0.00010502245277166367 -6.760749965906143e-05 0.0 0.0 0.0 0.0
0.137 -0.18921352922916412 0.4867628812789917 4.1590072214603424e-05 -2.8195790946483612e-05 0.0 0.0 0.0 0.0
0.138 -0.18376877903938293 0.48643577098846436 9.663216769695282e-05 -1.3411976397037506e-05 0.0 0.0 0.0 0.0
0.139 -0.17815423011779785 0.488655149936676 -1.2770295143127441e-05 3.3643096685409546e-05 0.0 0.0 0.0 0.0
0.14 -0.17247885465621948 0.4881148040294647 8.431263267993927e-06 -0.00013304408639669418 0.0 0.0 0.0 0.0
0.141 -0.1651146411895752 0.4906526207923889 -1.3231299817562103e-05 -2.335384488105774e-05 0.0 0.0 0.0 0.0
0.142 -0.16079744696617126 0.4897576570510864 0.00010533537715673447 -6.435718387365341e-05 0.0 0.0 0.0 0.0
0.143 -0.1555912047624588 0.492113322019577 8.127931505441666e-05 -9.691901504993439e-05 0.0 0.0 0.0 0.0
0.144 -0.15012288093566895 0.49252134561538696 3.7309713661670685e-05 -0.00010194070637226105 0.0 0.0 0.0 0.0
0.145 -0.14395321905612946 0.49413782358169556 0.00016478262841701508 -0.00010522082448005676 0.0 0.0 0.0 0.0
0.146 -0.1377761960029602 0.4952457547187805 1.8707476556301117e-05 -1.7088837921619415e-05 0.0 0.0 0.0 0.0
0.147 -0.13196653127670288 0.49700823426246643 -1.118239015340805e-05 1.3299286365509033e-06 0.0 0.0 0.0 0.0
0.148 -0.12526953220367432 0.4967428743839264 2.8877519071102142e-05 -1.4769844710826874e-05 0.0 0.0 0.0 0.0
0.149 -0.11988965421915054 0.49943283200263977 -3.2885000109672546e-05 -0.00014579854905605316 0.0 0.0 0.0 0.0
0.15 -0.11264676600694656 0.4982524812221527 -0.00010674912482500076 5.989428609609604e-05 0.0 0.0 0.0 0.0
0.151 -0.10876723378896713 0.4986565113067627 0.00010384991765022278 -5.4137781262397766e-05 0.0 0.0 0.0 0.0
0.152 -0.10168556123971939 0.49901023507118225 0.00010028108954429626 -4.852470010519028e-05 0.0 0.0 0.0 0.0
0.153 -0.09687577188014984 0.49973878264427185 2.0308420062065125e-05 -0.00012085121124982834 0.0 0.0 0.0 0.0
0.154 -0.08996844291687012 0.5003253221511841 0.00012365449219942093 -1.2835487723350525e-05 0.0 0.0 0.0 0.0
0.155 -0.08349204063415527 0.5008256435394287 0.00011072773486375809 -3.245938569307327e-05 0.0 0.0 0.0 0.0
0.156 -0.07650955766439438 0.5014927387237549 -9.426381438970566e-05 -5.564466118812561e-05 0.0 0.0 0.0 0.0
0.157 -0.07170461118221283 0.5010853409767151 -8.624885231256485e-05 9.743496775627136e-05 0.0 0.0 0.0 0.0
0.158 -0.06627915799617767 0.5020108819007874 -2.2351741790771484e-07 0.00017421133816242218 0.0 0.0 0.0 0.0
0.159 -0.06061290577054024 0.5014029741287231 1.4366582036018372e-05 8.368119597434998e-05 0.0 0.0 0.0 0.0
0.16 -0.0545046404004097 0.5028992295265198 -5.4144300520420074e-05 -3.424379974603653e-05 0.0 0.0 0.0 0.0
0.161 -0.04893667623400688 0.501784086227417 5.116872489452362e-05 -1.566670835018158e-05 0.0 0.0 0.0 0.0
0.162 -0.04368172585964203 0.5025981664657593 -2.958066761493683e-05 -9.157694876194e-05 0.0 0.0 0.0 0.0
0.163 -0.036990948021411896 0.5012525916099548 0.00011698156595230103 -7.467251271009445e-05 0.0 0.0 0.0 0.0
0.164 -0.03174586966633797 0.5028930306434631 3.8399361073970795e-05 -6.687454879283905e-05 0.0 0.0 0.0 0.0
0.165 -0.02516169846057892 0.5018673539161682 -4.260800778865814e-05 -4.908908158540726e-05 0.0 0.0 0.0 0.0
0.166 -0.01900497078895569 0.5020223259925842 0.00013364199548959732 -0.00018589850515127182 0.0 0.0 0.0 0.0
0.167 -0.013660570606589317 0.5012259483337402 5.397666245698929e-05 -7.905252277851105e-05 0.0 0.0 0.0 0.0
0.168 -0.007562326267361641 0.502207338809967 -0.00013980362564325333 -4.938524216413498e-05 0.0 0.0 0.0 0.0
0.169 -0.0008307378739118576 0.5004467964172363 -6.203912198543549e-05 -3.068801015615463e-05 0.0 0.0 0.0 0.0
0.17 0.0057244012132287025 0.49971768260002136 -5.5519863963127136e-05 4.5151449739933014e-05 0.0 0.0 0.0 0.0
0.171 0.011089620180428028 0.4981031119823456 -0.00012441445142030716 9.292829781770706e-05 0.0 0.0 0.0 0.0
0.172 0.01735037751495838 0.4992658495903015 2.2963620722293854e-05 5.579926073551178e-05 0.0 0.0 0.0 0.0
0.173 0.02240530215203762 0.49672287702560425 -1.7890706658363342e-05 -5.461275577545166e-05 0.0 0.0 0.0 0.0
0.174 0.028593631461262703 0.497256338596344 -6.98380172252655e-05 -7.307808846235275e-05 0.0 0.0 0.0 0.0
0.175 0.034363072365522385 0.4944629371166229 1.5235505998134613e-05 5.22565096616745e-06 0.0 0.0 0.0 0.0
0.176 0.04124904423952103 0.4934495985507965 0.00011044368147850037 0.00011754315346479416 0.0 0.0 0.0 0.0
0.177 0.04644125699996948 0.49361056089401245 -4.7709792852401733e-05 -5.107559263706207e-05 0.0 0.0 0.0 0.0
0.178 0.05168766900897026 0.4927688241004944 2.4410896003246307e-05 -0.000241866335272789 0.0 0.0 0.0 0.0
0.179 0.057616449892520905 0.49075233936309814 -0.00012172944843769073 5.609728395938873e-05 0.0 0.0 0.0 0.0
0.18 0.06388439238071442 0.4904993772506714 -0.00026253145188093185 -2.9979273676872253e-05 0.0 0.0 0.0 0.0
0.181 0.06855364143848419 0.4890797436237335 -0.00011083763092756271 -7.409602403640747e-05 0.0 0.0 0.0 0.0
0.182 0.07575787603855133 0.48777514696121216 -9.669829159975052e-05 -2.7636997401714325e-05 0.0 0.0 0.0 0.0
0.183 0.08003788441419601 0.48488521575927734 -3.8183294236660004e-05 -2.289470285177231e-05 0.0 0.0 0.0 0.0
0.184 0.0867418572306633 0.48307883739471436 9.529292583465576e-06 0.00017832498997449875 0.0 0.0 0.0 0.0
