!Created with skrf (http://scikit-rf.org).
# GHz S RI R 50.0 
!freq ReS11 ImS11 ReS21 ImS21 ReS12 ImS12 ReS22 ImS22
0.001 0.8138161897659302 -0.08069296926259995 2.4159438908100128e-05 -1.2328848242759705e-05 0.0 0.0 0.0 0.0
0.002 0.773072361946106 -0.12794406712055206 -7.742270827293396e-05 -7.79246911406517e-05 0.0 0.0 0.0 0.0
0.003 0.8039150238037109 -0.20791801810264587 -0.00010684411972761154 -0.00019670650362968445 0.0 0.0 0.0 0.0
0.004 0.8181127905845642 -0.32938820123672485 -0.00017534289509058 -1.4722347259521484e-05 0.0 0.0 0.0 0.0
0.005 0.7906333804130554 -0.4787527620792389 1.453980803489685e-05 -2.0986422896385193e-05 0.0 0.0 0.0 0.0
0.006 0.6710720062255859 -0.6192182302474976 0.00018014386296272278 9.759888052940369e-05 0.0 0.0 0.0 0.0
0.007 0.4915179908275604 -0.7086924314498901 -0.0001372862607240677 9.252317249774933e-05 0.0 0.0 0.0 0.0
0.008 0.32632145285606384 -0.757673978805542 5.1419250667095184e-05 -3.94284725189209e-05 0.0 0.0 0.0 0.0
0.009 0.1679912507534027 -0.781761884689331 8.257478475570679e-05 -8.93324613571167e-05 0.0 0.0 0.0 0.0
0.01 0.008177338168025017 -0.7657325267791748 3.348011523485184e-05 7.477588951587677e-06 0.0 0.0 0.0 0.0
0.011 -0.12281925231218338 -0.7334018349647522 -0.00014992989599704742 6.651785224676132e-05 0.0 0.0 0.0 0.0
0.012 -0.21822106838226318 -0.7050305604934692 3.591366112232208e-05 7.804110646247864e-05 0.0 0.0 0.0 0.0
0.013 -0.29882940649986267 -0.6676163673400879 5.4613687098026276e-05 7.345341145992279e-05 0.0 0.0 0.0 0.0
0.014 -0.3697514533996582 -0.6351111531257629 0.00010684598237276077 1.744180917739868e-05 0.0 0.0 0.0 0.0
0.015 -0.42850881814956665 -0.5888494253158569 -5.745049566030502e-05 4.1280873119831085e-05 0.0 0.0 0.0 0.0
0.016 -0.47398287057876587 -0.5493113398551941 0.00012548919767141342 0.00016803666949272156 0.0 0.0 0.0 0.0
0.017 -0.5037710070610046 -0.5005536675453186 -3.273598849773407e-05 0.00022316165268421173 0.0 0.0 0.0 0.0
0.018 -0.5240828990936279 -0.4639950692653656 0.00019087735563516617 -4.979502409696579e-05 0.0 0.0 0.0 0.0
0.019 -0.5456204414367676 -0.43261998891830444 0.00013787299394607544 6.401445716619492e-05 0.0 0.0 0.0 0.0
0.02 -0.5617713332176208 -0.3970247805118561 -2.0451843738555908e-05 -3.3019110560417175e-05 0.0 0.0 0.0 0.0
0.021 -0.5736494064331055 -0.3636445105075836 1.1051073670387268e-05 -0.00021681655198335648 0.0 0.0 0.0 0.0
0.022 -0.5808029174804688 -0.33139970898628235 -8.053518831729889e-05 5.953013896942139e-06 0.0 0.0 0.0 0.0
0.023 -0.5889104604721069 -0.3033771812915802 -5.256477743387222e-05 0.00022328365594148636 0.0 0.0 0.0 0.0
0.024 -0.6021401286125183 -0.2757893204689026 8.586514741182327e-05 -6.2575563788414e-06 0.0 0.0 0.0 0.0
0.025 -0.6003658175468445 -0.2484436184167862 2.5082379579544067e-05 -1.3958662748336792e-05 0.0 0.0 0.0 0.0
0.026 -0.6006036996841431 -0.22768543660640717 8.957553654909134e-05 8.806027472019196e-05 0.0 0.0 0.0 0.0
0.027 -0.5998772978782654 -0.2078838050365448 0.00019993819296360016 3.032572567462921e-05 0.0 0.0 0.0 0.0
0.028 -0.6000996828079224 -0.18568216264247894 -3.766734153032303e-05 -0.00010659918189048767 0.0 0.0 0.0 0.0
0.029 -0.5961782336235046 -0.1667032688856125 -0.00014726631343364716 -1.1351890861988068e-05 0.0 0.0 0.0 0.0
0.03 -0.5914100408554077 -0.1522224098443985 -2.0755454897880554e-05 -2.5914981961250305e-05 0.0 0.0 0.0 0.0
0.031 -0.5920305848121643 -0.1374959945678711 -1.1325813829898834e-05 5.085114389657974e-05 0.0 0.0 0.0 0.0
0.032 -0.5926675200462341 -0.12068194895982742 -0.00014192797243595123 -0.00020784791558980942 0.0 0.0 0.0 0.0
0.033 -0.5836653113365173 -0.11672288179397583 7.203780114650726e-05 -8.303672075271606e-06 0.0 0.0 0.0 0.0
0.034 -0.582377016544342 -0.10454583168029785 5.030352622270584e-05 1.659523695707321e-05 0.0 0.0 0.0 0.0
0.035 -0.5800380110740662 -0.08840563148260117 -4.3839216232299805e-05 2.748146653175354e-05 0.0 0.0 0.0 0.0
0.036 -0.5757941603660583 -0.0829167366027832 -2.495851367712021e-05 4.12575900554657e-06 0.0 0.0 0.0 0.0
0.037 -0.571431040763855 -0.08393202722072601 -9.709969162940979e-05 6.995070725679398e-05 0.0 0.0 0.0 0.0
0.038 -0.5709296464920044 -0.07956306636333466 0.00010129250586032867 0.00016814004629850388 0.0 0.0 0.0 0.0
0.039 -0.5717612504959106 -0.06531448662281036 0.00014739856123924255 8.888542652130127e-05 0.0 0.0 0.0 0.0
0.04 -0.5735794901847839 -0.040970299392938614 1.3210810720920563e-05 -1.729559153318405e-05 0.0 0.0 0.0 0.0
0.041 -0.5730767250061035 -0.02705829218029976 0.0001322561874985695 5.204789340496063e-05 0.0 0.0 0.0 0.0
0.042 -0.5688316822052002 -0.016112513840198517 -6.021559238433838e-05 -3.0498020350933075e-05 0.0 0.0 0.0 0.0
0.043 -0.5639033913612366 -0.011011600494384766 2.480577677488327e-05 5.574803799390793e-05 0.0 0.0 0.0 0.0
0.044 -0.5611591339111328 -0.007440174929797649 2.2374093532562256e-05 0.00017968937754631042 0.0 0.0 0.0 0.0
0.045 -0.5602740049362183 0.0036161234602332115 4.002731293439865e-05 5.57946041226387e-05 0.0 0.0 0.0 0.0
0.046 -0.5572919845581055 0.013781614601612091 8.9254230260849e-05 9.279605001211166e-05 0.0 0.0 0.0 0.0
0.047 -0.5555164217948914 0.02464875392615795 -3.2423995435237885e-05 0.00014418642967939377 0.0 0.0 0.0 0.0
0.048 -0.5507460832595825 0.029515914618968964 0.0001685451716184616 0.000122719444334507 0.0 0.0 0.0 0.0
0.049 -0.5473408699035645 0.0399722158908844 0.00014017056673765182 9.365007281303406e-05 0.0 0.0 0.0 0.0
0.05 -0.5459585785865784 0.041592296212911606 0.0002340078353881836 0.00010763201862573624 0.0 0.0 0.0 0.0
0.051 -0.5443887114524841 0.042068060487508774 0.0004326486960053444 6.584171205759048e-05 0.0 0.0 0.0 0.0
0.052 -0.5438331961631775 0.0470953993499279 0.0004692366346716881 6.28465786576271e-05 0.0 0.0 0.0 0.0
0.053 -0.5406779050827026 0.051607467234134674 0.000453045591711998 -0.00017640460282564163 0.0 0.0 0.0 0.0
0.054 -0.5372994542121887 0.056033119559288025 0.0002562766894698143 -0.000667547807097435 0.0 0.0 0.0 0.0
0.055 -0.5342845916748047 0.05686993896961212 -0.00025109201669692993 -0.0006999345496296883 0.0 0.0 0.0 0.0
0.056 -0.5345656871795654 0.05601361021399498 -0.0003368537873029709 -0.0001665949821472168 0.0 0.0 0.0 0.0
0.057 -0.5391029715538025 0.05677948147058487 -0.0002640988677740097 -0.0002249656245112419 0.0 0.0 0.0 0.0
0.058 -0.537237286567688 0.058416616171598434 -0.00031085778027772903 -8.126068860292435e-05 0.0 0.0 0.0 0.0
0.059 -0.5362988114356995 0.06004004552960396 -0.00023475103080272675 -9.52528789639473e-05 0.0 0.0 0.0 0.0
0.06 -0.5367964506149292 0.060683321207761765 -7.484015077352524e-05 9.852554649114609e-05 0.0 0.0 0.0 0.0
0.061 -0.535912275314331 0.06518607586622238 -0.0001471312716603279 1.5307217836380005e-05 0.0 0.0 0.0 0.0
0.062 -0.5375075936317444 0.06670970469713211 -0.00018299836665391922 0.0002064751461148262 0.0 0.0 0.0 0.0
0.063 -0.5381651520729065 0.06952071934938431 -4.9717724323272705e-05 -0.00011001154780387878 0.0 0.0 0.0 0.0
0.064 -0.5421592593193054 0.07371337711811066 5.900021642446518e-05 -0.00014416128396987915 0.0 0.0 0.0 0.0
0.065 -0.5410880446434021 0.07948768883943558 -0.00021260417997837067 -0.00011648423969745636 0.0 0.0 0.0 0.0
0.066 -0.5412890911102295 0.08318161219358444 -0.00019210483878850937 -2.9071234166622162e-05 0.0 0.0 0.0 0.0
0.067 -0.5405401587486267 0.08788780868053436 -0.0002346513792872429 6.844662129878998e-05 0.0 0.0 0.0 0.0
0.068 -0.5400664806365967 0.09040224552154541 -0.00010926462709903717 0.00014192983508110046 0.0 0.0 0.0 0.0
0.069 -0.543362021446228 0.09333973377943039 -0.00023726560175418854 0.00044949259608983994 0.0 0.0 0.0 0.0
0.07 -0.544672966003418 0.0971624106168747 0.000151047483086586 9.306427091360092e-05 0.0 0.0 0.0 0.0
0.071 -0.5457243323326111 0.09984996169805527 0.00012976396828889847 0.00012440141290426254 0.0 0.0 0.0 0.0
0.072 -0.5464970469474792 0.10527843981981277 -1.805834472179413e-05 0.00010270439088344574 0.0 0.0 0.0 0.0
0.073 -0.546847403049469 0.10546381771564484 -7.904134690761566e-06 0.00016000587493181229 0.0 0.0 0.0 0.0
0.074 -0.5514487028121948 0.1073070541024208 9.41101461648941e-06 0.00012793391942977905 0.0 0.0 0.0 0.0
0.075 -0.5513284206390381 0.10898058861494064 8.948706090450287e-05 0.0001506805419921875 0.0 0.0 0.0 0.0
0.076 -0.5550968647003174 0.11181675642728806 0.00018191523849964142 0.00023016240447759628 0.0 0.0 0.0 0.0
0.077 -0.5596596002578735 0.11657083034515381 0.00017108861356973648 0.000193694606423378 0.0 0.0 0.0 0.0
0.078 -0.562495768070221 0.12030065804719925 8.357502520084381e-05 2.9723159968852997e-05 0.0 0.0 0.0 0.0
0.079 -0.5668724775314331 0.12465747445821762 0.0003698216751217842 0.00019343290477991104 0.0 0.0 0.0 0.0
0.08 -0.5733163952827454 0.12705716490745544 0.0003251349553465843 0.00010526739060878754 0.0 0.0 0.0 0.0
0.081 -0.580950140953064 0.1302792876958847 0.0002691838890314102 5.000084638595581e-05 0.0 0.0 0.0 0.0
0.082 -0.5866087675094604 0.13199768960475922 0.0003945669159293175 -8.05836170911789e-05 0.0 0.0 0.0 0.0
0.083 -0.5889186859130859 0.13579918444156647 0.00047541968524456024 6.268732249736786e-06 0.0 0.0 0.0 0.0
0.084 -0.5921568870544434 0.13755908608436584 0.0004560854285955429 -0.0002640495076775551 0.0 0.0 0.0 0.0
0.085 -0.5970308184623718 0.1455872803926468 0.00027870945632457733 -0.0004527522251009941 0.0 0.0 0.0 0.0
0.086 -0.6018204092979431 0.15267693996429443 4.5882537961006165e-05 -0.0004398645833134651 0.0 0.0 0.0 0.0
0.087 -0.6046685576438904 0.16075536608695984 -8.441507816314697e-05 -0.00044237542897462845 0.0 0.0 0.0 0.0
0.088 -0.6040340662002563 0.16643215715885162 -0.0001757284626364708 -0.00025315769016742706 0.0 0.0 0.0 0.0
0.089 -0.6047669649124146 0.17427308857440948 -0.00017951428890228271 -0.00041632726788520813 0.0 0.0 0.0 0.0
0.09 -0.6009178161621094 0.18425577878952026 -0.0001994529739022255 -7.510185241699219e-05 0.0 0.0 0.0 0.0
0.091 -0.5989439487457275 0.195077046751976 -9.346753358840942e-05 -0.0002468535676598549 0.0 0.0 0.0 0.0
0.092 -0.5960804224014282 0.20621229708194733 -0.0001831771805882454 -0.0001514619216322899 0.0 0.0 0.0 0.0
0.093 -0.5913665294647217 0.21616314351558685 -7.592886686325073e-05 4.7283247113227844e-06 0.0 0.0 0.0 0.0
0.094 -0.5862345099449158 0.22931230068206787 -7.282942533493042e-06 0.00015489012002944946 0.0 0.0 0.0 0.0
0.095 -0.5798894762992859 0.24189220368862152 7.407180964946747e-05 3.505963832139969e-05 0.0 0.0 0.0 0.0
0.096 -0.5732842683792114 0.25823548436164856 0.00021188519895076752 -0.00018484238535165787 0.0 0.0 0.0 0.0
0.097 -0.562634289264679 0.27161407470703125 0.00015386752784252167 -0.00018497183918952942 0.0 0.0 0.0 0.0
0.098 -0.5555846095085144 0.2821471691131592 9.532086551189423e-05 -0.000755060464143753 0.0 0.0 0.0 0.0
0.099 -0.5496841073036194 0.29073670506477356 -0.0005837008357048035 -0.0003977334126830101 0.0 0.0 0.0 0.0
0.1 -0.5428030490875244 0.31367865204811096 -0.0005392357707023621 -3.390386700630188e-05 0.0 0.0 0.0 0.0
0.101 -0.4816536605358124 0.3475600481033325 -0.0003806641325354576 -3.3979304134845734e-05 0.0 0.0 0.0 0.0
0.102 -0.4746692478656769 0.3514402508735657 -0.00018281582742929459 0.0002407524734735489 0.0 0.0 0.0 0.0
0.103 -0.46903887391090393 0.3584156632423401 -0.00020651519298553467 0.00031155627220869064 0.0 0.0 0.0 0.0
0.104 -0.4639599621295929 0.36269110441207886 -9.543262422084808e-05 0.00018061697483062744 0.0 0.0 0.0 0.0
0.105 -0.45537641644477844 0.37099742889404297 -9.489711374044418e-05 0.00027911365032196045 0.0 0.0 0.0 0.0
0.106 -0.44813549518585205 0.37976956367492676 9.315088391304016e-05 0.0002329666167497635 0.0 0.0 0.0 0.0
0.107 -0.4383994936943054 0.38812845945358276 8.620880544185638e-05 8.8568776845932e-06 0.0 0.0 0.0 0.0
0.108 -0.4269416034221649 0.39856603741645813 -0.00010295957326889038 0.00016465969383716583 0.0 0.0 0.0 0.0
0.109 -0.419890433549881 0.4053179919719696 1.6753561794757843e-05 0.00010014325380325317 0.0 0.0 0.0 0.0
0.11 -0.40895816683769226 0.41382285952568054 3.7717632949352264e-05 0.00022218935191631317 0.0 0.0 0.0 0.0
0.111 -0.3988427221775055 0.42437446117401123 -0.00016380194574594498 0.00015046261250972748 0.0 0.0 0.0 0.0
0.112 -0.39108410477638245 0.4317323565483093 6.506219506263733e-05 0.00023950915783643723 0.0 0.0 0.0 0.0
0.113 -0.38217151165008545 0.4403436779975891 -3.982987254858017e-05 0.00021848641335964203 0.0 0.0 0.0 0.0
0.114 -0.3738929033279419 0.4471665322780609 0.00019268225878477097 0.00010619964450597763 0.0 0.0 0.0 0.0
0.115 -0.36646950244903564 0.45487216114997864 0.0001061800867319107 0.00015451572835445404 0.0 0.0 0.0 0.0
0.116 -0.35580211877822876 0.4613492488861084 0.00022132042795419693 0.0001424727961421013 0.0 0.0 0.0 0.0
0.117 -0.3467714786529541 0.4658921957015991 0.00030364375561475754 -3.086775541305542e-05 0.0 0.0 0.0 0.0
0.118 -0.3377852439880371 0.47192952036857605 0.0002174805849790573 -7.124058902263641e-05 0.0 0.0 0.0 0.0
0.119 -0.32866522669792175 0.47360846400260925 0.0001553557813167572 -0.0001705363392829895 0.0 0.0 0.0 0.0
0.12 -0.3189489543437958 0.4780350923538208 8.944794535636902e-05 6.648432463407516e-05 0.0 0.0 0.0 0.0
0.121 -0.31030336022377014 0.47981926798820496 9.524263441562653e-05 -1.884903758764267e-05 0.0 0.0 0.0 0.0
0.122 -0.3017050325870514 0.48329758644104004 6.9765374064445496e-06 -5.470309406518936e-05 0.0 0.0 0.0 0.0
0.123 -0.29217588901519775 0.4841171205043793 7.259566336870193e-05 2.4866312742233276e-06 0.0 0.0 0.0 0.0
0.124 -0.28507527709007263 0.4876438081264496 9.136274456977844e-07 -9.961612522602081e-05 0.0 0.0 0.0 0.0
0.125 -0.2756029963493347 0.48804283142089844 -2.6085413992404938e-05 -6.402656435966492e-05 0.0 0.0 0.0 0.0
0.126 -0.26539623737335205 0.49076536297798157 2.9357150197029114e-05 1.239776611328125e-05 0.0 0.0 0.0 0.0
0.127 -0.2558510899543762 0.49130380153656006 0.00013717729598283768 -0.0001638578251004219 0.0 0.0 0.0 0.0
0.128 -0.2481817901134491 0.4944012463092804 -0.00010056793689727783 1.5368685126304626e-05 0.0 0.0 0.0 0.0
0.129 -0.2404077649116516 0.4965110719203949 8.602626621723175e-05 6.0315243899822235e-05 0.0 0.0 0.0 0.0
0.13 -0.2345825433731079 0.4978261888027191 0.00012567266821861267 -3.373250365257263e-06 0.0 0.0 0.0 0.0
0.131 -0.22670117020606995 0.49964332580566406 8.054543286561966e-05 -5.487073212862015e-05 0.0 0.0 0.0 0.0
0.132 -0.2195018082857132 0.5022147297859192 0.00016721058636903763 2.2306106984615326e-05 0.0 0.0 0.0 0.0
0.133 -0.21206937730312347 0.5032156705856323 1.184362918138504e-05 -0.00010113231837749481 0.0 0.0 0.0 0.0
0.134 -0.20333153009414673 0.5072245001792908 -0.00014356151223182678 -0.000119074247777462 0.0 0.0 0.0 0.0
0.135 -0.19397559762001038 0.5083025693893433 2.0255334675312042e-05 -4.985649138689041e-05 0.0 0.0 0.0 0.0
0.136 -0.18579614162445068 0.5107198357582092 -8.125882595777512e-05 -5.770847201347351e-05 0.0 0.0 0.0 0.0
0.137 -0.1766277551651001 0.5115681886672974 -3.0484981834888458e-05 2.472568303346634e-05 0.0 0.0 0.0 0.0
0.138 -0.17131729423999786 0.5151633620262146 0.00020646210759878159 1.9816681742668152e-05 0.0 0.0 0.0 0.0
0.139 -0.16276521980762482 0.5183829069137573 -0.0001195734366774559 -7.370207458734512e-05 0.0 0.0 0.0 0.0
0.14 -0.15626594424247742 0.5210853815078735 -0.00020659342408180237 -0.0001678466796875 0.0 0.0 0.0 0.0
0.141 -0.14579257369041443 0.522290825843811 1.184362918138504e-05 8.903443813323975e-06 0.0 0.0 0.0 0.0
0.142 -0.13934117555618286 0.5245880484580994 8.272938430309296e-06 -0.00011433754116296768 0.0 0.0 0.0 0.0
0.143 -0.13061657547950745 0.5264036655426025 -4.257075488567352e-05 -0.00012999307364225388 0.0 0.0 0.0 0.0
0.144 -0.12183010578155518 0.5269149541854858 -3.3192336559295654e-06 -9.358301758766174e-05 0.0 0.0 0.0 0.0
0.145 -0.11280547082424164 0.5251145958900452 -0.00012059696018695831 -7.634423673152924e-05 0.0 0.0 0.0 0.0
0.146 -0.10546944290399551 0.5225984454154968 -0.0001984238624572754 -5.7308003306388855e-05 0.0 0.0 0.0 0.0
0.147 -0.09816141426563263 0.5184963345527649 8.009374141693115e-06 -0.00021501071751117706 0.0 0.0 0.0 0.0
0.148 -0.09231241047382355 0.5150813460350037 -7.268041372299194e-05 -3.255903720855713e-06 0.0 0.0 0.0 0.0
0.149 -0.08580319583415985 0.5083881616592407 -2.5160610675811768e-05 0.00014325324445962906 0.0 0.0 0.0 0.0
0.15 -0.08039999008178711 0.5021761059761047 -0.00010084081441164017 -6.035063415765762e-05 0.0 0.0 0.0 0.0
0.151 -0.07396212220191956 0.494486540555954 -0.000101456418633461 -0.00012214761227369308 0.0 0.0 0.0 0.0
0.152 -0.0691520944237709 0.48845455050468445 5.84721565246582e-05 -8.119270205497742e-05 0.0 0.0 0.0 0.0
0.153 -0.06419464200735092 0.48521435260772705 -2.6484951376914978e-05 -8.855946362018585e-05 0.0 0.0 0.0 0.0
0.154 -0.059291545301675797 0.48073944449424744 -3.604963421821594e-05 -0.00010017026215791702 0.0 0.0 0.0 0.0
0.155 -0.055588528513908386 0.47794729471206665 -0.00014457572251558304 -2.250541001558304e-05 0.0 0.0 0.0 0.0
0.156 -0.05188195779919624 0.4744868576526642 -0.00012268498539924622 2.4624168872833252e-05 0.0 0.0 0.0 0.0
0.157 -0.046901170164346695 0.4698188006877899 -0.00012671109288930893 6.272085011005402e-05 0.0 0.0 0.0 0.0
0.158 -0.04446738585829735 0.46471408009529114 2.75392085313797e-05 0.00014935433864593506 0.0 0.0 0.0 0.0
0.159 -0.041026320308446884 0.46068862080574036 3.658607602119446e-05 0.0001428043469786644 0.0 0.0 0.0 0.0
0.16 -0.037412915378808975 0.45395195484161377 2.7529895305633545e-06 -8.571706712245941e-05 0.0 0.0 0.0 0.0
0.161 -0.034638963639736176 0.45216068625450134 9.205937385559082e-05 4.480034112930298e-05 0.0 0.0 0.0 0.0
0.162 -0.03407078608870506 0.4482352137565613 0.00013685598969459534 -5.771126598119736e-05 0.0 0.0 0.0 0.0
0.163 -0.03319517895579338 0.4486723840236664 9.58545133471489e-05 -1.689232885837555e-05 0.0 0.0 0.0 0.0
0.164 -0.034812040627002716 0.44842529296875 6.908085197210312e-05 4.6018511056900024e-05 0.0 0.0 0.0 0.0
0.165 -0.03495728597044945 0.4480476975440979 8.818693459033966e-06 -0.00012550689280033112 0.0 0.0 0.0 0.0
0.166 -0.03526749834418297 0.44879648089408875 -8.59750434756279e-05 4.806090146303177e-05 0.0 0.0 0.0 0.0
0.167 -0.03365372121334076 0.4483954608440399 -8.27014446258545e-06 -0.00010750722140073776 0.0 0.0 0.0 0.0
0.168 -0.032689403742551804 0.4485127627849579 5.9040263295173645e-05 -1.6357749700546265e-05 0.0 0.0 0.0 0.0
0.169 -0.03267823904752731 0.4505458474159241 4.025455564260483e-05 -4.413072019815445e-05 0.0 0.0 0.0 0.0
0.17 -0.03195377439260483 0.4501219093799591 -0.00010418612509965897 -8.729472756385803e-05 0.0 0.0 0.0 0.0
0.171 -0.0296675655990839 0.4519018530845642 0.0001485934481024742 -4.7315843403339386e-05 0.0 0.0 0.0 0.0
0.172 -0.029353540390729904 0.45250314474105835 -1.976173371076584e-05 1.878943294286728e-05 0.0 0.0 0.0 0.0
0.173 -0.027691680938005447 0.4535345137119293 -0.00012777093797922134 -3.96212562918663e-05 0.0 0.0 0.0 0.0
0.174 -0.027819324284791946 0.45476847887039185 -4.508811980485916e-05 1.276656985282898e-05 0.0 0.0 0.0 0.0
0.175 -0.026192042976617813 0.4579732120037079 -4.768185317516327e-05 9.804870933294296e-05 0.0 0.0 0.0 0.0
0.176 -0.026018137112259865 0.45772960782051086 2.2511929273605347e-05 2.4207867681980133e-05 0.0 0.0 0.0 0.0
0.177 -0.024489769712090492 0.4622218608856201 0.00018724240362644196 -7.03074038028717e-05 0.0 0.0 0.0 0.0
0.178 -0.02388867177069187 0.4643491506576538 1.8144957721233368e-05 -0.00010487716645002365 0.0 0.0 0.0 0.0
0.179 -0.0204010009765625 0.4678952991962433 8.53072851896286e-05 -3.282446414232254e-05 0.0 0.0 0.0 0.0
0.18 -0.017985805869102478 0.47014427185058594 0.00015895534306764603 -8.94833356142044e-05 0.0 0.0 0.0 0.0
0.181 -0.014570832252502441 0.4738062918186188 0.00012480560690164566 -5.459040403366089e-05 0.0 0.0 0.0 0.0
0.182 -0.01064380444586277 0.47746312618255615 7.163360714912415e-05 -0.00010160543024539948 0.0 0.0 0.0 0.0
0.183 -0.0066216085106134415 0.47905391454696655 0.00020517688244581223 -7.329229265451431e-05 0.0 0.0 0.0 0.0
0.184 -0.0003901701420545578 0.4814589023590088 -2.245791256427765e-05 -8.514150977134705e-05 0.0 0.0 0.0 0.0
