!Created with skrf (http://scikit-rf.org).
# GHz S RI R 50.0 
!freq ReS11 ImS11 ReS21 ImS21 ReS12 ImS12 ReS22 ImS22
0.001 0.8055404424667358 -0.0771619975566864 -0.16568583250045776 0.11183398962020874 0.0 0.0 0.0 0.0
0.002 0.7779099941253662 -0.1272052675485611 -0.35890915989875793 0.475709468126297 0.0 0.0 0.0 0.0
0.003 0.8021126985549927 -0.20789943635463715 -0.2654869556427002 1.1593431234359741 0.0 0.0 0.0 0.0
0.004 0.8153876066207886 -0.32236331701278687 0.16788840293884277 1.6567966938018799 0.0 0.0 0.0 0.0
0.005 0.787091851234436 -0.46255385875701904 0.7417593598365784 1.461197853088379 0.0 0.0 0.0 0.0
0.006 0.7090646624565125 -0.6145400404930115 1.2066620588302612 1.139049768447876 0.0 0.0 0.0 0.0
0.007 0.5547094345092773 -0.7367504835128784 1.4428024291992188 0.7683361768722534 0.0 0.0 0.0 0.0
0.008 0.3216243386268616 -0.7892633080482483 1.5307546854019165 0.5604597926139832 0.0 0.0 0.0 0.0
0.009 0.08141279220581055 -0.7435649633407593 1.4998195171356201 0.6279122233390808 0.0 0.0 0.0 0.0
0.01 -0.05304710939526558 -0.6960954070091248 1.5222265720367432 0.553223729133606 0.0 0.0 0.0 0.0
0.011 -0.1380966156721115 -0.6517937779426575 1.5937364101409912 0.3789728283882141 0.0 0.0 0.0 0.0
0.012 -0.20572930574417114 -0.6143808364868164 1.6036549806594849 0.010326046496629715 0.0 0.0 0.0 0.0
0.013 -0.25986555218696594 -0.5814238786697388 1.5778249502182007 -0.3767581284046173 0.0 0.0 0.0 0.0
0.014 -0.29730919003486633 -0.5466359853744507 1.4274474382400513 -0.7559773921966553 0.0 0.0 0.0 0.0
0.015 -0.32737645506858826 -0.523056149482727 1.2103424072265625 -1.0768758058547974 0.0 0.0 0.0 0.0
0.016 -0.36931222677230835 -0.49678176641464233 0.9282321929931641 -1.3495008945465088 0.0 0.0 0.0 0.0
0.017 -0.3828563690185547 -0.4736827313899994 0.5813539624214172 -1.4910404682159424 0.0 0.0 0.0 0.0
0.018 -0.41391271352767944 -0.464181125164032 0.27472469210624695 -1.5893843173980713 0.0 0.0 0.0 0.0
0.019 -0.43722403049468994 -0.4468088150024414 0.0666554644703865 -1.6587333679199219 0.0 0.0 0.0 0.0
0.02 -0.45801472663879395 -0.42779961228370667 -0.24030707776546478 -1.6218628883361816 0.0 0.0 0.0 0.0
0.021 -0.47857043147087097 -0.41010451316833496 -0.49608826637268066 -1.5468416213989258 0.0 0.0 0.0 0.0
0.022 -0.49376240372657776 -0.3929784595966339 -0.6649991869926453 -1.5257035493850708 0.0 0.0 0.0 0.0
0.023 -0.5121951103210449 -0.37636125087738037 -0.9173166155815125 -1.3444570302963257 0.0 0.0 0.0 0.0
0.024 -0.5249066948890686 -0.34214046597480774 -1.1014719009399414 -1.1761492490768433 0.0 0.0 0.0 0.0
0.025 -0.5328977704048157 -0.3348093032836914 -1.2279549837112427 -1.1020903587341309 0.0 0.0 0.0 0.0
0.026 -0.550943911075592 -0.32073715329170227 -1.3879352807998657 -0.9143916368484497 0.0 0.0 0.0 0.0
0.027 -0.5637003779411316 -0.3011913597583771 -1.5104559659957886 -0.7097941040992737 0.0 0.0 0.0 0.0
0.028 -0.5708605647087097 -0.28022629022598267 -1.5696721076965332 -0.488206148147583 0.0 0.0 0.0 0.0
0.029 -0.5739916563034058 -0.2632582187652588 -1.6364582777023315 -0.3105282485485077 0.0 0.0 0.0 0.0
0.03 -0.5807456970214844 -0.2492135912179947 -1.6808874607086182 -0.12095451354980469 0.0 0.0 0.0 0.0
0.031 -0.5840418338775635 -0.23197795450687408 -1.6879167556762695 0.07900798320770264 0.0 0.0 0.0 0.0
0.032 -0.5798657536506653 -0.20834912359714508 -1.656511664390564 0.2965379059314728 0.0 0.0 0.0 0.0
0.033 -0.582610547542572 -0.1922721564769745 -1.5224089622497559 0.5668141841888428 0.0 0.0 0.0 0.0
0.034 -0.5954866409301758 -0.18730677664279938 -1.5569037199020386 0.7161733508110046 0.0 0.0 0.0 0.0
0.035 -0.5929595828056335 -0.17204423248767853 -1.3664000034332275 0.9449037313461304 0.0 0.0 0.0 0.0
0.036 -0.5931215286254883 -0.16188398003578186 -1.2385226488113403 1.1047877073287964 0.0 0.0 0.0 0.0
0.037 -0.5925582647323608 -0.14991381764411926 -1.123428225517273 1.242782473564148 0.0 0.0 0.0 0.0
0.038 -0.5949311852455139 -0.1386815905570984 -1.0325582027435303 1.3767905235290527 0.0 0.0 0.0 0.0
0.039 -0.5971264243125916 -0.12750500440597534 -0.7802754640579224 1.4923707246780396 0.0 0.0 0.0 0.0
0.04 -0.591987133026123 -0.1156102642416954 -0.6639557480812073 1.5914393663406372 0.0 0.0 0.0 0.0
0.041 -0.5950338244438171 -0.1034620851278305 -0.36771446466445923 1.6361738443374634 0.0 0.0 0.0 0.0
0.042 -0.5913830995559692 -0.09437127411365509 -0.15505743026733398 1.6600840091705322 0.0 0.0 0.0 0.0
0.043 -0.5924606919288635 -0.08619534224271774 -0.03472917526960373 1.7269526720046997 0.0 0.0 0.0 0.0
0.044 -0.593981146812439 -0.07805920392274857 0.25345343351364136 1.6699661016464233 0.0 0.0 0.0 0.0
0.045 -0.5906618237495422 -0.06616976857185364 0.4446430504322052 1.6332359313964844 0.0 0.0 0.0 0.0
0.046 -0.5906858444213867 -0.05660136789083481 0.6222115755081177 1.5976619720458984 0.0 0.0 0.0 0.0
0.047 -0.5879189968109131 -0.047972727566957474 0.8275260329246521 1.4717061519622803 0.0 0.0 0.0 0.0
0.048 -0.5828294157981873 -0.03839333355426788 0.9624162316322327 1.4303345680236816 0.0 0.0 0.0 0.0
0.049 -0.583404004573822 -0.02256617322564125 1.1486637592315674 1.2876418828964233 0.0 0.0 0.0 0.0
0.05 -0.5847861170768738 -0.02170443721115589 1.3126451969146729 1.076365351676941 0.0 0.0 0.0 0.0
0.051 -0.5857422947883606 -0.010568957775831223 1.4290380477905273 0.9168111085891724 0.0 0.0 0.0 0.0
0.052 -0.5824709534645081 -0.0021595219150185585 1.5368815660476685 0.8149070739746094 0.0 0.0 0.0 0.0
0.053 -0.5801008939743042 0.004685976542532444 1.6337101459503174 0.6217103600502014 0.0 0.0 0.0 0.0
0.054 -0.5799741148948669 0.01315222680568695 1.6634771823883057 0.3508177101612091 0.0 0.0 0.0 0.0
0.055 -0.5774248838424683 0.022226136177778244 1.725681185722351 0.21233074367046356 0.0 0.0 0.0 0.0
0.056 -0.5762635469436646 0.031559064984321594 1.7541873455047607 0.014344511553645134 0.0 0.0 0.0 0.0
0.057 -0.5724395513534546 0.03955308347940445 1.6981711387634277 -0.252759724855423 0.0 0.0 0.0 0.0
0.058 -0.5703749060630798 0.04522838443517685 1.6670275926589966 -0.4381093382835388 0.0 0.0 0.0 0.0
0.059 -0.5720381140708923 0.05144982039928436 1.635378360748291 -0.61672043800354 0.0 0.0 0.0 0.0
0.06 -0.5694577693939209 0.06040996313095093 1.5545161962509155 -0.8078281283378601 0.0 0.0 0.0 0.0
0.061 -0.5680261850357056 0.06696397811174393 1.381208062171936 -1.0078829526901245 0.0 0.0 0.0 0.0
0.062 -0.5671635866165161 0.07116887718439102 1.2785550355911255 -1.1498795747756958 0.0 0.0 0.0 0.0
0.063 -0.5642033219337463 0.0810898095369339 1.2139325141906738 -1.284226417541504 0.0 0.0 0.0 0.0
0.064 -0.5623583197593689 0.08530140668153763 0.9674508571624756 -1.428316354751587 0.0 0.0 0.0 0.0
0.065 -0.5601317882537842 0.1011575385928154 0.7693338990211487 -1.546666145324707 0.0 0.0 0.0 0.0
0.066 -0.559959352016449 0.09977339208126068 0.602160632610321 -1.611786127090454 0.0 0.0 0.0 0.0
0.067 -0.5566722750663757 0.10711488872766495 0.47160711884498596 -1.697424292564392 0.0 0.0 0.0 0.0
0.068 -0.5561968684196472 0.1109933853149414 0.1939227133989334 -1.7146782875061035 0.0 0.0 0.0 0.0
0.069 -0.5557855367660522 0.11623776704072952 0.07792487740516663 -1.778941035270691 0.0 0.0 0.0 0.0
0.07 -0.5548223257064819 0.12405102699995041 -0.2276342362165451 -1.7154438495635986 0.0 0.0 0.0 0.0
0.071 -0.5555774569511414 0.13059408962726593 -0.35363471508026123 -1.7664806842803955 0.0 0.0 0.0 0.0
0.072 -0.5502151250839233 0.13907422125339508 -0.6497476100921631 -1.6051441431045532 0.0 0.0 0.0 0.0
0.073 -0.5488929152488708 0.1455872654914856 -0.8516334295272827 -1.5147446393966675 0.0 0.0 0.0 0.0
0.074 -0.5467736124992371 0.15500354766845703 -1.0106101036071777 -1.4717342853546143 0.0 0.0 0.0 0.0
0.075 -0.5410126447677612 0.15901191532611847 -1.1901072263717651 -1.2907499074935913 0.0 0.0 0.0 0.0
0.076 -0.5408106446266174 0.16534464061260223 -1.3521109819412231 -1.1552391052246094 0.0 0.0 0.0 0.0
0.077 -0.5381832122802734 0.17409025132656097 -1.50318443775177 -0.9637463688850403 0.0 0.0 0.0 0.0
0.078 -0.533505380153656 0.18463143706321716 -1.6078423261642456 -0.6718068718910217 0.0 0.0 0.0 0.0
0.079 -0.529026210308075 0.19302208721637726 -1.706969141960144 -0.5053505301475525 0.0 0.0 0.0 0.0
0.08 -0.5241262912750244 0.20475389063358307 -1.7495158910751343 -0.21272864937782288 0.0 0.0 0.0 0.0
0.081 -0.5181485414505005 0.21431846916675568 -1.7433817386627197 0.03135686367750168 0.0 0.0 0.0 0.0
0.082 -0.5127066373825073 0.22183451056480408 -1.806043267250061 0.1734618842601776 0.0 0.0 0.0 0.0
0.083 -0.5066317319869995 0.22955581545829773 -1.693671703338623 0.4852750599384308 0.0 0.0 0.0 0.0
0.084 -0.5019780397415161 0.23722805082798004 -1.6149266958236694 0.7166658639907837 0.0 0.0 0.0 0.0
0.085 -0.49566105008125305 0.24657748639583588 -1.5590413808822632 0.8933117389678955 0.0 0.0 0.0 0.0
0.086 -0.4928383231163025 0.2525932192802429 -1.4648991823196411 1.0702840089797974 0.0 0.0 0.0 0.0
0.087 -0.48872441053390503 0.25909972190856934 -1.2475647926330566 1.2707898616790771 0.0 0.0 0.0 0.0
0.088 -0.486492395401001 0.26309993863105774 -1.071173906326294 1.4156243801116943 0.0 0.0 0.0 0.0
0.089 -0.48671701550483704 0.2701709270477295 -0.9086135029792786 1.5499600172042847 0.0 0.0 0.0 0.0
0.09 -0.48218807578086853 0.2728130519390106 -0.6865328550338745 1.6321830749511719 0.0 0.0 0.0 0.0
0.091 -0.4814603924751282 0.279015451669693 -0.5664797425270081 1.736265778541565 0.0 0.0 0.0 0.0
0.092 -0.47731712460517883 0.2836548388004303 -0.2554359436035156 1.7606194019317627 0.0 0.0 0.0 0.0
0.093 -0.4772754907608032 0.2865656912326813 -0.08949600160121918 1.802135705947876 0.0 0.0 0.0 0.0
0.094 -0.4758289158344269 0.29111847281455994 0.0987166315317154 1.8274153470993042 0.0 0.0 0.0 0.0
0.095 -0.47359684109687805 0.2976369857788086 0.39835894107818604 1.7300753593444824 0.0 0.0 0.0 0.0
0.096 -0.46912968158721924 0.303146630525589 0.5998393297195435 1.6894456148147583 0.0 0.0 0.0 0.0
0.097 -0.46567127108573914 0.3104728162288666 0.800427258014679 1.6138064861297607 0.0 0.0 0.0 0.0
0.098 -0.46383246779441833 0.3156636655330658 0.9819920063018799 1.542597770690918 0.0 0.0 0.0 0.0
0.099 -0.46099746227264404 0.3210163712501526 1.2065197229385376 1.3271008729934692 0.0 0.0 0.0 0.0
0.1 -0.4552479684352875 0.34303465485572815 1.4156001806259155 1.1284301280975342 0.0 0.0 0.0 0.0
0.101 -0.4199770987033844 0.3617238402366638 1.3060120344161987 0.8698892593383789 0.0 0.0 0.0 0.0
0.102 -0.412765234708786 0.3675670027732849 1.3866773843765259 0.6268980503082275 0.0 0.0 0.0 0.0
0.103 -0.4092063307762146 0.37405461072921753 1.4788631200790405 0.4744076132774353 0.0 0.0 0.0 0.0
0.104 -0.4017769396305084 0.37821581959724426 1.527032732963562 0.24313077330589294 0.0 0.0 0.0 0.0
0.105 -0.39390894770622253 0.3862781822681427 1.5543493032455444 0.048284437507390976 0.0 0.0 0.0 0.0
0.106 -0.38945624232292175 0.3908318281173706 1.549196481704712 -0.16658762097358704 0.0 0.0 0.0 0.0
0.107 -0.38052237033843994 0.3981918394565582 1.4906232357025146 -0.40520355105400085 0.0 0.0 0.0 0.0
0.108 -0.3701394498348236 0.40323659777641296 1.4589972496032715 -0.5569365620613098 0.0 0.0 0.0 0.0
0.109 -0.3620382845401764 0.4082385301589966 1.370377540588379 -0.7631388902664185 0.0 0.0 0.0 0.0
0.11 -0.3508550226688385 0.41288864612579346 1.1938377618789673 -0.9565215706825256 0.0 0.0 0.0 0.0
0.111 -0.3431418836116791 0.41897663474082947 1.1282018423080444 -1.1014541387557983 0.0 0.0 0.0 0.0
0.112 -0.33634674549102783 0.4207029640674591 0.9521790742874146 -1.2446891069412231 0.0 0.0 0.0 0.0
0.113 -0.3294925093650818 0.42634081840515137 0.7917152047157288 -1.3585880994796753 0.0 0.0 0.0 0.0
0.114 -0.32215943932533264 0.4291651248931885 0.5687330365180969 -1.4398056268692017 0.0 0.0 0.0 0.0
0.115 -0.3189736306667328 0.4329255223274231 0.3688545227050781 -1.504124402999878 0.0 0.0 0.0 0.0
0.116 -0.31449681520462036 0.4362149238586426 0.1972339004278183 -1.5560551881790161 0.0 0.0 0.0 0.0
0.117 -0.30993279814720154 0.4403143525123596 0.010025711730122566 -1.5770745277404785 0.0 0.0 0.0 0.0
0.118 -0.3053849935531616 0.4440940022468567 -0.20048381388187408 -1.5624094009399414 0.0 0.0 0.0 0.0
0.119 -0.3001998960971832 0.44833436608314514 -0.4283972680568695 -1.488512396812439 0.0 0.0 0.0 0.0
0.12 -0.29431140422821045 0.4520999491214752 -0.6066403985023499 -1.4386632442474365 0.0 0.0 0.0 0.0
0.121 -0.2899094223976135 0.4554239809513092 -0.7893210053443909 -1.341554045677185 0.0 0.0 0.0 0.0
0.122 -0.28435543179512024 0.459345281124115 -0.9157512784004211 -1.317662000656128 0.0 0.0 0.0 0.0
0.123 -0.27882373332977295 0.4640260934829712 -1.0755016803741455 -1.1931579113006592 0.0 0.0 0.0 0.0
0.124 -0.2717638611793518 0.4659828245639801 -1.2291574478149414 -0.9723760485649109 0.0 0.0 0.0 0.0
0.125 -0.26670563220977783 0.47122400999069214 -1.341782808303833 -0.7817482352256775 0.0 0.0 0.0 0.0
0.126 -0.25981202721595764 0.4732001721858978 -1.431416630744934 -0.6093893647193909 0.0 0.0 0.0 0.0
0.127 -0.2544686794281006 0.4763125777244568 -1.5103787183761597 -0.4860803186893463 0.0 0.0 0.0 0.0
0.128 -0.24670296907424927 0.47922271490097046 -1.5457359552383423 -0.2588491141796112 0.0 0.0 0.0 0.0
0.129 -0.24041533470153809 0.4804510176181793 -1.5721896886825562 -0.07692034542560577 0.0 0.0 0.0 0.0
0.13 -0.23197504878044128 0.479865163564682 -1.5643470287322998 0.11913127452135086 0.0 0.0 0.0 0.0
0.131 -0.22428962588310242 0.47987693548202515 -1.530991554260254 0.31442686915397644 0.0 0.0 0.0 0.0
0.132 -0.2170741707086563 0.4803186058998108 -1.4677869081497192 0.5016099810600281 0.0 0.0 0.0 0.0
0.133 -0.21077761054039001 0.47920849919319153 -1.4266241788864136 0.6581875681877136 0.0 0.0 0.0 0.0
0.134 -0.2047446072101593 0.4798802435398102 -1.3275386095046997 0.8279521465301514 0.0 0.0 0.0 0.0
0.135 -0.19916057586669922 0.4794369041919708 -1.2078189849853516 0.9869676232337952 0.0 0.0 0.0 0.0
0.136 -0.19251541793346405 0.48198187351226807 -1.0606164932250977 1.1287572383880615 0.0 0.0 0.0 0.0
0.137 -0.1871754229068756 0.48115161061286926 -0.9267528057098389 1.249944806098938 0.0 0.0 0.0 0.0
0.138 -0.18317954242229462 0.48316770792007446 -0.7713288068771362 1.3594344854354858 0.0 0.0 0.0 0.0
0.139 -0.17651225626468658 0.4837929606437683 -0.6335070133209229 1.438948392868042 0.0 0.0 0.0 0.0
0.14 -0.1719527244567871 0.4850269556045532 -0.45921382308006287 1.5246177911758423 0.0 0.0 0.0 0.0
0.141 -0.16659578680992126 0.486808717250824 -0.22586378455162048 1.5401993989944458 0.0 0.0 0.0 0.0
0.142 -0.16078594326972961 0.48771342635154724 -0.06744351983070374 1.586780309677124 0.0 0.0 0.0 0.0
0.143 -0.1559217870235443 0.4884391725063324 0.13340972363948822 1.5770173072814941 0.0 0.0 0.0 0.0
0.144 -0.15278875827789307 0.49168694019317627 0.2815193235874176 1.58855402469635 0.0 0.0 0.0 0.0
0.145 -0.14584363996982574 0.4916137158870697 0.5288519859313965 1.4767202138900757 0.0 0.0 0.0 0.0
0.146 -0.1396835744380951 0.49400508403778076 0.7180159091949463 1.403693675994873 0.0 0.0 0.0 0.0
0.147 -0.1321714222431183 0.496284544467926 0.8591983318328857 1.3409072160720825 0.0 0.0 0.0 0.0
0.148 -0.12700894474983215 0.49696993827819824 1.0418953895568848 1.171473741531372 0.0 0.0 0.0 0.0
0.149 -0.12032870203256607 0.5003560185432434 1.1555925607681274 1.1365312337875366 0.0 0.0 0.0 0.0
0.15 -0.11324568837881088 0.5014646053314209 1.2974728345870972 0.9232670664787292 0.0 0.0 0.0 0.0
0.151 -0.10596070438623428 0.502845048904419 1.3991001844406128 0.7844460010528564 0.0 0.0 0.0 0.0
0.152 -0.09884130954742432 0.5036253929138184 1.4908474683761597 0.6460102200508118 0.0 0.0 0.0 0.0
0.153 -0.09284189343452454 0.5035738348960876 1.5518461465835571 0.407906711101532 0.0 0.0 0.0 0.0
0.154 -0.08659879863262177 0.5037930607795715 1.6085705757141113 0.2579967677593231 0.0 0.0 0.0 0.0
0.155 -0.07856437563896179 0.5028822422027588 1.5778887271881104 -0.015060681849718094 0.0 0.0 0.0 0.0
0.156 -0.0724346935749054 0.5034950971603394 1.574292540550232 -0.20991499722003937 0.0 0.0 0.0 0.0
0.157 -0.06675060093402863 0.5037373900413513 1.5827070474624634 -0.35289061069488525 0.0 0.0 0.0 0.0
0.158 -0.06059293448925018 0.5021491646766663 1.4632431268692017 -0.5942407250404358 0.0 0.0 0.0 0.0
0.159 -0.05471158027648926 0.5033392906188965 1.4206571578979492 -0.7664594054222107 0.0 0.0 0.0 0.0
0.16 -0.048875484615564346 0.5015832185745239 1.2868033647537231 -0.9415332078933716 0.0 0.0 0.0 0.0
0.161 -0.043296828866004944 0.5023671984672546 1.2363845109939575 -1.0653648376464844 0.0 0.0 0.0 0.0
0.162 -0.038092032074928284 0.500567615032196 0.9956240057945251 -1.2289923429489136 0.0 0.0 0.0 0.0
0.163 -0.03218841180205345 0.5006858110427856 0.8447079062461853 -1.3474758863449097 0.0 0.0 0.0 0.0
0.164 -0.027174141258001328 0.4990259110927582 0.7626460194587708 -1.4456353187561035 0.0 0.0 0.0 0.0
0.165 -0.02082304283976555 0.4990263879299164 0.5526223182678223 -1.5189985036849976 0.0 0.0 0.0 0.0
0.166 -0.016083521768450737 0.4982629120349884 0.2918059229850769 -1.5667283535003662 0.0 0.0 0.0 0.0
0.167 -0.010278974659740925 0.4983949065208435 0.14376048743724823 -1.6147552728652954 0.0 0.0 0.0 0.0
0.168 -0.006117817014455795 0.49833783507347107 -0.048422809690237045 -1.6290689706802368 0.0 0.0 0.0 0.0
0.169 6.242282688617706e-05 0.49884486198425293 -0.3026331067085266 -1.5628149509429932 0.0 0.0 0.0 0.0
0.17 0.0045896731317043304 0.49754929542541504 -0.46109291911125183 -1.5473241806030273 0.0 0.0 0.0 0.0
0.171 0.011001095175743103 0.4979730248451233 -0.6835992336273193 -1.432197093963623 0.0 0.0 0.0 0.0
0.172 0.016477465629577637 0.49591881036758423 -0.8614071607589722 -1.3426871299743652 0.0 0.0 0.0 0.0
0.173 0.022902214899659157 0.49584701657295227 -0.9908066987991333 -1.3140263557434082 0.0 0.0 0.0 0.0
0.174 0.02821427211165428 0.49499890208244324 -1.1657016277313232 -1.0787663459777832 0.0 0.0 0.0 0.0
0.175 0.03512008488178253 0.49650838971138 -1.2885774374008179 -0.9940549731254578 0.0 0.0 0.0 0.0
0.176 0.04309820756316185 0.4948040544986725 -1.4129242897033691 -0.8539929389953613 0.0 0.0 0.0 0.0
0.177 0.04966781660914421 0.49335551261901855 -1.4980257749557495 -0.6526842713356018 0.0 0.0 0.0 0.0
0.178 0.05685961991548538 0.49156564474105835 -1.5561689138412476 -0.4059980809688568 0.0 0.0 0.0 0.0
0.179 0.06102399155497551 0.4901093542575836 -1.60873281955719 -0.21959294378757477 0.0 0.0 0.0 0.0
0.18 0.06870914995670319 0.4888491928577423 -1.6374664306640625 -0.043901871889829636 0.0 0.0 0.0 0.0
0.181 0.07381287217140198 0.48779505491256714 -1.607263445854187 0.1997872292995453 0.0 0.0 0.0 0.0
0.182 0.08200425654649734 0.48509421944618225 -1.5492796897888184 0.40572476387023926 0.0 0.0 0.0 0.0
0.183 0.08647549897432327 0.4840404689311981 -1.4962472915649414 0.5943295955657959 0.0 0.0 0.0 0.0
0.184 0.09398653358221054 0.4816034436225891 -1.4235801696777344 0.7763555645942688 0.0 0.0 0.0 0.0
0.185 0.09884330630302429 0.4786444306373596 -1.2945424318313599 0.9517917037010193 0.0 0.0 0.0 0.0
0.186 0.10462716221809387 0.4768548607826233 -1.1731258630752563 1.1089600324630737 0.0 0.0 0.0 0.0
0.187 0.10860276222229004 0.4743240177631378 -1.0981512069702148 1.2364779710769653 0.0 0.0 0.0 0.0
0.188 0.11484099924564362 0.47322550415992737 -0.9464892745018005 1.3679051399230957 0.0 0.0 0.0 0.0
0.189 0.11936862766742706 0.4699050486087799 -0.6662302613258362 1.462040901184082 0.0 0.0 0.0 0.0
0.19 0.12418071925640106 0.46848464012145996 -0.47368931770324707 1.5412211418151855 0.0 0.0 0.0 0.0
0.191 0.12837731838226318 0.467041939496994 -0.3653898537158966 1.6279070377349854 0.0 0.0 0.0 0.0
0.192 0.13338008522987366 0.46606260538101196 -0.08095432072877884 1.6061798334121704 0.0 0.0 0.0 0.0
0.193 0.13741759955883026 0.4634685218334198 0.06264331191778183 1.6611342430114746 0.0 0.0 0.0 0.0
0.194 0.14425960183143616 0.4623326063156128 0.2680841088294983 1.6402359008789062 0.0 0.0 0.0 0.0
0.195 0.1482425481081009 0.4592027962207794 0.5169030427932739 1.5343453884124756 0.0 0.0 0.0 0.0
0.196 0.1523360013961792 0.4597829282283783 0.7167878746986389 1.4593437910079956 0.0 0.0 0.0 0.0
0.197 0.1594441831111908 0.45750927925109863 0.8584215044975281 1.423130989074707 0.0 0.0 0.0 0.0
