!Created with skrf (http://scikit-rf.org).
# GHz S RI R 50.0 
!freq ReS11 ImS11 ReS21 ImS21 ReS12 ImS12 ReS22 ImS22
0.001 0.8066512942314148 -0.08269509673118591 2.4771317839622498e-05 9.97539609670639e-06 0.0 0.0 0.0 0.0
0.002 0.7744774222373962 -0.12843865156173706 -6.234180182218552e-05 -1.774076372385025e-05 0.0 0.0 0.0 0.0
0.003 0.8068346381187439 -0.2114410400390625 8.417293429374695e-06 -8.221250027418137e-05 0.0 0.0 0.0 0.0
0.004 0.8182728886604309 -0.3274054527282715 6.444938480854034e-05 7.247831672430038e-05 0.0 0.0 0.0 0.0
0.005 0.7878336906433105 -0.4723416268825531 -7.019657641649246e-05 -0.00012067146599292755 0.0 0.0 0.0 0.0
0.006 0.6731424927711487 -0.6108090281486511 -0.00012160837650299072 0.00015395879745483398 0.0 0.0 0.0 0.0
0.007 0.49758636951446533 -0.7083215117454529 -0.0001018056645989418 8.969567716121674e-05 0.0 0.0 0.0 0.0
0.008 0.3454046845436096 -0.7695567607879639 1.6881152987480164e-05 4.3155625462532043e-05 0.0 0.0 0.0 0.0
0.009 0.17273053526878357 -0.7936179637908936 4.0296465158462524e-05 0.00010332372039556503 0.0 0.0 0.0 0.0
0.01 -0.004111850634217262 -0.7795205116271973 1.8849968910217285e-06 -0.00013706926256418228 0.0 0.0 0.0 0.0
0.011 -0.14386630058288574 -0.7401695847511292 -6.684660911560059e-05 -4.0368176996707916e-05 0.0 0.0 0.0 0.0
0.012 -0.24389226734638214 -0.6978471279144287 9.196344763040543e-05 5.920045077800751e-05 0.0 0.0 0.0 0.0
0.013 -0.32207733392715454 -0.6543523073196411 4.48618084192276e-06 1.7228536307811737e-05 0.0 0.0 0.0 0.0
0.014 -0.37849828600883484 -0.6121016144752502 4.903227090835571e-05 6.946735084056854e-05 0.0 0.0 0.0 0.0
0.015 -0.4264380931854248 -0.5683845281600952 1.5115365386009216e-05 -0.00011706724762916565 0.0 0.0 0.0 0.0
0.016 -0.4539146423339844 -0.5267607569694519 1.52587890625e-05 0.0001385798677802086 0.0 0.0 0.0 0.0
0.017 -0.4874543845653534 -0.4902969300746918 -7.622595876455307e-05 -6.054248660802841e-05 0.0 0.0 0.0 0.0
0.018 -0.5096397399902344 -0.45469069480895996 -0.0001391582190990448 0.00010228529572486877 0.0 0.0 0.0 0.0
0.019 -0.5267932415008545 -0.4189256429672241 -8.626002818346024e-05 8.682999759912491e-05 0.0 0.0 0.0 0.0
0.02 -0.544058620929718 -0.389406681060791 7.790327072143555e-05 7.831957191228867e-05 0.0 0.0 0.0 0.0
0.021 -0.561303973197937 -0.3601813316345215 -2.7096830308437347e-05 -6.918422877788544e-05 0.0 0.0 0.0 0.0
0.022 -0.5706901550292969 -0.326786607503891 -8.505955338478088e-05 3.6417506635189056e-05 0.0 0.0 0.0 0.0
0.023 -0.5755850672721863 -0.2974354028701782 -6.497558206319809e-05 -1.482013612985611e-05 0.0 0.0 0.0 0.0
0.024 -0.5781108140945435 -0.27658772468566895 0.00011761672794818878 5.243904888629913e-05 0.0 0.0 0.0 0.0
0.025 -0.5792393684387207 -0.2511288523674011 -0.00014302879571914673 6.92903995513916e-06 0.0 0.0 0.0 0.0
0.026 -0.5800915956497192 -0.23173494637012482 -8.44290480017662e-05 6.569363176822662e-05 0.0 0.0 0.0 0.0
0.027 -0.5791714787483215 -0.21411839127540588 0.0001730639487504959 6.724521517753601e-05 0.0 0.0 0.0 0.0
0.028 -0.5844535827636719 -0.20115947723388672 0.00011274684220552444 8.434522897005081e-05 0.0 0.0 0.0 0.0
0.029 -0.5812998414039612 -0.18526935577392578 -6.754696369171143e-05 -7.208436727523804e-05 0.0 0.0 0.0 0.0
0.03 -0.5831632614135742 -0.16102130711078644 -8.343253284692764e-05 -0.00010620802640914917 0.0 0.0 0.0 0.0
0.031 -0.5798836946487427 -0.15194697678089142 -0.00012115109711885452 4.81531023979187e-05 0.0 0.0 0.0 0.0
0.032 -0.5740347504615784 -0.14318032562732697 -0.00011335406452417374 5.061086267232895e-05 0.0 0.0 0.0 0.0
0.033 -0.5758350491523743 -0.13699981570243835 -3.4771859645843506e-05 -1.099705696105957e-05 0.0 0.0 0.0 0.0
0.034 -0.577720046043396 -0.12189572304487228 4.4257380068302155e-05 5.682092159986496e-05 0.0 0.0 0.0 0.0
0.035 -0.5799203515052795 -0.10299472510814667 -7.937941700220108e-05 -0.00013338681310415268 0.0 0.0 0.0 0.0
0.036 -0.576046884059906 -0.08963529765605927 4.9532391130924225e-05 4.308484494686127e-05 0.0 0.0 0.0 0.0
0.037 -0.5738480091094971 -0.08361844718456268 3.0085444450378418e-05 0.00014645978808403015 0.0 0.0 0.0 0.0
0.038 -0.5747874975204468 -0.07399523258209229 0.00012448150664567947 6.251037120819092e-05 0.0 0.0 0.0 0.0
0.039 -0.5718132257461548 -0.06384988129138947 5.165766924619675e-05 -5.551706999540329e-05 0.0 0.0 0.0 0.0
0.04 -0.5689809322357178 -0.051372092217206955 -0.00021315086632966995 -3.792811185121536e-05 0.0 0.0 0.0 0.0
0.041 -0.5698273777961731 -0.043777693063020706 -0.00011839158833026886 -3.826897591352463e-05 0.0 0.0 0.0 0.0
0.042 -0.5637504458427429 -0.03343510627746582 -4.114210605621338e-05 0.00011186860501766205 0.0 0.0 0.0 0.0
0.043 -0.5634979009628296 -0.031994353979825974 7.015187293291092e-05 0.00016271881759166718 0.0 0.0 0.0 0.0
0.044 -0.5621917247772217 -0.026099298149347305 -2.4368055164813995e-05 -2.332031726837158e-06 0.0 0.0 0.0 0.0
0.045 -0.5624528527259827 -0.015083584003150463 -2.4693086743354797e-05 -9.526126086711884e-05 0.0 0.0 0.0 0.0
0.046 -0.5592240691184998 -0.011515103280544281 -8.719880133867264e-05 -3.201141953468323e-05 0.0 0.0 0.0 0.0
0.047 -0.55544114112854 -0.007130833342671394 -0.0001063179224729538 0.00011829286813735962 0.0 0.0 0.0 0.0
0.048 -0.5566919445991516 -0.010176612064242363 -0.00010066293179988861 -6.11133873462677e-05 0.0 0.0 0.0 0.0
0.049 -0.55132657289505 -0.007403172552585602 -3.9489008486270905e-05 7.784087210893631e-05 0.0 0.0 0.0 0.0
0.05 -0.5525992512702942 -0.007939299568533897 -2.616550773382187e-05 0.00016528740525245667 0.0 0.0 0.0 0.0
0.051 -0.556403398513794 -0.005552833899855614 0.00013123918324708939 -9.815488010644913e-05 0.0 0.0 0.0 0.0
0.052 -0.5555399060249329 -0.0006588175892829895 -3.73348593711853e-05 1.391395926475525e-06 0.0 0.0 0.0 0.0
0.053 -0.5525729656219482 0.0025535644963383675 -4.4644810259342194e-05 6.841495633125305e-05 0.0 0.0 0.0 0.0
0.054 -0.5525573492050171 0.0034567033872008324 -9.524635970592499e-06 2.8898008167743683e-05 0.0 0.0 0.0 0.0
0.055 -0.5548978447914124 0.005181597545742989 5.6597404181957245e-05 -3.407523036003113e-05 0.0 0.0 0.0 0.0
0.056 -0.5578563213348389 0.009782449342310429 1.9972212612628937e-05 -8.113030344247818e-05 0.0 0.0 0.0 0.0
0.057 -0.5575249195098877 0.01566842757165432 5.290471017360687e-05 -5.924142897129059e-05 0.0 0.0 0.0 0.0
0.058 -0.5559618473052979 0.017901895567774773 -0.00012617651373147964 0.00023627467453479767 0.0 0.0 0.0 0.0
0.059 -0.5600877404212952 0.02118474803864956 0.00010657310485839844 3.828108310699463e-05 0.0 0.0 0.0 0.0
0.06 -0.5614827275276184 0.026448899880051613 -8.940231055021286e-05 -4.8898160457611084e-05 0.0 0.0 0.0 0.0
0.061 -0.564342737197876 0.02795906737446785 1.6704201698303223e-05 -6.01448118686676e-05 0.0 0.0 0.0 0.0
0.062 -0.5641526579856873 0.031087858602404594 2.3311004042625427e-06 -5.983654409646988e-05 0.0 0.0 0.0 0.0
0.063 -0.5655701756477356 0.03916214779019356 -6.77919015288353e-05 -0.0001405905932188034 0.0 0.0 0.0 0.0
0.064 -0.5700795650482178 0.04170723631978035 0.00011009350419044495 -0.0001396453008055687 0.0 0.0 0.0 0.0
0.065 -0.5720488429069519 0.047979436814785004 -0.0001498796045780182 4.817452281713486e-05 0.0 0.0 0.0 0.0
0.066 -0.5765759348869324 0.05408773571252823 -6.967317312955856e-05 9.397044777870178e-06 0.0 0.0 0.0 0.0
0.067 -0.5781645178794861 0.06039535626769066 -2.9955990612506866e-05 4.502013325691223e-06 0.0 0.0 0.0 0.0
0.068 -0.5797668695449829 0.06204604357481003 -5.6247226893901825e-05 7.777567952871323e-05 0.0 0.0 0.0 0.0
0.069 -0.5833526253700256 0.06808945536613464 0.0001615462824702263 1.1541880667209625e-05 0.0 0.0 0.0 0.0
0.07 -0.5868722200393677 0.0731477439403534 2.780277281999588e-05 -0.00012057740241289139 0.0 0.0 0.0 0.0
0.071 -0.5919741988182068 0.07711881399154663 -4.8531219363212585e-06 2.560112625360489e-05 0.0 0.0 0.0 0.0
0.072 -0.5957133173942566 0.07958859205245972 -3.662239760160446e-05 6.739143282175064e-05 0.0 0.0 0.0 0.0
0.073 -0.5994752049446106 0.08255090564489365 -0.0002644099295139313 9.500700980424881e-05 0.0 0.0 0.0 0.0
0.074 -0.6045840978622437 0.08588255941867828 -2.4119392037391663e-05 -9.679235517978668e-06 0.0 0.0 0.0 0.0
0.075 -0.6025815606117249 0.08969937264919281 0.0004486609250307083 0.0003594784066081047 0.0 0.0 0.0 0.0
0.076 -0.6069832444190979 0.09701472520828247 0.0002111084759235382 6.710179150104523e-06 0.0 0.0 0.0 0.0
0.077 -0.6081718802452087 0.10500827431678772 9.239558130502701e-05 7.212162017822266e-06 0.0 0.0 0.0 0.0
0.078 -0.6101488471031189 0.11739131808280945 -5.356036126613617e-06 -0.0001465175300836563 0.0 0.0 0.0 0.0
0.079 -0.609918475151062 0.12627403438091278 3.1106173992156982e-06 -3.0050985515117645e-05 0.0 0.0 0.0 0.0
0.08 -0.6072390675544739 0.13714461028575897 -8.693430572748184e-05 9.884126484394073e-06 0.0 0.0 0.0 0.0
0.081 -0.6042162775993347 0.14714135229587555 -2.182554453611374e-05 6.713159382343292e-05 0.0 0.0 0.0 0.0
0.082 -0.60164874792099 0.15909218788146973 -4.731863737106323e-05 3.0454248189926147e-06 0.0 0.0 0.0 0.0
0.083 -0.5977945327758789 0.16589006781578064 -3.598164767026901e-05 0.00012267008423805237 0.0 0.0 0.0 0.0
0.084 -0.5994687676429749 0.17283819615840912 0.0001628343015909195 -0.00013103801757097244 0.0 0.0 0.0 0.0
0.085 -0.5975450277328491 0.1805422157049179 -3.0479393899440765e-05 4.357658326625824e-06 0.0 0.0 0.0 0.0
0.086 -0.5890726447105408 0.19022592902183533 -8.19675624370575e-05 3.243982791900635e-05 0.0 0.0 0.0 0.0
0.087 -0.5801255702972412 0.19979281723499298 6.998889148235321e-06 -0.00011045578867197037 0.0 0.0 0.0 0.0
0.088 -0.5694456100463867 0.21143527328968048 -0.00010159332305192947 -1.3628974556922913e-05 0.0 0.0 0.0 0.0
0.089 -0.5649633407592773 0.21882769465446472 -0.00010950211435556412 1.1885538697242737e-05 0.0 0.0 0.0 0.0
0.09 -0.5573816299438477 0.22735486924648285 -5.556270480155945e-05 0.00011037662625312805 0.0 0.0 0.0 0.0
0.091 -0.553071141242981 0.23439763486385345 -6.341096013784409e-05 3.7590041756629944e-05 0.0 0.0 0.0 0.0
0.092 -0.5464333295822144 0.24072077870368958 -1.5908852219581604e-05 -2.70036980509758e-05 0.0 0.0 0.0 0.0
0.093 -0.5409348011016846 0.24334247410297394 5.21903857588768e-05 0.00015436392277479172 0.0 0.0 0.0 0.0
0.094 -0.5376928448677063 0.25020432472229004 0.00011290796101093292 -7.026828825473785e-06 0.0 0.0 0.0 0.0
0.095 -0.5330215692520142 0.25634244084358215 5.682278424501419e-05 -0.0001241276040673256 0.0 0.0 0.0 0.0
0.096 -0.5301680564880371 0.2660173177719116 3.680028021335602e-05 -8.295010775327682e-05 0.0 0.0 0.0 0.0
0.097 -0.5212288498878479 0.2712726891040802 -7.314607501029968e-05 4.8483721911907196e-05 0.0 0.0 0.0 0.0
0.098 -0.5154985189437866 0.27880001068115234 0.0001382669433951378 0.00011861603707075119 0.0 0.0 0.0 0.0
0.099 -0.5123378038406372 0.2906418442726135 9.796954691410065e-05 -7.922761142253876e-05 0.0 0.0 0.0 0.0
0.1 -0.5071608424186707 0.3145533800125122 7.707066833972931e-05 -9.342841804027557e-05 0.0 0.0 0.0 0.0
0.101 -0.4579745829105377 0.34597843885421753 -6.083585321903229e-05 -0.00010096840560436249 0.0 0.0 0.0 0.0
0.102 -0.4503437876701355 0.35316580533981323 -7.597077637910843e-05 -0.00010937545448541641 0.0 0.0 0.0 0.0
0.103 -0.44543421268463135 0.3623456060886383 -0.00010754913091659546 2.6518478989601135e-05 0.0 0.0 0.0 0.0
0.104 -0.44043004512786865 0.3684174120426178 6.990041583776474e-05 -8.288770914077759e-05 0.0 0.0 0.0 0.0
0.105 -0.4338330924510956 0.37361815571784973 -1.1352822184562683e-06 6.807688623666763e-05 0.0 0.0 0.0 0.0
0.106 -0.42731139063835144 0.38055118918418884 -9.434204548597336e-05 7.494073361158371e-05 0.0 0.0 0.0 0.0
0.107 -0.4225507378578186 0.38740313053131104 -3.103632479906082e-05 -0.00015190429985523224 0.0 0.0 0.0 0.0
0.108 -0.41241455078125 0.3934771716594696 -2.1649524569511414e-05 9.845290333032608e-05 0.0 0.0 0.0 0.0
0.109 -0.4045897424221039 0.4010484218597412 0.0001377016305923462 -0.00012512970715761185 0.0 0.0 0.0 0.0
0.11 -0.39543798565864563 0.4110065698623657 0.00011175312101840973 -6.547290831804276e-05 0.0 0.0 0.0 0.0
0.111 -0.38456830382347107 0.4184828996658325 0.00013905111700296402 2.0842067897319794e-05 0.0 0.0 0.0 0.0
0.112 -0.3746953010559082 0.42666345834732056 1.8407590687274933e-05 -1.126062124967575e-05 0.0 0.0 0.0 0.0
0.113 -0.3639689087867737 0.4334050118923187 3.163609653711319e-05 -1.6614794731140137e-05 0.0 0.0 0.0 0.0
0.114 -0.35484424233436584 0.44256770610809326 -6.421376019716263e-05 -3.5218894481658936e-05 0.0 0.0 0.0 0.0
0.115 -0.3449528217315674 0.4478147625923157 5.4467469453811646e-05 -9.076297283172607e-05 0.0 0.0 0.0 0.0
0.116 -0.33785948157310486 0.45555031299591064 -0.00014705490320920944 -7.985159754753113e-05 0.0 0.0 0.0 0.0
0.117 -0.3289180099964142 0.46109291911125183 -0.00011931173503398895 -6.922613829374313e-05 0.0 0.0 0.0 0.0
0.118 -0.32248401641845703 0.4676390290260315 3.851205110549927e-05 -0.00010989699512720108 0.0 0.0 0.0 0.0
0.119 -0.31412404775619507 0.4726735055446625 -1.7054378986358643e-05 -6.764009594917297e-05 0.0 0.0 0.0 0.0
0.12 -0.30795204639434814 0.4781762659549713 2.9088929295539856e-05 -0.00016883574426174164 0.0 0.0 0.0 0.0
0.121 -0.29974180459976196 0.48220303654670715 6.330292671918869e-05 -1.2849457561969757e-05 0.0 0.0 0.0 0.0
0.122 -0.29372796416282654 0.4885404407978058 2.798624336719513e-06 -0.00011060573160648346 0.0 0.0 0.0 0.0
0.123 -0.28555089235305786 0.49036088585853577 3.312714397907257e-06 1.7919577658176422e-05 0.0 0.0 0.0 0.0
0.124 -0.2790183424949646 0.4936540126800537 -1.4982186257839203e-05 -0.0001864396035671234 0.0 0.0 0.0 0.0
0.125 -0.2723011076450348 0.4942358136177063 6.583239883184433e-05 2.820882946252823e-05 0.0 0.0 0.0 0.0
0.126 -0.26742565631866455 0.4969831705093384 -9.172596037387848e-06 -8.558947592973709e-05 0.0 0.0 0.0 0.0
0.127 -0.26141008734703064 0.4990236461162567 0.00013428088277578354 -5.411915481090546e-06 0.0 0.0 0.0 0.0
0.128 -0.2543410360813141 0.5043832063674927 -0.00010856799781322479 -0.00020952150225639343 0.0 0.0 0.0 0.0
0.129 -0.24585136771202087 0.5039529800415039 4.276540130376816e-05 -2.7756206691265106e-05 0.0 0.0 0.0 0.0
0.13 -0.23602131009101868 0.5064767599105835 -1.5974044799804688e-05 4.9238093197345734e-05 0.0 0.0 0.0 0.0
0.131 -0.2296113669872284 0.5065670609474182 9.656324982643127e-05 -5.162414163351059e-05 0.0 0.0 0.0 0.0
0.132 -0.22150899469852448 0.5076820850372314 -7.931143045425415e-05 7.537752389907837e-05 0.0 0.0 0.0 0.0
0.133 -0.2131047397851944 0.506839394569397 5.6617893278598785e-05 2.8362497687339783e-05 0.0 0.0 0.0 0.0
0.134 -0.18384863436222076 0.47539862990379333 6.389245390892029e-05 -8.792616426944733e-05 0.0 0.0 0.0 0.0
0.135 -0.16850607097148895 0.4636765718460083 8.684396743774414e-05 -4.6566128730773926e-05 0.0 0.0 0.0 0.0
0.136 -0.15907612442970276 0.45824599266052246 7.237587124109268e-05 -0.0001078043133020401 0.0 0.0 0.0 0.0
0.137 -0.15145593881607056 0.45256319642066956 -3.215670585632324e-05 -4.2601488530635834e-05 0.0 0.0 0.0 0.0
0.138 -0.1469515860080719 0.4479716718196869 -0.00015464238822460175 -8.435454219579697e-05 0.0 0.0 0.0 0.0
0.139 -0.14344707131385803 0.4451977610588074 -3.3688731491565704e-05 -9.741447865962982e-05 0.0 0.0 0.0 0.0
0.14 -0.14243538677692413 0.4438101351261139 -8.914526551961899e-05 1.1142343282699585e-05 0.0 0.0 0.0 0.0
0.141 -0.13857504725456238 0.44134843349456787 2.229679375886917e-05 1.4044344425201416e-06 0.0 0.0 0.0 0.0
0.142 -0.13867749273777008 0.4405277371406555 -5.063693970441818e-05 -0.00019764620810747147 0.0 0.0 0.0 0.0
0.143 -0.13812793791294098 0.440604567527771 -0.00012861192226409912 -8.33459198474884e-05 0.0 0.0 0.0 0.0
0.144 -0.13940678536891937 0.4397648572921753 -0.00012854952365159988 -2.0042061805725098e-05 0.0 0.0 0.0 0.0
0.145 -0.14013664424419403 0.4403040409088135 6.038695573806763e-06 2.444721758365631e-06 0.0 0.0 0.0 0.0
0.146 -0.14100660383701324 0.43938127160072327 -6.973650306463242e-05 -0.00018998142331838608 0.0 0.0 0.0 0.0
0.147 -0.14051860570907593 0.4398716688156128 5.523208528757095e-05 -0.00011334102600812912 0.0 0.0 0.0 0.0
0.148 -0.14108389616012573 0.4411830008029938 1.9813887774944305e-05 -2.234242856502533e-05 0.0 0.0 0.0 0.0
0.149 -0.13943475484848022 0.44176945090293884 5.6201592087745667e-05 9.90014523267746e-05 0.0 0.0 0.0 0.0
0.15 -0.13884417712688446 0.4431043863296509 -0.00012633297592401505 -0.000158652663230896 0.0 0.0 0.0 0.0
0.151 -0.1381702423095703 0.44509053230285645 1.2485310435295105e-05 6.65346160531044e-05 0.0 0.0 0.0 0.0
0.152 -0.13731785118579865 0.44502589106559753 -1.7760321497917175e-06 6.978213787078857e-05 0.0 0.0 0.0 0.0
0.153 -0.13595105707645416 0.4476311206817627 1.3864599168300629e-05 6.735697388648987e-05 0.0 0.0 0.0 0.0
0.154 -0.13709554076194763 0.44943395256996155 2.6277266442775726e-05 5.407724529504776e-05 0.0 0.0 0.0 0.0
0.155 -0.13643889129161835 0.4530371129512787 -2.167467027902603e-05 5.552172660827637e-05 0.0 0.0 0.0 0.0
0.156 -0.13609206676483154 0.4543420374393463 -1.787673681974411e-05 -1.2388452887535095e-05 0.0 0.0 0.0 0.0
0.157 -0.13415011763572693 0.4595052897930145 0.00012249033898115158 1.256261020898819e-05 0.0 0.0 0.0 0.0
0.158 -0.1277674287557602 0.46406352519989014 9.126774966716766e-05 -3.72743234038353e-05 0.0 0.0 0.0 0.0
0.159 -0.12343142181634903 0.4707089066505432 -9.063258767127991e-05 -6.814394146203995e-05 0.0 0.0 0.0 0.0
0.16 -0.11572550982236862 0.4740709364414215 0.000148833729326725 3.120210021734238e-05 0.0 0.0 0.0 0.0
0.161 -0.10681478679180145 0.47863519191741943 0.00015148799866437912 -0.00012038368731737137 0.0 0.0 0.0 0.0
0.162 -0.09818563610315323 0.4831083416938782 -0.0002090074121952057 -0.00010880548506975174 0.0 0.0 0.0 0.0
0.163 -0.08981933444738388 0.48494672775268555 3.852136433124542e-05 7.858779281377792e-05 0.0 0.0 0.0 0.0
0.164 -0.08460990339517593 0.4884701669216156 -9.501539170742035e-05 -5.275476723909378e-05 0.0 0.0 0.0 0.0
0.165 -0.08217503875494003 0.4907014071941376 -1.6996636986732483e-05 -9.866338223218918e-05 0.0 0.0 0.0 0.0
0.166 -0.07957074046134949 0.4932505786418915 0.00013505108654499054 -0.00018721073865890503 0.0 0.0 0.0 0.0
0.167 -0.07762337476015091 0.4953741729259491 3.7717632949352264e-05 -8.018407970666885e-05 0.0 0.0 0.0 0.0
0.168 -0.07362107932567596 0.5008912086486816 -0.0001547178253531456 -0.00011219829320907593 0.0 0.0 0.0 0.0
0.169 -0.06800220906734467 0.5040560364723206 4.171673208475113e-05 2.8934329748153687e-05 0.0 0.0 0.0 0.0
0.17 -0.06211349740624428 0.5100547075271606 -8.117314428091049e-05 -0.00011913012713193893 0.0 0.0 0.0 0.0
0.171 -0.053373027592897415 0.5118662118911743 -3.9138831198215485e-05 4.917848855257034e-05 0.0 0.0 0.0 0.0
0.172 -0.04474207013845444 0.5138750076293945 0.00016639474779367447 -0.0001046033576130867 0.0 0.0 0.0 0.0
0.173 -0.03491578251123428 0.5124528408050537 2.518296241760254e-06 3.0390918254852295e-05 0.0 0.0 0.0 0.0
0.174 -0.025582170113921165 0.5138652324676514 -5.904305726289749e-05 -0.00012368801981210709 0.0 0.0 0.0 0.0
0.175 -0.015843043103814125 0.5130627155303955 -1.926068216562271e-05 1.117214560508728e-05 0.0 0.0 0.0 0.0
0.176 -0.007280963473021984 0.5163846611976624 5.1254406571388245e-05 7.282942533493042e-07 0.0 0.0 0.0 0.0
0.177 0.0020621400326490402 0.5171433687210083 1.863855868577957e-05 -6.488990038633347e-05 0.0 0.0 0.0 0.0
0.178 0.010669628158211708 0.5204181671142578 0.00010739825665950775 2.4417415261268616e-05 0.0 0.0 0.0 0.0
0.179 0.018200106918811798 0.5214695334434509 -5.152728408575058e-05 2.7641654014587402e-05 0.0 0.0 0.0 0.0
0.18 0.026742655783891678 0.5225914120674133 6.7641958594322205e-06 -0.00018408987671136856 0.0 0.0 0.0 0.0
0.181 0.035449352115392685 0.523267924785614 -0.00015769992023706436 -4.024244844913483e-06 0.0 0.0 0.0 0.0
0.182 0.043510500341653824 0.5249408483505249 -0.00017906446009874344 8.345581591129303e-06 0.0 0.0 0.0 0.0
0.183 0.0491199716925621 0.5237492918968201 3.7048012018203735e-06 -1.1605210602283478e-05 0.0 0.0 0.0 0.0
0.184 0.05753844231367111 0.5258265733718872 -7.377658039331436e-05 4.675332456827164e-05 0.0 0.0 0.0 0.0
