!Created with skrf (http://scikit-rf.org).
# GHz S RI R 50.0 
!freq ReS11 ImS11 ReS21 ImS21 ReS12 ImS12 ReS22 ImS22
0.001 0.8023179173469543 -0.08029397577047348 -0.00016434211283922195 7.211975753307343e-05 0.0 0.0 0.0 0.0
0.002 0.7730422616004944 -0.12315124273300171 -0.00015220604836940765 -4.517845809459686e-06 0.0 0.0 0.0 0.0
0.003 0.8026366233825684 -0.2064686417579651 -7.06622377038002e-05 -5.479250103235245e-05 0.0 0.0 0.0 0.0
0.004 0.8145811557769775 -0.32148993015289307 2.257898449897766e-05 6.192084401845932e-05 0.0 0.0 0.0 0.0
0.005 0.7949039340019226 -0.457811564207077 -3.1981617212295532e-06 -0.00011370796710252762 0.0 0.0 0.0 0.0
0.006 0.711936354637146 -0.6078837513923645 -7.751118391752243e-05 0.00011854059994220734 0.0 0.0 0.0 0.0
0.007 0.547344446182251 -0.7359354496002197 -6.91460445523262e-05 -1.3367272913455963e-05 0.0 0.0 0.0 0.0
0.008 0.3087233603000641 -0.7667383551597595 0.00017269793897867203 -7.105804979801178e-05 0.0 0.0 0.0 0.0
0.009 0.0779590904712677 -0.7299540042877197 -2.773478627204895e-05 0.0001416131854057312 0.0 0.0 0.0 0.0
0.01 -0.06832273304462433 -0.695849597454071 0.00010562408715486526 0.00017721578478813171 0.0 0.0 0.0 0.0
0.011 -0.14522191882133484 -0.6445484757423401 5.1818788051605225e-05 -0.0002015475183725357 0.0 0.0 0.0 0.0
0.012 -0.18940246105194092 -0.5899109244346619 3.299117088317871e-05 9.936094284057617e-05 0.0 0.0 0.0 0.0
0.013 -0.2300044298171997 -0.5578594207763672 5.1215291023254395e-05 -5.9635378420352936e-05 0.0 0.0 0.0 0.0
0.014 -0.26239675283432007 -0.5325765609741211 2.2576190531253815e-05 0.0001543331891298294 0.0 0.0 0.0 0.0
0.015 -0.2956846356391907 -0.5126807689666748 0.00011335965245962143 -0.00019429530948400497 0.0 0.0 0.0 0.0
0.016 -0.32073238492012024 -0.4913195073604584 0.00014682020992040634 -8.64863395690918e-05 0.0 0.0 0.0 0.0
0.017 -0.34789037704467773 -0.4788469970226288 0.00010122451931238174 -0.00013755448162555695 0.0 0.0 0.0 0.0
0.018 -0.37143614888191223 -0.4667404294013977 -5.743652582168579e-05 -3.787875175476074e-05 0.0 0.0 0.0 0.0
0.019 -0.39405858516693115 -0.4556999206542969 -3.513507544994354e-05 -5.360692739486694e-06 0.0 0.0 0.0 0.0
0.02 -0.4133402109146118 -0.4449496567249298 7.853657007217407e-05 -2.347305417060852e-05 0.0 0.0 0.0 0.0
0.021 -0.43554607033729553 -0.4339963495731354 0.00018540211021900177 -6.254483014345169e-05 0.0 0.0 0.0 0.0
0.022 -0.4516085088253021 -0.4185378849506378 4.005245864391327e-05 -0.00027601979672908783 0.0 0.0 0.0 0.0
0.023 -0.4687684178352356 -0.40655219554901123 2.96812504529953e-05 -0.00020885560661554337 0.0 0.0 0.0 0.0
0.024 -0.4847560524940491 -0.40053775906562805 0.00014427583664655685 1.1516734957695007e-05 0.0 0.0 0.0 0.0
0.025 -0.5047784447669983 -0.38942575454711914 -7.65770673751831e-05 -7.611885666847229e-05 0.0 0.0 0.0 0.0
0.026 -0.5229592323303223 -0.3758275508880615 -5.847867578268051e-05 -5.4826028645038605e-05 0.0 0.0 0.0 0.0
0.027 -0.5376275777816772 -0.36258259415626526 7.507111877202988e-05 -4.025641828775406e-05 0.0 0.0 0.0 0.0
0.028 -0.554320216178894 -0.350616991519928 0.00010358355939388275 -0.00011661369353532791 0.0 0.0 0.0 0.0
0.029 -0.5698394179344177 -0.3331944942474365 -6.115715950727463e-05 -0.00010137632489204407 0.0 0.0 0.0 0.0
0.03 -0.5794475078582764 -0.3126355707645416 -6.613042205572128e-05 -5.269143730401993e-05 0.0 0.0 0.0 0.0
0.031 -0.5903677940368652 -0.2964645326137543 -1.4001503586769104e-05 -6.372015923261642e-05 0.0 0.0 0.0 0.0
0.032 -0.5975642800331116 -0.28128087520599365 0.00010466296225786209 0.00012635160237550735 0.0 0.0 0.0 0.0
0.033 -0.6026045083999634 -0.2593410015106201 -0.00014388561248779297 0.00010160449892282486 0.0 0.0 0.0 0.0
0.034 -0.6103388667106628 -0.23732231557369232 1.5222467482089996e-05 3.2660551369190216e-05 0.0 0.0 0.0 0.0
0.035 -0.6144923567771912 -0.22002246975898743 3.0454248189926147e-06 -2.0711682736873627e-05 0.0 0.0 0.0 0.0
0.036 -0.6223893165588379 -0.20158585906028748 0.0001235390082001686 -0.00017230771481990814 0.0 0.0 0.0 0.0
0.037 -0.625027596950531 -0.18115708231925964 -3.115460276603699e-05 -0.00022210273891687393 0.0 0.0 0.0 0.0
0.038 -0.6202293634414673 -0.1648014336824417 1.8506310880184174e-05 -3.2493844628334045e-06 0.0 0.0 0.0 0.0
0.039 -0.6225064992904663 -0.14968308806419373 2.9188580811023712e-05 -7.546506822109222e-05 0.0 0.0 0.0 0.0
0.04 -0.6253756880760193 -0.1352636069059372 4.1670165956020355e-05 -4.1997991502285004e-05 0.0 0.0 0.0 0.0
0.041 -0.625205397605896 -0.12074855715036392 0.00011918973177671432 -6.403867155313492e-05 0.0 0.0 0.0 0.0
0.042 -0.6251015067100525 -0.10536046326160431 -2.271123230457306e-05 -7.551722228527069e-05 0.0 0.0 0.0 0.0
0.043 -0.623033881187439 -0.08887428790330887 -0.00020622462034225464 -0.00013824552297592163 0.0 0.0 0.0 0.0
0.044 -0.6208660006523132 -0.07705985009670258 -5.396176129579544e-05 -4.001986235380173e-05 0.0 0.0 0.0 0.0
0.045 -0.6190500855445862 -0.06619589775800705 -1.3075768947601318e-05 -3.9013102650642395e-06 0.0 0.0 0.0 0.0
0.046 -0.6190968751907349 -0.05130966007709503 9.492691606283188e-05 -0.00015331897884607315 0.0 0.0 0.0 0.0
0.047 -0.6167964935302734 -0.03721900284290314 0.00011324044317007065 -8.35563987493515e-05 0.0 0.0 0.0 0.0
0.048 -0.6098936796188354 -0.029090221971273422 3.745127469301224e-05 5.178898572921753e-05 0.0 0.0 0.0 0.0
0.049 -0.6100679039955139 -0.018456583842635155 -0.0001002289354801178 -0.00013095978647470474 0.0 0.0 0.0 0.0
0.05 -0.6062197685241699 -0.010253813117742538 -2.5564804673194885e-06 -0.0002702847123146057 0.0 0.0 0.0 0.0
0.051 -0.6034544110298157 -0.003169001080095768 9.685568511486053e-05 0.00010975822806358337 0.0 0.0 0.0 0.0
0.052 -0.6025204062461853 0.007860304787755013 8.432194590568542e-05 2.0507723093032837e-06 0.0 0.0 0.0 0.0
0.053 -0.6023236513137817 0.023688819259405136 -1.3764947652816772e-06 -0.0001752050593495369 0.0 0.0 0.0 0.0
0.054 -0.5984629988670349 0.04145923629403114 -0.00015259906649589539 -0.00019070692360401154 0.0 0.0 0.0 0.0
0.055 -0.5914487838745117 0.056194864213466644 -0.00017373915761709213 -0.00020374450832605362 0.0 0.0 0.0 0.0
0.056 -0.5859055519104004 0.06654184311628342 -0.00011780206114053726 0.00019401684403419495 0.0 0.0 0.0 0.0
0.057 -0.5806636810302734 0.08465385437011719 3.547128289937973e-05 -1.597777009010315e-05 0.0 0.0 0.0 0.0
0.058 -0.5735612511634827 0.12689131498336792 -1.910049468278885e-05 -0.0001643029972910881 0.0 0.0 0.0 0.0
0.059 -0.5693333745002747 0.15041066706180573 -0.00017487909644842148 -4.645343869924545e-05 0.0 0.0 0.0 0.0
0.06 -0.5656918883323669 0.16788016259670258 1.184362918138504e-05 8.908100426197052e-06 0.0 0.0 0.0 0.0
0.061 -0.559730052947998 0.18223504722118378 -0.00018075108528137207 6.01448118686676e-05 0.0 0.0 0.0 0.0
0.062 -0.5536246299743652 0.19745175540447235 4.7292560338974e-06 -6.411783397197723e-05 0.0 0.0 0.0 0.0
0.063 -0.5448921918869019 0.20593449473381042 5.966890603303909e-05 -2.859160304069519e-05 0.0 0.0 0.0 0.0
0.064 -0.5410952568054199 0.21934296190738678 -2.4903565645217896e-05 -6.891787052154541e-07 0.0 0.0 0.0 0.0
0.065 -0.5325876474380493 0.23980997502803802 0.0003060596063733101 -0.0001101866364479065 0.0 0.0 0.0 0.0
0.066 -0.5240582227706909 0.2522880733013153 -5.0066038966178894e-05 -0.000116787850856781 0.0 0.0 0.0 0.0
0.067 -0.5158558487892151 0.26328587532043457 -3.1665898859500885e-05 -0.0001486223191022873 0.0 0.0 0.0 0.0
0.068 -0.5036112666130066 0.2704123556613922 -4.441849887371063e-05 6.377696990966797e-05 0.0 0.0 0.0 0.0
0.069 -0.4967285990715027 0.27480489015579224 -1.451931893825531e-05 -9.422376751899719e-05 0.0 0.0 0.0 0.0
0.07 -0.48807910084724426 0.2758890688419342 -6.877630949020386e-05 -5.02290204167366e-05 0.0 0.0 0.0 0.0
0.071 -0.4819182753562927 0.2778263986110687 9.112618863582611e-05 -9.900890290737152e-05 0.0 0.0 0.0 0.0
0.072 -0.4768957495689392 0.2827705442905426 -1.836288720369339e-05 -5.403347313404083e-05 0.0 0.0 0.0 0.0
0.073 -0.46974268555641174 0.2891252040863037 -9.082071483135223e-05 -0.00023004133254289627 0.0 0.0 0.0 0.0
0.074 -0.4654962718486786 0.29161906242370605 2.086162567138672e-05 -0.00010802410542964935 0.0 0.0 0.0 0.0
0.075 -0.4589545428752899 0.29373395442962646 6.0332007706165314e-05 -4.9141235649585724e-05 0.0 0.0 0.0 0.0
0.076 -0.4552781581878662 0.2939355969429016 -8.218083530664444e-05 0.0001131715252995491 0.0 0.0 0.0 0.0
0.077 -0.45007529854774475 0.29272159934043884 -3.517232835292816e-05 0.00015652086585760117 0.0 0.0 0.0 0.0
0.078 -0.45023438334465027 0.29240334033966064 8.261110633611679e-05 -0.0002631489187479019 0.0 0.0 0.0 0.0
0.079 -0.4450870156288147 0.29488521814346313 2.6806257665157318e-05 8.516386151313782e-05 0.0 0.0 0.0 0.0
0.08 -0.43860960006713867 0.29784882068634033 3.416091203689575e-05 -3.071967512369156e-05 0.0 0.0 0.0 0.0
0.081 -0.43008512258529663 0.30390501022338867 8.141621947288513e-06 -0.0002149399369955063 0.0 0.0 0.0 0.0
0.082 -0.4234384000301361 0.31029215455055237 -6.494857370853424e-05 -0.00012318789958953857 0.0 0.0 0.0 0.0
0.083 -0.4146307110786438 0.311233252286911 -6.421096622943878e-05 5.735829472541809e-05 0.0 0.0 0.0 0.0
0.084 -0.41282835602760315 0.3101372718811035 -6.565917283296585e-05 -4.298705607652664e-05 0.0 0.0 0.0 0.0
0.085 -0.41319483518600464 0.3080497086048126 8.300784975290298e-05 -1.2393109500408173e-05 0.0 0.0 0.0 0.0
0.086 -0.41185057163238525 0.3088580369949341 3.038812428712845e-05 -0.00014054123312234879 0.0 0.0 0.0 0.0
0.087 -0.4088210165500641 0.3071809709072113 -0.00017928797751665115 1.8059276044368744e-05 0.0 0.0 0.0 0.0
0.088 -0.4040662348270416 0.308168888092041 -1.9300729036331177e-05 2.046767622232437e-05 0.0 0.0 0.0 0.0
0.089 -0.40404650568962097 0.3088199496269226 -0.0002269437536597252 -0.00019055791199207306 0.0 0.0 0.0 0.0
0.09 -0.40186944603919983 0.3087739646434784 -9.581539779901505e-05 -0.00012351013720035553 0.0 0.0 0.0 0.0
0.091 -0.40189212560653687 0.30787983536720276 -0.00020393729209899902 6.686802953481674e-05 0.0 0.0 0.0 0.0
0.092 -0.4017176628112793 0.3082824945449829 -4.391651600599289e-05 3.354344516992569e-05 0.0 0.0 0.0 0.0
0.093 -0.3992045223712921 0.3070927858352661 -1.825578510761261e-05 -1.937616616487503e-05 0.0 0.0 0.0 0.0
0.094 -0.39692220091819763 0.3085164725780487 0.00015190616250038147 9.820796549320221e-06 0.0 0.0 0.0 0.0
0.095 -0.3966994285583496 0.30913224816322327 0.00014673173427581787 3.5222619771957397e-06 0.0 0.0 0.0 0.0
0.096 -0.39535143971443176 0.3126232624053955 -0.00018494203686714172 3.4642405807971954e-05 0.0 0.0 0.0 0.0
0.097 -0.3954179286956787 0.3098471760749817 -4.112720489501953e-05 -6.104819476604462e-06 0.0 0.0 0.0 0.0
0.098 -0.39667943120002747 0.3063358962535858 6.0344114899635315e-05 -3.6675482988357544e-05 0.0 0.0 0.0 0.0
0.099 -0.39886656403541565 0.30557096004486084 0.00011530332267284393 -0.00012963265180587769 0.0 0.0 0.0 0.0
0.1 -0.398892879486084 0.3175351023674011 8.186139166355133e-05 -0.0001599704846739769 0.0 0.0 0.0 0.0
0.101 -0.3594737946987152 0.3281686007976532 1.6505829989910126e-05 -7.20098614692688e-05 0.0 0.0 0.0 0.0
0.102 -0.35883426666259766 0.3335655629634857 6.449595093727112e-05 1.4754943549633026e-05 0.0 0.0 0.0 0.0
0.103 -0.3595544993877411 0.3380647301673889 -3.700610250234604e-05 2.2907741367816925e-05 0.0 0.0 0.0 0.0
0.104 -0.35935547947883606 0.34174275398254395 8.177850395441055e-05 -0.0001240205019712448 0.0 0.0 0.0 0.0
0.105 -0.3584551513195038 0.3465481102466583 -2.3582950234413147e-05 8.126720786094666e-06 0.0 0.0 0.0 0.0
0.106 -0.35720667243003845 0.35019782185554504 4.930328577756882e-05 -2.1298415958881378e-05 0.0 0.0 0.0 0.0
0.107 -0.35802915692329407 0.3537202477455139 -4.9661844968795776e-05 -2.0490959286689758e-05 0.0 0.0 0.0 0.0
0.108 -0.3580743074417114 0.356501042842865 -2.4743378162384033e-05 -1.629255712032318e-05 0.0 0.0 0.0 0.0
0.109 -0.3578881025314331 0.3605026304721832 -3.517419099807739e-05 -0.00010263733565807343 0.0 0.0 0.0 0.0
0.11 -0.3594931364059448 0.3652791976928711 7.03614205121994e-06 1.6291625797748566e-05 0.0 0.0 0.0 0.0
0.111 -0.3594191074371338 0.3686140477657318 1.9052065908908844e-05 -3.375206142663956e-05 0.0 0.0 0.0 0.0
0.112 -0.35987839102745056 0.3754409849643707 -2.7233734726905823e-05 8.859019726514816e-05 0.0 0.0 0.0 0.0
0.113 -0.3607858419418335 0.3803950548171997 4.973169416189194e-05 -0.00013064127415418625 0.0 0.0 0.0 0.0
0.114 -0.3610335886478424 0.38510769605636597 -1.0425224900245667e-05 -7.384363561868668e-05 0.0 0.0 0.0 0.0
0.115 -0.3626059889793396 0.3909142017364502 0.00013096537441015244 -5.49880787730217e-05 0.0 0.0 0.0 0.0
0.116 -0.36268723011016846 0.3967609107494354 4.6380795538425446e-05 -6.294809281826019e-06 0.0 0.0 0.0 0.0
0.117 -0.36134254932403564 0.4056827425956726 9.867176413536072e-05 1.0672956705093384e-06 0.0 0.0 0.0 0.0
0.118 -0.3602079749107361 0.41553106904029846 0.00010248366743326187 -0.00011613033711910248 0.0 0.0 0.0 0.0
0.119 -0.3548603355884552 0.4223748743534088 5.0951726734638214e-05 -2.132728695869446e-06 0.0 0.0 0.0 0.0
0.12 -0.3501751720905304 0.42994561791419983 1.106318086385727e-05 -2.3594126105308533e-05 0.0 0.0 0.0 0.0
0.121 -0.34350505471229553 0.4361102283000946 -0.00013523828238248825 -4.99580055475235e-05 0.0 0.0 0.0 0.0
0.122 -0.339375764131546 0.44162312150001526 -4.207249730825424e-05 0.0002399887889623642 0.0 0.0 0.0 0.0
0.123 -0.33553147315979004 0.44985130429267883 9.556300938129425e-06 -0.0001846691593527794 0.0 0.0 0.0 0.0
0.124 -0.33011001348495483 0.4561220109462738 0.00017282739281654358 -1.1267140507698059e-05 0.0 0.0 0.0 0.0
0.125 -0.32373490929603577 0.4659285545349121 3.508385270833969e-05 -0.00011939648538827896 0.0 0.0 0.0 0.0
0.126 -0.3173907697200775 0.47246071696281433 -4.1219405829906464e-05 2.1777115762233734e-05 0.0 0.0 0.0 0.0
0.127 -0.309760719537735 0.47820067405700684 -0.00010783132165670395 -0.0001293392851948738 0.0 0.0 0.0 0.0
0.128 -0.30097368359565735 0.48428136110305786 1.0765157639980316e-05 -5.178432911634445e-05 0.0 0.0 0.0 0.0
0.129 -0.29429319500923157 0.4878453314304352 5.684792995452881e-05 8.730869740247726e-05 0.0 0.0 0.0 0.0
0.13 -0.2863297760486603 0.49388250708580017 -4.892516881227493e-05 0.00011201296001672745 0.0 0.0 0.0 0.0
0.131 -0.2790040969848633 0.5003032088279724 8.125416934490204e-05 -9.37003642320633e-06 0.0 0.0 0.0 0.0
0.132 -0.2711418867111206 0.5066625475883484 -1.8902122974395752e-05 3.559049218893051e-05 0.0 0.0 0.0 0.0
0.133 -0.2629999816417694 0.515440046787262 -7.157772779464722e-05 -2.3828819394111633e-05 0.0 0.0 0.0 0.0
0.134 -0.25480377674102783 0.5214550495147705 -1.9156374037265778e-05 5.39412721991539e-05 0.0 0.0 0.0 0.0
0.135 -0.2451527863740921 0.5272632837295532 5.722697824239731e-05 -3.638118505477905e-05 0.0 0.0 0.0 0.0
0.136 -0.23704971373081207 0.5334656238555908 0.00011404138058423996 -0.00010619591921567917 0.0 0.0 0.0 0.0
0.137 -0.22798442840576172 0.539264976978302 0.00018445122987031937 -0.00010296795517206192 0.0 0.0 0.0 0.0
0.138 -0.21750281751155853 0.542372465133667 4.024244844913483e-06 -6.552785634994507e-05 0.0 0.0 0.0 0.0
0.139 -0.20771381258964539 0.5483583807945251 -7.311813533306122e-06 -1.604389399290085e-05 0.0 0.0 0.0 0.0
0.14 -0.19709810614585876 0.5513127446174622 4.460010677576065e-05 -4.294794052839279e-05 0.0 0.0 0.0 0.0
0.141 -0.18617163598537445 0.5574212670326233 -5.5283308029174805e-05 -6.290804594755173e-05 0.0 0.0 0.0 0.0
0.142 -0.17528271675109863 0.5594081878662109 5.069281905889511e-05 8.75517725944519e-05 0.0 0.0 0.0 0.0
0.143 -0.16605766117572784 0.563057541847229 0.00012420117855072021 -0.00010599847882986069 0.0 0.0 0.0 0.0
0.144 -0.1542062908411026 0.5667132139205933 5.0288625061511993e-05 -9.583309292793274e-05 0.0 0.0 0.0 0.0
0.145 -0.14319220185279846 0.568317711353302 -1.0244548320770264e-07 -0.00016085244715213776 0.0 0.0 0.0 0.0
0.146 -0.1316208392381668 0.5694087147712708 0.00011239107698202133 9.052827954292297e-05 0.0 0.0 0.0 0.0
0.147 -0.1194339320063591 0.5704987645149231 4.8074871301651e-05 -7.4980780482292175e-06 0.0 0.0 0.0 0.0
0.148 -0.11006706953048706 0.5704007744789124 6.744638085365295e-05 -9.958073496818542e-05 0.0 0.0 0.0 0.0
0.149 -0.09914698451757431 0.5698263645172119 0.00012685172259807587 -2.8644688427448273e-05 0.0 0.0 0.0 0.0
0.15 -0.08800671994686127 0.5692077875137329 -5.4351985454559326e-05 -4.138145595788956e-05 0.0 0.0 0.0 0.0
0.151 -0.0787513479590416 0.567562460899353 9.9891796708107e-05 -5.642790347337723e-05 0.0 0.0 0.0 0.0
0.152 -0.06752577424049377 0.56740403175354 8.413195610046387e-05 1.849047839641571e-05 0.0 0.0 0.0 0.0
0.153 -0.057138316333293915 0.5654594898223877 4.455260932445526e-05 -1.4911405742168427e-05 0.0 0.0 0.0 0.0
0.154 -0.0472525879740715 0.5661347508430481 4.949048161506653e-06 0.0001287013292312622 0.0 0.0 0.0 0.0
0.155 -0.038467418402433395 0.5631762742996216 2.484675496816635e-05 1.7238780856132507e-06 0.0 0.0 0.0 0.0
0.156 -0.028700796887278557 0.5617653131484985 -1.2120231986045837e-05 -0.0001848321408033371 0.0 0.0 0.0 0.0
0.157 -0.019435042515397072 0.5589901208877563 -5.173496901988983e-05 9.825266897678375e-05 0.0 0.0 0.0 0.0
0.158 -0.010010707192122936 0.5570762753486633 3.3748336136341095e-05 3.851018846035004e-05 0.0 0.0 0.0 0.0
0.159 -0.0019293008372187614 0.5547193288803101 -0.0001251986250281334 -0.0001551695168018341 0.0 0.0 0.0 0.0
0.16 0.006594925187528133 0.552837073802948 6.584916263818741e-05 2.327375113964081e-06 0.0 0.0 0.0 0.0
0.161 0.01443738117814064 0.5508937835693359 -2.212636172771454e-05 6.524752825498581e-05 0.0 0.0 0.0 0.0
0.162 0.021133258938789368 0.5485515594482422 -1.7313286662101746e-06 -1.5300698578357697e-05 0.0 0.0 0.0 0.0
0.163 0.029076509177684784 0.5455746650695801 0.00014340411871671677 -2.9151327908039093e-05 0.0 0.0 0.0 0.0
0.164 0.03451891243457794 0.5438581705093384 6.221327930688858e-05 -0.00011131912469863892 0.0 0.0 0.0 0.0
0.165 0.04219399392604828 0.5391263961791992 -3.691297024488449e-05 7.461663335561752e-05 0.0 0.0 0.0 0.0
0.166 0.04753454029560089 0.5374909043312073 -0.00011288933455944061 -0.00016683991998434067 0.0 0.0 0.0 0.0
0.167 0.05357474833726883 0.5336145758628845 8.673407137393951e-06 6.183050572872162e-06 0.0 0.0 0.0 0.0
0.168 0.05897456407546997 0.5312445759773254 -0.0002491297200322151 -0.00011619646102190018 0.0 0.0 0.0 0.0
0.169 0.06344087421894073 0.5258263349533081 -4.630163311958313e-05 1.1233612895011902e-05 0.0 0.0 0.0 0.0
0.17 0.06703048944473267 0.5223328471183777 0.0001082438975572586 -0.0001026960089802742 0.0 0.0 0.0 0.0
0.171 0.07242230325937271 0.5159696936607361 2.4502165615558624e-05 -2.9607675969600677e-05 0.0 0.0 0.0 0.0
0.172 0.0763549655675888 0.5099419951438904 -8.815433830022812e-05 0.00014408770948648453 0.0 0.0 0.0 0.0
0.173 0.07993952184915543 0.503379762172699 4.1622668504714966e-05 4.462338984012604e-05 0.0 0.0 0.0 0.0
0.174 0.08329861611127853 0.4957606792449951 -6.922706961631775e-05 9.583309292793274e-07 0.0 0.0 0.0 0.0
0.175 0.08657588809728622 0.48968711495399475 -0.00011392496526241302 -3.929156810045242e-05 0.0 0.0 0.0 0.0
0.176 0.08891303837299347 0.4844147562980652 -5.4397620260715485e-05 -5.042366683483124e-05 0.0 0.0 0.0 0.0
0.177 0.09280470758676529 0.4781651794910431 8.762627840042114e-05 -0.00019179750233888626 0.0 0.0 0.0 0.0
0.178 0.09694376587867737 0.47308090329170227 -5.135871469974518e-05 9.547919034957886e-05 0.0 0.0 0.0 0.0
0.179 0.09928691387176514 0.4707404375076294 0.00015589408576488495 -8.515827357769012e-05 0.0 0.0 0.0 0.0
0.18 0.10252513736486435 0.4703506529331207 -4.241243004798889e-05 -5.174707621335983e-05 0.0 0.0 0.0 0.0
0.181 0.1050153374671936 0.46902090311050415 2.4259090423583984e-05 9.593553841114044e-06 0.0 0.0 0.0 0.0
0.182 0.10818280279636383 0.46746039390563965 1.3742595911026001e-05 -0.000149579718708992 0.0 0.0 0.0 0.0
0.183 0.11276046186685562 0.46790334582328796 -0.0001288633793592453 9.211711585521698e-05 0.0 0.0 0.0 0.0
0.184 0.11587285250425339 0.4642564654350281 1.552049070596695e-05 3.6786310374736786e-05 0.0 0.0 0.0 0.0
