!Created with skrf (http://scikit-rf.org).
# GHz S RI R 50.0 
!freq ReS11 ImS11 ReS21 ImS21 ReS12 ImS12 ReS22 ImS22
0.001 0.80436772108078 -0.0832354798913002 -0.00010596029460430145 -0.00011684279888868332 0.0 0.0 0.0 0.0
0.002 0.7742074728012085 -0.12652382254600525 -7.511954754590988e-05 4.9933791160583496e-05 0.0 0.0 0.0 0.0
0.003 0.8030335903167725 -0.2091289460659027 1.3242475688457489e-05 -4.976242780685425e-05 0.0 0.0 0.0 0.0
0.004 0.8153787851333618 -0.3197392523288727 2.781301736831665e-05 0.00017129071056842804 0.0 0.0 0.0 0.0
0.005 0.7949967980384827 -0.4603780210018158 -8.11917707324028e-05 0.00012593623250722885 0.0 0.0 0.0 0.0
0.006 0.710764467716217 -0.6156312227249146 8.761696517467499e-05 9.440258145332336e-05 0.0 0.0 0.0 0.0
0.007 0.5541911125183105 -0.7393555045127869 -0.00013536028563976288 8.604209870100021e-05 0.0 0.0 0.0 0.0
0.008 0.3267781138420105 -0.79557204246521 3.2689422369003296e-06 3.7270598113536835e-05 0.0 0.0 0.0 0.0
0.009 0.08632572740316391 -0.7500858902931213 0.00012970715761184692 8.013658225536346e-05 0.0 0.0 0.0 0.0
0.01 -0.051470596343278885 -0.7003172636032104 -7.177144289016724e-05 5.266815423965454e-05 0.0 0.0 0.0 0.0
0.011 -0.1384432017803192 -0.6581565141677856 1.0184943675994873e-05 1.605972647666931e-05 0.0 0.0 0.0 0.0
0.012 -0.2051895558834076 -0.6238381862640381 0.00019257701933383942 -0.00013623759150505066 0.0 0.0 0.0 0.0
0.013 -0.2586800754070282 -0.5898187160491943 0.00012312643229961395 -7.946603000164032e-05 0.0 0.0 0.0 0.0
0.014 -0.3018791675567627 -0.5566667914390564 4.946067929267883e-05 -0.00010186061263084412 0.0 0.0 0.0 0.0
0.015 -0.3342721164226532 -0.528347909450531 9.314436465501785e-05 -0.00010689068585634232 0.0 0.0 0.0 0.0
0.016 -0.37065643072128296 -0.5050215125083923 -0.0001245979219675064 -0.00018802564591169357 0.0 0.0 0.0 0.0
0.017 -0.39313775300979614 -0.4852325916290283 4.3977051973342896e-06 4.129484295845032e-06 0.0 0.0 0.0 0.0
0.018 -0.4210386276245117 -0.46426981687545776 -2.8274022042751312e-05 -0.00018277205526828766 0.0 0.0 0.0 0.0
0.019 -0.44347596168518066 -0.4466174840927124 -1.4463439583778381e-06 -0.00015000905841588974 0.0 0.0 0.0 0.0
0.02 -0.4629097878932953 -0.42682555317878723 -0.00014342926442623138 4.030577838420868e-05 0.0 0.0 0.0 0.0
0.021 -0.4807789921760559 -0.40972402691841125 -6.68652355670929e-05 -7.283315062522888e-05 0.0 0.0 0.0 0.0
0.022 -0.4974181652069092 -0.39345017075538635 6.675533950328827e-05 5.191005766391754e-05 0.0 0.0 0.0 0.0
0.023 -0.5137776136398315 -0.3756304681301117 0.00024056248366832733 4.734378308057785e-05 0.0 0.0 0.0 0.0
0.024 -0.5270501375198364 -0.3551183342933655 0.00014437269419431686 4.263594746589661e-06 0.0 0.0 0.0 0.0
0.025 -0.5387527942657471 -0.34033486247062683 3.6141835153102875e-05 1.8499791622161865e-05 0.0 0.0 0.0 0.0
0.026 -0.5529622435569763 -0.3224387764930725 5.9633515775203705e-05 -7.80085101723671e-05 0.0 0.0 0.0 0.0
0.027 -0.5621523261070251 -0.3031197190284729 2.1204352378845215e-05 -3.0458904802799225e-05 0.0 0.0 0.0 0.0
0.028 -0.5660901069641113 -0.28585293889045715 -3.311969339847565e-05 4.8492103815078735e-05 0.0 0.0 0.0 0.0
0.029 -0.5751979351043701 -0.27286460995674133 -6.748363375663757e-05 8.453615009784698e-06 0.0 0.0 0.0 0.0
0.03 -0.5812438130378723 -0.25595152378082275 2.4703331291675568e-05 1.4363788068294525e-05 0.0 0.0 0.0 0.0
0.031 -0.5865510106086731 -0.23967353999614716 5.648750811815262e-05 -0.00016845855861902237 0.0 0.0 0.0 0.0
0.032 -0.5874584913253784 -0.22485648095607758 9.128265082836151e-05 8.720159530639648e-05 0.0 0.0 0.0 0.0
0.033 -0.5937009453773499 -0.20685943961143494 -0.000132119283080101 -4.7122128307819366e-05 0.0 0.0 0.0 0.0
0.034 -0.5967144966125488 -0.19323809444904327 -0.00011390447616577148 -0.0001293327659368515 0.0 0.0 0.0 0.0
0.035 -0.5952929854393005 -0.17860546708106995 -4.177913069725037e-06 -4.703924059867859e-05 0.0 0.0 0.0 0.0
0.036 -0.5963218212127686 -0.17027349770069122 4.7773122787475586e-05 2.9519200325012207e-05 0.0 0.0 0.0 0.0
0.037 -0.5969221591949463 -0.15789827704429626 0.00011600926518440247 -0.0001343442127108574 0.0 0.0 0.0 0.0
0.038 -0.5975618958473206 -0.14458218216896057 5.4999254643917084e-05 -0.00014963559806346893 0.0 0.0 0.0 0.0
0.039 -0.5986533164978027 -0.13058747351169586 -0.0002009095624089241 -0.00015969760715961456 0.0 0.0 0.0 0.0
0.04 -0.5939548015594482 -0.12130741775035858 -1.181475818157196e-05 8.260086178779602e-05 0.0 0.0 0.0 0.0
0.041 -0.5947031378746033 -0.11011864244937897 -0.00012245960533618927 -5.531869828701019e-05 0.0 0.0 0.0 0.0
0.042 -0.5945946574211121 -0.1026284322142601 3.993138670921326e-05 4.757847636938095e-05 0.0 0.0 0.0 0.0
0.043 -0.5939188599586487 -0.09343940764665604 -1.77677720785141e-05 -4.157423973083496e-06 0.0 0.0 0.0 0.0
0.044 -0.5960144996643066 -0.08115389943122864 0.00010154955089092255 -0.00014838110655546188 0.0 0.0 0.0 0.0
0.045 -0.5918451547622681 -0.07019155472517014 -0.0001115826889872551 -0.00010711979120969772 0.0 0.0 0.0 0.0
0.046 -0.5897054076194763 -0.06436995416879654 -0.00019051693379878998 -3.564450889825821e-05 0.0 0.0 0.0 0.0
0.047 -0.5899270176887512 -0.05521344020962715 -0.00010350160300731659 -5.08967787027359e-05 0.0 0.0 0.0 0.0
0.048 -0.5891339778900146 -0.04518556222319603 -4.4357962906360626e-05 7.126759737730026e-05 0.0 0.0 0.0 0.0
0.049 -0.5899257659912109 -0.04022980108857155 8.113309741020203e-05 -7.487460970878601e-05 0.0 0.0 0.0 0.0
0.05 -0.5881597995758057 -0.03150521591305733 6.222724914550781e-05 -3.6553479731082916e-05 0.0 0.0 0.0 0.0
0.051 -0.588376522064209 -0.020613493397831917 -6.926339119672775e-05 -0.00012400932610034943 0.0 0.0 0.0 0.0
0.052 -0.5863059759140015 -0.012804407626390457 -5.082227289676666e-06 -6.735138595104218e-05 0.0 0.0 0.0 0.0
0.053 -0.5820687413215637 -0.007274024188518524 -3.067776560783386e-05 -7.81649723649025e-05 0.0 0.0 0.0 0.0
0.054 -0.585177481174469 0.0004617702215909958 1.7828308045864105e-05 -9.436532855033875e-05 0.0 0.0 0.0 0.0
0.055 -0.5842992663383484 0.007474485784769058 5.9485435485839844e-05 1.2479722499847412e-07 0.0 0.0 0.0 0.0
0.056 -0.5832172632217407 0.016541484743356705 -7.0016831159591675e-06 -0.00019417423754930496 0.0 0.0 0.0 0.0
0.057 -0.5812727808952332 0.024427102878689766 -7.159356027841568e-05 3.1004659831523895e-05 0.0 0.0 0.0 0.0
0.058 -0.5775455832481384 0.028915835544466972 -2.2788532078266144e-05 -6.875116378068924e-05 0.0 0.0 0.0 0.0
0.059 -0.580889105796814 0.037475693970918655 5.1849521696567535e-05 -0.00010471418499946594 0.0 0.0 0.0 0.0
0.06 -0.578331470489502 0.04636215418577194 -9.357929229736328e-06 -0.00010050833225250244 0.0 0.0 0.0 0.0
0.061 -0.5772992372512817 0.05340387672185898 -0.00023795943707227707 -7.59810209274292e-05 0.0 0.0 0.0 0.0
0.062 -0.5763899087905884 0.06134866178035736 3.492925316095352e-05 -0.00012189429253339767 0.0 0.0 0.0 0.0
0.063 -0.5726118683815002 0.06896596401929855 -0.0001796465367078781 -0.0001552356407046318 0.0 0.0 0.0 0.0
0.064 -0.5697574019432068 0.07416173070669174 4.376750439405441e-05 0.00013991538435220718 0.0 0.0 0.0 0.0
0.065 -0.5721030235290527 0.08017580956220627 6.995256990194321e-05 5.217269062995911e-06 0.0 0.0 0.0 0.0
0.066 -0.569582998752594 0.08834554255008698 -6.674416363239288e-05 4.102475941181183e-06 0.0 0.0 0.0 0.0
0.067 -0.5693691372871399 0.09919420629739761 1.8806196749210358e-05 -0.0001555895432829857 0.0 0.0 0.0 0.0
0.068 -0.5662329792976379 0.10562336444854736 -8.813105523586273e-06 -0.00020123738795518875 0.0 0.0 0.0 0.0
0.069 -0.5613688826560974 0.1132969781756401 -0.0001328038051724434 -4.364456981420517e-05 0.0 0.0 0.0 0.0
0.07 -0.5611171126365662 0.11682111024856567 -0.0001051807776093483 -6.27078115940094e-05 0.0 0.0 0.0 0.0
0.071 -0.5591329336166382 0.1250154674053192 -6.931647658348083e-05 -8.63419845700264e-05 0.0 0.0 0.0 0.0
0.072 -0.5599478483200073 0.13268940150737762 -6.859656423330307e-05 -0.0001265415921807289 0.0 0.0 0.0 0.0
0.073 -0.5568566918373108 0.13762786984443665 -3.663264214992523e-05 -8.129235357046127e-05 0.0 0.0 0.0 0.0
0.074 -0.5550858974456787 0.1444345861673355 0.00010565575212240219 -0.0002538459375500679 0.0 0.0 0.0 0.0
0.075 -0.5534480214118958 0.15341442823410034 -0.0001356201246380806 -0.0002437187358736992 0.0 0.0 0.0 0.0
0.076 -0.5478962063789368 0.1592702567577362 -1.9781291484832764e-06 -2.534128725528717e-06 0.0 0.0 0.0 0.0
0.077 -0.5478149652481079 0.163314551115036 -2.7555041015148163e-05 0.0001717749983072281 0.0 0.0 0.0 0.0
0.078 -0.5456910133361816 0.16977006196975708 -4.0605664253234863e-07 6.746221333742142e-05 0.0 0.0 0.0 0.0
0.079 -0.5419188141822815 0.17648769915103912 -2.9052607715129852e-05 -6.654579192399979e-05 0.0 0.0 0.0 0.0
0.08 -0.5421057343482971 0.18395934998989105 1.7490237951278687e-05 9.252596646547318e-05 0.0 0.0 0.0 0.0
0.081 -0.5393945574760437 0.19257329404354095 2.705492079257965e-05 -0.00013626087456941605 0.0 0.0 0.0 0.0
0.082 -0.537710428237915 0.1994713693857193 -0.00015886500477790833 -6.471853703260422e-05 0.0 0.0 0.0 0.0
0.083 -0.5358196496963501 0.20755569636821747 -0.00017487723380327225 -8.367281407117844e-05 0.0 0.0 0.0 0.0
0.084 -0.5284993648529053 0.2117597609758377 8.169002830982208e-05 -4.909839481115341e-05 0.0 0.0 0.0 0.0
0.085 -0.5288922190666199 0.21818383038043976 -2.806447446346283e-05 -1.5908852219581604e-05 0.0 0.0 0.0 0.0
0.086 -0.5272359848022461 0.22544613480567932 -0.00010700058192014694 -5.1274895668029785e-05 0.0 0.0 0.0 0.0
0.087 -0.5243507027626038 0.23369893431663513 -0.00013900641351938248 -0.0001363130286335945 0.0 0.0 0.0 0.0
0.088 -0.5212650895118713 0.2418501228094101 -0.00015020743012428284 1.0299496352672577e-05 0.0 0.0 0.0 0.0
0.089 -0.5176024436950684 0.24701063334941864 3.1115487217903137e-06 -0.00011556968092918396 0.0 0.0 0.0 0.0
0.09 -0.513115644454956 0.2552080750465393 -5.753617733716965e-05 -0.00019766855984926224 0.0 0.0 0.0 0.0
0.091 -0.509545624256134 0.26192575693130493 1.5103258192539215e-05 -6.702076643705368e-05 0.0 0.0 0.0 0.0
0.092 -0.5039026737213135 0.2705644965171814 -0.00023074541240930557 -2.6986002922058105e-05 0.0 0.0 0.0 0.0
0.093 -0.49987104535102844 0.27693110704421997 -5.569308996200562e-07 4.376843571662903e-05 0.0 0.0 0.0 0.0
0.094 -0.49444958567619324 0.2806750535964966 -3.8929283618927e-05 -6.454996764659882e-05 0.0 0.0 0.0 0.0
0.095 -0.4918842017650604 0.2879907190799713 0.00013662781566381454 4.046037793159485e-05 0.0 0.0 0.0 0.0
0.096 -0.4889056980609894 0.2959382236003876 -5.368795245885849e-05 -0.00015191081911325455 0.0 0.0 0.0 0.0
0.097 -0.4806287884712219 0.3036549985408783 -8.033774793148041e-05 -3.740563988685608e-05 0.0 0.0 0.0 0.0
0.098 -0.47604385018348694 0.3108823001384735 5.6490302085876465e-05 -6.6105276346206665e-06 0.0 0.0 0.0 0.0
0.099 -0.470656156539917 0.3148326277732849 -2.9616057872772217e-06 -0.00011016055941581726 0.0 0.0 0.0 0.0
0.1 -0.46593743562698364 0.3387269675731659 -1.003313809633255e-05 -7.585249841213226e-05 0.0 0.0 0.0 0.0
0.101 -0.4245574474334717 0.359037846326828 -5.0467438995838165e-05 -4.000868648290634e-05 0.0 0.0 0.0 0.0
0.102 -0.4192589819431305 0.36746203899383545 -7.360242307186127e-05 6.114225834608078e-05 0.0 0.0 0.0 0.0
0.103 -0.4150153398513794 0.3714205324649811 -2.1270476281642914e-05 -0.00014455337077379227 0.0 0.0 0.0 0.0
0.104 -0.4086935818195343 0.37716981768608093 6.002001464366913e-05 0.00011039525270462036 0.0 0.0 0.0 0.0
0.105 -0.4036192297935486 0.3839443624019623 9.539630264043808e-05 -6.950739771127701e-05 0.0 0.0 0.0 0.0
0.106 -0.3964483141899109 0.38933125138282776 -0.0001583164557814598 5.5293552577495575e-05 0.0 0.0 0.0 0.0
0.107 -0.3911835849285126 0.39585596323013306 -5.723629146814346e-05 -0.00010673701763153076 0.0 0.0 0.0 0.0
0.108 -0.38576167821884155 0.4008781611919403 -0.00012373551726341248 -0.00011802371591329575 0.0 0.0 0.0 0.0
0.109 -0.37653112411499023 0.405923992395401 -9.39052551984787e-05 -3.063306212425232e-05 0.0 0.0 0.0 0.0
0.11 -0.3703192174434662 0.4113764762878418 -3.389362245798111e-05 7.076095789670944e-05 0.0 0.0 0.0 0.0
0.111 -0.36306384205818176 0.41825491189956665 -0.00011363718658685684 -7.150229066610336e-05 0.0 0.0 0.0 0.0
0.112 -0.35611870884895325 0.42243632674217224 -7.567368447780609e-05 -4.180707037448883e-05 0.0 0.0 0.0 0.0
0.113 -0.3484818935394287 0.42713263630867004 0.00015106331557035446 7.919874042272568e-05 0.0 0.0 0.0 0.0
0.114 -0.3397274315357208 0.4316231310367584 -0.00010631885379552841 3.291107714176178e-05 0.0 0.0 0.0 0.0
0.115 -0.3340957462787628 0.43658706545829773 -1.521781086921692e-06 0.00011690612882375717 0.0 0.0 0.0 0.0
0.116 -0.32658401131629944 0.43967318534851074 7.929373532533646e-05 -9.512342512607574e-05 0.0 0.0 0.0 0.0
0.117 -0.31970617175102234 0.4444536566734314 0.0001577194780111313 -2.2777356207370758e-05 0.0 0.0 0.0 0.0
0.118 -0.31234073638916016 0.4469863474369049 -1.7562881112098694e-05 -6.0789287090301514e-05 0.0 0.0 0.0 0.0
0.119 -0.3064776062965393 0.4521797299385071 6.3273124396801e-05 -0.00012897513806819916 0.0 0.0 0.0 0.0
0.12 -0.29703575372695923 0.4547308087348938 5.5067241191864014e-05 2.6705674827098846e-05 0.0 0.0 0.0 0.0
0.121 -0.2917308807373047 0.4590182900428772 -0.00015921145677566528 -2.2312626242637634e-05 0.0 0.0 0.0 0.0
0.122 -0.2856977581977844 0.46168071031570435 -1.5912577509880066e-05 -0.00011826306581497192 0.0 0.0 0.0 0.0
0.123 -0.27967730164527893 0.46489810943603516 -0.00010327715426683426 -3.254413604736328e-05 0.0 0.0 0.0 0.0
0.124 -0.27199721336364746 0.46534493565559387 -7.26655125617981e-05 7.071718573570251e-05 0.0 0.0 0.0 0.0
0.125 -0.265728235244751 0.4697231650352478 1.1685304343700409e-05 -4.716217517852783e-05 0.0 0.0 0.0 0.0
0.126 -0.259112685918808 0.47088971734046936 -3.2549723982810974e-06 1.545436680316925e-05 0.0 0.0 0.0 0.0
0.127 -0.254854291677475 0.4725101888179779 9.876396507024765e-05 1.3034790754318237e-05 0.0 0.0 0.0 0.0
0.128 -0.24792882800102234 0.47534269094467163 4.6076253056526184e-05 -0.00011644791811704636 0.0 0.0 0.0 0.0
0.129 -0.24109330773353577 0.4755861461162567 7.095467299222946e-05 -0.0001360410824418068 0.0 0.0 0.0 0.0
0.13 -0.2344808429479599 0.4777769446372986 -0.0001654280349612236 4.0903687477111816e-05 0.0 0.0 0.0 0.0
0.131 -0.22745712101459503 0.476931631565094 6.710551679134369e-05 -6.672646850347519e-05 0.0 0.0 0.0 0.0
0.132 -0.2221234291791916 0.47901496291160583 -0.00011806376278400421 3.306567668914795e-05 0.0 0.0 0.0 0.0
0.133 -0.2159004956483841 0.4789227843284607 -5.112960934638977e-06 3.657303750514984e-06 0.0 0.0 0.0 0.0
0.134 -0.20951253175735474 0.4800686240196228 9.638257324695587e-05 -3.1944364309310913e-07 0.0 0.0 0.0 0.0
0.135 -0.20400556921958923 0.48083558678627014 4.548579454421997e-06 6.583333015441895e-05 0.0 0.0 0.0 0.0
0.136 -0.19933660328388214 0.48323068022727966 -8.227583020925522e-05 -5.482975393533707e-05 0.0 0.0 0.0 0.0
0.137 -0.1927526444196701 0.4836272895336151 3.063119947910309e-05 -5.014240741729736e-06 0.0 0.0 0.0 0.0
0.138 -0.18705396354198456 0.48650676012039185 -0.0001882733777165413 -3.9120204746723175e-05 0.0 0.0 0.0 0.0
0.139 -0.1814740002155304 0.4861132800579071 -8.879229426383972e-06 -0.00022778194397687912 0.0 0.0 0.0 0.0
0.14 -0.17647868394851685 0.48779740929603577 0.00011848565191030502 -5.293171852827072e-05 0.0 0.0 0.0 0.0
0.141 -0.16997388005256653 0.48716869950294495 8.541811257600784e-05 8.180364966392517e-05 0.0 0.0 0.0 0.0
0.142 -0.16553574800491333 0.4891662001609802 6.124749779701233e-05 -0.0001056743785738945 0.0 0.0 0.0 0.0
0.143 -0.1593066155910492 0.4901370704174042 6.105750799179077e-06 -4.878547042608261e-05 0.0 0.0 0.0 0.0
0.144 -0.1543208509683609 0.4919109642505646 -0.00014241691678762436 -6.678514182567596e-05 0.0 0.0 0.0 0.0
0.145 -0.14849597215652466 0.4916304349899292 0.0001348024234175682 -6.060115993022919e-05 0.0 0.0 0.0 0.0
0.146 -0.14277271926403046 0.4920848608016968 8.243415504693985e-05 8.687656372785568e-05 0.0 0.0 0.0 0.0
0.147 -0.13572165369987488 0.494817852973938 -0.00012116972357034683 3.5521574318408966e-05 0.0 0.0 0.0 0.0
0.148 -0.13240978121757507 0.49676957726478577 -1.5037134289741516e-05 -0.00017936993390321732 0.0 0.0 0.0 0.0
0.149 -0.12468023598194122 0.49789783358573914 -0.00013285409659147263 -4.038959741592407e-05 0.0 0.0 0.0 0.0
0.15 -0.11944197863340378 0.49816134572029114 5.4424628615379333e-05 -3.076624125242233e-05 0.0 0.0 0.0 0.0
0.151 -0.1121545284986496 0.4993140995502472 3.1366944313049316e-05 2.7583912014961243e-05 0.0 0.0 0.0 0.0
0.152 -0.1075872927904129 0.49988800287246704 -2.0674429833889008e-05 2.0711682736873627e-05 0.0 0.0 0.0 0.0
0.153 -0.10156026482582092 0.5017514824867249 -8.148886263370514e-05 4.900619387626648e-06 0.0 0.0 0.0 0.0
0.154 -0.09520220756530762 0.500859260559082 -7.302314043045044e-05 -1.2372620403766632e-05 0.0 0.0 0.0 0.0
0.155 -0.08777137845754623 0.50130295753479 -4.200264811515808e-06 -8.208025246858597e-05 0.0 0.0 0.0 0.0
0.156 -0.084294393658638 0.5011324882507324 0.00010349415242671967 -1.3222917914390564e-05 0.0 0.0 0.0 0.0
0.157 -0.07739200443029404 0.5021390914916992 9.880866855382919e-05 8.584931492805481e-05 0.0 0.0 0.0 0.0
0.158 -0.07256581634283066 0.5023682713508606 7.023848593235016e-05 -0.00011990312486886978 0.0 0.0 0.0 0.0
0.159 -0.06530816107988358 0.5030282139778137 7.425807416439056e-05 9.896792471408844e-05 0.0 0.0 0.0 0.0
0.16 -0.06025802716612816 0.5045559406280518 -5.094986408948898e-05 1.4792196452617645e-05 0.0 0.0 0.0 0.0
0.161 -0.055568628013134 0.5033178329467773 8.624047040939331e-05 -9.166542440652847e-05 0.0 0.0 0.0 0.0
0.162 -0.047953855246305466 0.5037583708763123 5.736108869314194e-05 2.9344111680984497e-05 0.0 0.0 0.0 0.0
0.163 -0.04128585010766983 0.5050679445266724 -5.053635686635971e-05 6.408616900444031e-05 0.0 0.0 0.0 0.0
0.164 -0.035339824855327606 0.5048211812973022 -6.131455302238464e-05 0.00010213907808065414 0.0 0.0 0.0 0.0
0.165 -0.03072853572666645 0.5043643712997437 8.454639464616776e-05 -0.00010342895984649658 0.0 0.0 0.0 0.0
0.166 -0.024197643622756004 0.5056099891662598 -0.00014329049736261368 2.9334798455238342e-05 0.0 0.0 0.0 0.0
0.167 -0.019341977313160896 0.5042447447776794 -4.897266626358032e-05 -0.0001794165000319481 0.0 0.0 0.0 0.0
0.168 -0.011442544870078564 0.5039557218551636 -0.00018731970340013504 7.277913391590118e-05 0.0 0.0 0.0 0.0
0.169 -0.004862402565777302 0.5041040778160095 -0.0001668184995651245 -0.00012999866157770157 0.0 0.0 0.0 0.0
0.17 0.0007761158049106598 0.5036224722862244 4.71724197268486e-05 -0.00019695796072483063 0.0 0.0 0.0 0.0
0.171 0.00700822938233614 0.5029804110527039 -1.1902302503585815e-06 -0.00013110972940921783 0.0 0.0 0.0 0.0
0.172 0.013827791437506676 0.5037939548492432 -2.4182721972465515e-05 7.206015288829803e-05 0.0 0.0 0.0 0.0
0.173 0.020159713923931122 0.5007672309875488 -4.6358443796634674e-05 -4.038587212562561e-05 0.0 0.0 0.0 0.0
0.174 0.025287503376603127 0.500661313533783 -2.1152198314666748e-05 -3.0372291803359985e-05 0.0 0.0 0.0 0.0
0.175 0.032128218561410904 0.49980464577674866 -6.968993693590164e-05 -2.9029324650764465e-06 0.0 0.0 0.0 0.0
0.176 0.03847842290997505 0.4988241195678711 0.00012990552932024002 -6.400234997272491e-05 0.0 0.0 0.0 0.0
0.177 0.04372179135680199 0.49829351902008057 -2.8090551495552063e-05 8.383579552173615e-05 0.0 0.0 0.0 0.0
0.178 0.05038995295763016 0.4979727566242218 -0.00010559428483247757 1.883041113615036e-05 0.0 0.0 0.0 0.0
0.179 0.05714933201670647 0.4954276978969574 -1.5601515769958496e-05 -6.221048533916473e-05 0.0 0.0 0.0 0.0
0.18 0.0635547935962677 0.49400582909584045 8.820556104183197e-06 -7.462222129106522e-05 0.0 0.0 0.0 0.0
0.181 0.07012110203504562 0.49313604831695557 -0.00012693088501691818 5.710683763027191e-05 0.0 0.0 0.0 0.0
0.182 0.07623584568500519 0.49277788400650024 -0.000220421701669693 -4.1853636503219604e-05 0.0 0.0 0.0 0.0
0.183 0.08170042186975479 0.48950818181037903 7.639080286026001e-05 6.027985364198685e-05 0.0 0.0 0.0 0.0
0.184 0.08834951370954514 0.4879605770111084 -1.85379758477211e-05 4.5291148126125336e-05 0.0 0.0 0.0 0.0
