!Created with skrf (http://scikit-rf.org).
# GHz S RI R 50.0 
!freq ReS11 ImS11 ReS21 ImS21 ReS12 ImS12 ReS22 ImS22
0.001 0.8060265779495239 -0.083624467253685 -0.18938107788562775 0.11673122644424438 0.0 0.0 0.0 0.0
0.002 0.7747237086296082 -0.12583032250404358 -0.3681853711605072 0.4862825870513916 0.0 0.0 0.0 0.0
0.003 0.8058506846427917 -0.20685319602489471 -0.2576712369918823 1.1911067962646484 0.0 0.0 0.0 0.0
0.004 0.8149639964103699 -0.3243018388748169 0.1960180252790451 1.6186960935592651 0.0 0.0 0.0 0.0
0.005 0.7833085656166077 -0.4727565050125122 0.7805615067481995 1.4398201704025269 0.0 0.0 0.0 0.0
0.006 0.7089804410934448 -0.6097145080566406 1.1805853843688965 1.118079662322998 0.0 0.0 0.0 0.0
0.007 0.5419429540634155 -0.7457365989685059 1.4453104734420776 0.6904926300048828 0.0 0.0 0.0 0.0
0.008 0.3264351487159729 -0.7799579501152039 1.4992411136627197 0.5164535641670227 0.0 0.0 0.0 0.0
0.009 0.06195610389113426 -0.7429474592208862 1.5117554664611816 0.5242674350738525 0.0 0.0 0.0 0.0
0.01 -0.05342889949679375 -0.693899393081665 1.5458319187164307 0.53111332654953 0.0 0.0 0.0 0.0
0.011 -0.13947772979736328 -0.6554821729660034 1.6040136814117432 0.2540275454521179 0.0 0.0 0.0 0.0
0.012 -0.21178433299064636 -0.6039493680000305 1.5896493196487427 -0.09349390119314194 0.0 0.0 0.0 0.0
0.013 -0.260917603969574 -0.5624842643737793 1.567970871925354 -0.4099452793598175 0.0 0.0 0.0 0.0
0.014 -0.29588285088539124 -0.5498997569084167 1.449148416519165 -0.7923536896705627 0.0 0.0 0.0 0.0
0.015 -0.33289244771003723 -0.5218238830566406 1.1578707695007324 -1.1372969150543213 0.0 0.0 0.0 0.0
0.016 -0.37057411670684814 -0.4988059103488922 0.8488864302635193 -1.417766809463501 0.0 0.0 0.0 0.0
0.017 -0.41223910450935364 -0.46033966541290283 0.503000020980835 -1.5768182277679443 0.0 0.0 0.0 0.0
0.018 -0.4123375415802002 -0.4578600823879242 0.17260006070137024 -1.6009403467178345 0.0 0.0 0.0 0.0
0.019 -0.43641483783721924 -0.44415992498397827 -0.10061073303222656 -1.6184757947921753 0.0 0.0 0.0 0.0
0.02 -0.45868048071861267 -0.42678308486938477 -0.37740358710289 -1.5698288679122925 0.0 0.0 0.0 0.0
0.021 -0.47981736063957214 -0.41013607382774353 -0.5578945279121399 -1.5874946117401123 0.0 0.0 0.0 0.0
0.022 -0.49809277057647705 -0.3907107710838318 -0.8153855204582214 -1.436730146408081 0.0 0.0 0.0 0.0
0.023 -0.5135895013809204 -0.3713289201259613 -1.0095850229263306 -1.318094253540039 0.0 0.0 0.0 0.0
0.024 -0.5581114292144775 -0.35205140709877014 -1.2623213529586792 -1.1947035789489746 0.0 0.0 0.0 0.0
0.025 -0.5737186670303345 -0.29501229524612427 -1.4326752424240112 -0.8213865160942078 0.0 0.0 0.0 0.0
0.026 -0.5494497418403625 -0.31596577167510986 -1.47030770778656 -0.8192173838615417 0.0 0.0 0.0 0.0
0.027 -0.5606517195701599 -0.3002471327781677 -1.5618669986724854 -0.5472498536109924 0.0 0.0 0.0 0.0
0.028 -0.5687749981880188 -0.2827761471271515 -1.633515477180481 -0.373613178730011 0.0 0.0 0.0 0.0
0.029 -0.5762515068054199 -0.2620408236980438 -1.6790008544921875 -0.14558090269565582 0.0 0.0 0.0 0.0
0.03 -0.5802730321884155 -0.24712185561656952 -1.7022559642791748 0.0449499785900116 0.0 0.0 0.0 0.0
0.031 -0.5823753476142883 -0.2316243052482605 -1.6552659273147583 0.299809068441391 0.0 0.0 0.0 0.0
0.032 -0.6061517000198364 -0.1543516367673874 -1.4933831691741943 0.7147157788276672 0.0 0.0 0.0 0.0
0.033 -0.5974594354629517 -0.15714721381664276 -1.4432474374771118 0.8282545804977417 0.0 0.0 0.0 0.0
0.034 -0.5921257138252258 -0.18928222358226776 -1.4038020372390747 0.92928147315979 0.0 0.0 0.0 0.0
0.035 -0.5947632193565369 -0.17711935937404633 -1.246888518333435 1.1139004230499268 0.0 0.0 0.0 0.0
0.036 -0.5917071104049683 -0.16087207198143005 -1.179876446723938 1.2454272508621216 0.0 0.0 0.0 0.0
0.037 -0.5916431546211243 -0.15061892569065094 -0.9834324717521667 1.3862475156784058 0.0 0.0 0.0 0.0
0.038 -0.5914181470870972 -0.14048531651496887 -0.7547072768211365 1.4933265447616577 0.0 0.0 0.0 0.0
0.039 -0.5934943556785583 -0.12975119054317474 -0.5811827182769775 1.584726333618164 0.0 0.0 0.0 0.0
0.04 -0.5949675440788269 -0.11529742181301117 -0.41204535961151123 1.6613975763320923 0.0 0.0 0.0 0.0
0.041 -0.594002366065979 -0.1069841980934143 -0.12468240410089493 1.6767252683639526 0.0 0.0 0.0 0.0
0.042 -0.5931746363639832 -0.09651734679937363 0.08642111718654633 1.6740466356277466 0.0 0.0 0.0 0.0
0.043 -0.591437816619873 -0.08743558824062347 0.28445568680763245 1.6589632034301758 0.0 0.0 0.0 0.0
0.044 -0.5901694893836975 -0.07955481112003326 0.43856358528137207 1.6702183485031128 0.0 0.0 0.0 0.0
0.045 -0.5943475365638733 -0.06749394536018372 0.6857035160064697 1.5843994617462158 0.0 0.0 0.0 0.0
0.046 -0.5911853909492493 -0.05755612999200821 0.9030786752700806 1.4170279502868652 0.0 0.0 0.0 0.0
0.047 -0.5889312624931335 -0.04825609177350998 1.0526264905929565 1.3513463735580444 0.0 0.0 0.0 0.0
0.048 -0.5737149715423584 -0.03095938451588154 1.2108230590820312 1.130805492401123 0.0 0.0 0.0 0.0
0.049 -0.571921169757843 -0.04196753725409508 1.3112852573394775 1.0233701467514038 0.0 0.0 0.0 0.0
0.05 -0.587658166885376 -0.0224474985152483 1.4823250770568848 0.895373523235321 0.0 0.0 0.0 0.0
0.051 -0.583237886428833 -0.013674604706466198 1.5688070058822632 0.6482188105583191 0.0 0.0 0.0 0.0
0.052 -0.5825375914573669 -0.008920279331505299 1.6387784481048584 0.45148494839668274 0.0 0.0 0.0 0.0
0.053 -0.5830522775650024 0.0016052331775426865 1.702088713645935 0.29322126507759094 0.0 0.0 0.0 0.0
0.054 -0.5800317525863647 0.010356026701629162 1.7444922924041748 0.09703132510185242 0.0 0.0 0.0 0.0
0.055 -0.5785702466964722 0.017979014664888382 1.6940538883209229 -0.1803627610206604 0.0 0.0 0.0 0.0
0.056 -0.5747701525688171 0.025878818705677986 1.6653765439987183 -0.369853675365448 0.0 0.0 0.0 0.0
0.057 -0.5746057629585266 0.02971344068646431 1.6659305095672607 -0.5237836241722107 0.0 0.0 0.0 0.0
0.058 -0.5763115882873535 0.037604920566082 1.5887662172317505 -0.7400002479553223 0.0 0.0 0.0 0.0
0.059 -0.5724396109580994 0.0495733805000782 1.4549773931503296 -0.9457835555076599 0.0 0.0 0.0 0.0
0.06 -0.5705932974815369 0.053426336497068405 1.2922513484954834 -1.115553379058838 0.0 0.0 0.0 0.0
0.061 -0.5698192119598389 0.06159485876560211 1.1594277620315552 -1.2645291090011597 0.0 0.0 0.0 0.0
0.062 -0.5680227875709534 0.0690278485417366 1.0477945804595947 -1.394783854484558 0.0 0.0 0.0 0.0
0.063 -0.5665050148963928 0.07302988320589066 0.894609808921814 -1.5197278261184692 0.0 0.0 0.0 0.0
0.064 -0.5751410722732544 0.0847586840391159 0.7326606512069702 -1.664586067199707 0.0 0.0 0.0 0.0
0.065 -0.5896223783493042 0.11097628623247147 0.3721950650215149 -1.7692856788635254 0.0 0.0 0.0 0.0
0.066 -0.5643042922019958 0.09621357172727585 0.22318719327449799 -1.7188148498535156 0.0 0.0 0.0 0.0
0.067 -0.5608422756195068 0.10522636771202087 -0.007210973650217056 -1.7338969707489014 0.0 0.0 0.0 0.0
0.068 -0.5582672357559204 0.11043934524059296 -0.14217053353786469 -1.7656683921813965 0.0 0.0 0.0 0.0
0.069 -0.5560067296028137 0.11708030104637146 -0.3979301154613495 -1.7144304513931274 0.0 0.0 0.0 0.0
0.07 -0.5567303895950317 0.12273216992616653 -0.6596642136573792 -1.6080013513565063 0.0 0.0 0.0 0.0
0.071 -0.5527823567390442 0.12964583933353424 -0.8477543592453003 -1.51266348361969 0.0 0.0 0.0 0.0
0.072 -0.552125871181488 0.13832175731658936 -1.0438544750213623 -1.4286876916885376 0.0 0.0 0.0 0.0
0.073 -0.5490384697914124 0.1472306251525879 -1.2174776792526245 -1.2650799751281738 0.0 0.0 0.0 0.0
0.074 -0.5467665195465088 0.15252521634101868 -1.3601640462875366 -1.1716792583465576 0.0 0.0 0.0 0.0
0.075 -0.5426146984100342 0.16092540323734283 -1.494673490524292 -0.8734543323516846 0.0 0.0 0.0 0.0
0.076 -0.5378919243812561 0.16769392788410187 -1.6040865182876587 -0.6779958605766296 0.0 0.0 0.0 0.0
0.077 -0.5355135798454285 0.17411886155605316 -1.7093607187271118 -0.5386695861816406 0.0 0.0 0.0 0.0
0.078 -0.535277247428894 0.1836991161108017 -1.753219723701477 -0.23070532083511353 0.0 0.0 0.0 0.0
0.079 -0.5284057855606079 0.190497487783432 -1.7588820457458496 -0.015826528891921043 0.0 0.0 0.0 0.0
0.08 -0.5279427170753479 0.19900302588939667 -1.78982675075531 0.17502041161060333 0.0 0.0 0.0 0.0
0.081 -0.5229480266571045 0.20936235785484314 -1.7281121015548706 0.442719042301178 0.0 0.0 0.0 0.0
0.082 -0.5195726752281189 0.21530938148498535 -1.6101287603378296 0.700947642326355 0.0 0.0 0.0 0.0
0.083 -0.5155907273292542 0.21951965987682343 -1.5999754667282104 0.8381989598274231 0.0 0.0 0.0 0.0
0.084 -0.515427827835083 0.22195109724998474 -1.4524911642074585 1.0562628507614136 0.0 0.0 0.0 0.0
0.085 -0.5146864652633667 0.23052829504013062 -1.2495158910751343 1.2455275058746338 0.0 0.0 0.0 0.0
0.086 -0.5125970840454102 0.23640860617160797 -1.1308739185333252 1.3953105211257935 0.0 0.0 0.0 0.0
0.087 -0.5102911591529846 0.24076968431472778 -0.8800162672996521 1.5345295667648315 0.0 0.0 0.0 0.0
0.088 -0.5087621808052063 0.24722866714000702 -0.7052868008613586 1.6450258493423462 0.0 0.0 0.0 0.0
0.089 -0.505858302116394 0.25303640961647034 -0.4503478407859802 1.7099820375442505 0.0 0.0 0.0 0.0
0.09 -0.5023512840270996 0.2593895494937897 -0.21922555565834045 1.7534135580062866 0.0 0.0 0.0 0.0
0.091 -0.5015718340873718 0.2657729387283325 -0.05582786723971367 1.8170201778411865 0.0 0.0 0.0 0.0
0.092 -0.4965662658214569 0.27126219868659973 0.2521255910396576 1.7543914318084717 0.0 0.0 0.0 0.0
0.093 -0.4936780035495758 0.275540292263031 0.43552863597869873 1.7574890851974487 0.0 0.0 0.0 0.0
0.094 -0.491296648979187 0.28254544734954834 0.7079750299453735 1.6357519626617432 0.0 0.0 0.0 0.0
0.095 -0.48849666118621826 0.2904053330421448 0.8733459711074829 1.6084941625595093 0.0 0.0 0.0 0.0
0.096 -0.4300656318664551 0.3063364028930664 1.11686372756958 1.2290492057800293 0.0 0.0 0.0 0.0
0.097 -0.45531874895095825 0.28224390745162964 1.214066982269287 1.2078537940979004 0.0 0.0 0.0 0.0
0.098 -0.4740544855594635 0.3110782206058502 1.4736493825912476 1.0274450778961182 0.0 0.0 0.0 0.0
0.099 -0.4680633544921875 0.31757187843322754 1.5945258140563965 0.7999110817909241 0.0 0.0 0.0 0.0
0.1 -0.4616672694683075 0.3407829701900482 1.7371357679367065 0.5445332527160645 0.0 0.0 0.0 0.0
0.101 -0.4208652377128601 0.3621439039707184 1.5352146625518799 0.3562529981136322 0.0 0.0 0.0 0.0
0.102 -0.41431543231010437 0.3668813705444336 1.5307035446166992 0.05203539505600929 0.0 0.0 0.0 0.0
0.103 -0.40810543298721313 0.37513914704322815 1.5202019214630127 -0.1688932329416275 0.0 0.0 0.0 0.0
0.104 -0.39981940388679504 0.3807317614555359 1.5012425184249878 -0.37279176712036133 0.0 0.0 0.0 0.0
0.105 -0.3927002549171448 0.38795971870422363 1.4924637079238892 -0.5309739112854004 0.0 0.0 0.0 0.0
0.106 -0.38468268513679504 0.3917153775691986 1.4176998138427734 -0.7313582897186279 0.0 0.0 0.0 0.0
0.107 -0.37631291151046753 0.39966514706611633 1.265149474143982 -0.933112621307373 0.0 0.0 0.0 0.0
0.108 -0.36820805072784424 0.40245071053504944 1.1254364252090454 -1.102622151374817 0.0 0.0 0.0 0.0
0.109 -0.36042195558547974 0.40904510021209717 0.9019670486450195 -1.2569355964660645 0.0 0.0 0.0 0.0
0.11 -0.3520415723323822 0.41224443912506104 0.7128581404685974 -1.3678345680236816 0.0 0.0 0.0 0.0
0.111 -0.34618711471557617 0.41736048460006714 0.5120440721511841 -1.4523160457611084 0.0 0.0 0.0 0.0
0.112 -0.3427709937095642 0.42002245783805847 0.31102973222732544 -1.5052194595336914 0.0 0.0 0.0 0.0
0.113 -0.3343716263771057 0.425826758146286 0.10454896837472916 -1.536829948425293 0.0 0.0 0.0 0.0
0.114 -0.3313913643360138 0.42881032824516296 -0.1042243167757988 -1.5354127883911133 0.0 0.0 0.0 0.0
0.115 -0.32573840022087097 0.43450626730918884 -0.3070400059223175 -1.5146620273590088 0.0 0.0 0.0 0.0
0.116 -0.31844520568847656 0.43693578243255615 -0.4978387653827667 -1.467938780784607 0.0 0.0 0.0 0.0
0.117 -0.31432127952575684 0.4418432116508484 -0.6962236166000366 -1.390732765197754 0.0 0.0 0.0 0.0
0.118 -0.307821124792099 0.4457376301288605 -0.8668311238288879 -1.2738970518112183 0.0 0.0 0.0 0.0
0.119 -0.3023971617221832 0.4496484100818634 -1.0215097665786743 -1.190301775932312 0.0 0.0 0.0 0.0
0.12 -0.2960619628429413 0.45469674468040466 -1.1767117977142334 -1.0021147727966309 0.0 0.0 0.0 0.0
0.121 -0.290656179189682 0.45901843905448914 -1.3010324239730835 -0.8720387816429138 0.0 0.0 0.0 0.0
0.122 -0.28612059354782104 0.4620455801486969 -1.4002619981765747 -0.6748924255371094 0.0 0.0 0.0 0.0
0.123 -0.27926647663116455 0.4656882584095001 -1.4838718175888062 -0.4906872510910034 0.0 0.0 0.0 0.0
0.124 -0.2733233571052551 0.4674695134162903 -1.5250651836395264 -0.2808408737182617 0.0 0.0 0.0 0.0
0.125 -0.2661846876144409 0.47076910734176636 -1.5949121713638306 -0.16055890917778015 0.0 0.0 0.0 0.0
0.126 -0.25841665267944336 0.47248944640159607 -1.57253098487854 0.09804493933916092 0.0 0.0 0.0 0.0
0.127 -0.2507895827293396 0.47374895215034485 -1.5741157531738281 0.2673897445201874 0.0 0.0 0.0 0.0
0.128 -0.2441481351852417 0.4734116196632385 -1.4803389310836792 0.5024401545524597 0.0 0.0 0.0 0.0
0.129 -0.2377147078514099 0.4748475253582001 -1.4966018199920654 0.6169414520263672 0.0 0.0 0.0 0.0
0.13 -0.23120515048503876 0.47540339827537537 -1.39485502243042 0.8083589673042297 0.0 0.0 0.0 0.0
0.131 -0.22336216270923615 0.47342801094055176 -1.2556421756744385 0.9626935124397278 0.0 0.0 0.0 0.0
0.132 -0.21872790157794952 0.47546496987342834 -1.1441625356674194 1.121627688407898 0.0 0.0 0.0 0.0
0.133 -0.21325235068798065 0.47492703795433044 -0.9998694062232971 1.2481777667999268 0.0 0.0 0.0 0.0
0.134 -0.20725780725479126 0.47674500942230225 -0.8517265319824219 1.3785157203674316 0.0 0.0 0.0 0.0
0.135 -0.20114931464195251 0.47670888900756836 -0.5704620480537415 1.446541428565979 0.0 0.0 0.0 0.0
0.136 -0.1968638300895691 0.478930801153183 -0.3679306209087372 1.5095033645629883 0.0 0.0 0.0 0.0
0.137 -0.18985526263713837 0.4802546203136444 -0.1824103146791458 1.5440077781677246 0.0 0.0 0.0 0.0
0.138 -0.18663892149925232 0.48346343636512756 -0.04034186899662018 1.5996226072311401 0.0 0.0 0.0 0.0
0.139 -0.1796817034482956 0.48509952425956726 0.19379562139511108 1.5478041172027588 0.0 0.0 0.0 0.0
0.14 -0.17637982964515686 0.4864838719367981 0.38392555713653564 1.5251572132110596 0.0 0.0 0.0 0.0
0.141 -0.16858862340450287 0.4887333810329437 0.5670432448387146 1.474039912223816 0.0 0.0 0.0 0.0
0.142 -0.16351668536663055 0.48949310183525085 0.7649153470993042 1.3716137409210205 0.0 0.0 0.0 0.0
0.143 -0.15843184292316437 0.49040383100509644 0.9063615798950195 1.316064476966858 0.0 0.0 0.0 0.0
0.144 -0.1522265523672104 0.49328702688217163 1.0627357959747314 1.2146378755569458 0.0 0.0 0.0 0.0
0.145 -0.14432096481323242 0.4949710965156555 1.2226771116256714 0.9697926044464111 0.0 0.0 0.0 0.0
0.146 -0.14054708182811737 0.4967617690563202 1.346756100654602 0.8863865733146667 0.0 0.0 0.0 0.0
0.147 -0.1321941316127777 0.49669691920280457 1.441344141960144 0.7078472971916199 0.0 0.0 0.0 0.0
0.148 -0.1256987452507019 0.4993288815021515 1.5132014751434326 0.46431973576545715 0.0 0.0 0.0 0.0
0.149 -0.11938781291246414 0.4994319677352905 1.5741782188415527 0.31611931324005127 0.0 0.0 0.0 0.0
0.15 -0.11324326694011688 0.500862717628479 1.611147403717041 0.13965770602226257 0.0 0.0 0.0 0.0
0.151 -0.10661641508340836 0.502122700214386 1.6055505275726318 -0.08938149362802505 0.0 0.0 0.0 0.0
0.152 -0.0995895192027092 0.500691294670105 1.58169686794281 -0.2796453833580017 0.0 0.0 0.0 0.0
0.153 -0.09301295131444931 0.5022717118263245 1.4936813116073608 -0.5216803550720215 0.0 0.0 0.0 0.0
0.154 -0.08719847351312637 0.5013117790222168 1.4819644689559937 -0.6592265963554382 0.0 0.0 0.0 0.0
0.155 -0.08205650001764297 0.501621663570404 1.3298590183258057 -0.8820046186447144 0.0 0.0 0.0 0.0
0.156 -0.07581324875354767 0.5005365014076233 1.1766506433486938 -1.0518786907196045 0.0 0.0 0.0 0.0
0.157 -0.06972447037696838 0.5006335973739624 1.1216351985931396 -1.1752616167068481 0.0 0.0 0.0 0.0
0.158 -0.06391382217407227 0.49964386224746704 0.9162070155143738 -1.31440007686615 0.0 0.0 0.0 0.0
0.159 -0.058578163385391235 0.501508891582489 0.7191334366798401 -1.4284776449203491 0.0 0.0 0.0 0.0
0.16 -0.05325496196746826 0.4995075464248657 0.531928300857544 -1.4984298944473267 0.0 0.0 0.0 0.0
0.161 -0.04786499962210655 0.5015597939491272 0.3186191916465759 -1.5532416105270386 0.0 0.0 0.0 0.0
0.162 -0.043674491345882416 0.4999043047428131 0.12798377871513367 -1.5919408798217773 0.0 0.0 0.0 0.0
0.163 -0.037783555686473846 0.5017226338386536 -0.09367445856332779 -1.5783181190490723 0.0 0.0 0.0 0.0
0.164 -0.03283741697669029 0.501063883304596 -0.2553131878376007 -1.5861510038375854 0.0 0.0 0.0 0.0
0.165 -0.02520478516817093 0.5001814961433411 -0.45907431840896606 -1.543559193611145 0.0 0.0 0.0 0.0
0.166 -0.020433561876416206 0.5007917284965515 -0.6595444679260254 -1.4698147773742676 0.0 0.0 0.0 0.0
0.167 -0.01508022379130125 0.5030122399330139 -0.8239697217941284 -1.4076950550079346 0.0 0.0 0.0 0.0
0.168 -0.009186402894556522 0.5020359754562378 -1.0095691680908203 -1.2428346872329712 0.0 0.0 0.0 0.0
0.169 -0.002146841026842594 0.5023019909858704 -1.1540857553482056 -1.1513277292251587 0.0 0.0 0.0 0.0
0.17 0.0033843498677015305 0.5018649697303772 -1.2931140661239624 -0.9997677803039551 0.0 0.0 0.0 0.0
0.171 0.011002667248249054 0.5003447532653809 -1.4084210395812988 -0.8100922703742981 0.0 0.0 0.0 0.0
0.172 0.01804904267191887 0.5004644393920898 -1.5048567056655884 -0.6379434466362 0.0 0.0 0.0 0.0
0.173 0.02377915568649769 0.49877670407295227 -1.5560392141342163 -0.363559752702713 0.0 0.0 0.0 0.0
0.174 0.0325595885515213 0.4979661703109741 -1.6088677644729614 -0.1938856691122055 0.0 0.0 0.0 0.0
0.175 0.03743145987391472 0.4968990981578827 -1.6318494081497192 -0.0055160680785775185 0.0 0.0 0.0 0.0
0.176 0.04428545758128166 0.49540603160858154 -1.607337236404419 0.2177346795797348 0.0 0.0 0.0 0.0
0.177 0.05035907030105591 0.4934987425804138 -1.5890982151031494 0.3990543782711029 0.0 0.0 0.0 0.0
0.178 0.057318832725286484 0.4937419295310974 -1.5136148929595947 0.6198856830596924 0.0 0.0 0.0 0.0
0.179 0.06269650906324387 0.4911996126174927 -1.3919613361358643 0.8179385662078857 0.0 0.0 0.0 0.0
0.18 0.06896185129880905 0.4890073239803314 -1.2665287256240845 1.0104765892028809 0.0 0.0 0.0 0.0
0.181 0.0736813098192215 0.48684176802635193 -1.1154109239578247 1.1601953506469727 0.0 0.0 0.0 0.0
0.182 0.08106866478919983 0.48563113808631897 -0.9930790066719055 1.3007503747940063 0.0 0.0 0.0 0.0
0.183 0.08551599085330963 0.48488330841064453 -0.7966384887695312 1.4146173000335693 0.0 0.0 0.0 0.0
0.184 0.09256890416145325 0.4831123650074005 -0.5809239149093628 1.4977920055389404 0.0 0.0 0.0 0.0
0.185 0.09607088565826416 0.4810452163219452 -0.4837930202484131 1.5918210744857788 0.0 0.0 0.0 0.0
0.186 0.10273280739784241 0.47932690382003784 -0.17407938838005066 1.6018517017364502 0.0 0.0 0.0 0.0
0.187 0.1079537644982338 0.47665655612945557 -0.034826502203941345 1.6414635181427002 0.0 0.0 0.0 0.0
0.188 0.11274538189172745 0.4755699932575226 0.2475801557302475 1.5996325016021729 0.0 0.0 0.0 0.0
0.189 0.11855002492666245 0.47544825077056885 0.4338585436344147 1.5583239793777466 0.0 0.0 0.0 0.0
0.19 0.12271223962306976 0.47234994173049927 0.6043747663497925 1.5467511415481567 0.0 0.0 0.0 0.0
0.191 0.12995772063732147 0.4716140031814575 0.80308598279953 1.4430791139602661 0.0 0.0 0.0 0.0
0.192 0.1352720856666565 0.47091707587242126 0.9736344814300537 1.351742148399353 0.0 0.0 0.0 0.0
0.193 0.13980498909950256 0.46843770146369934 1.1365530490875244 1.209571361541748 0.0 0.0 0.0 0.0
0.194 0.1465863734483719 0.46633511781692505 1.2872393131256104 1.062604308128357 0.0 0.0 0.0 0.0
0.195 0.15359815955162048 0.4638061225414276 1.4068632125854492 0.7912460565567017 0.0 0.0 0.0 0.0
0.196 0.15883921086788177 0.4613371193408966 1.522916555404663 0.6855653524398804 0.0 0.0 0.0 0.0
0.197 0.1653939187526703 0.4585947096347809 1.5736656188964844 0.41596877574920654 0.0 0.0 0.0 0.0
