!Created with skrf (http://scikit-rf.org).
# GHz S RI R 50.0 
!freq ReS11 ImS11 ReS21 ImS21 ReS12 ImS12 ReS22 ImS22
0.001 0.9487187266349792 -0.32462790608406067 6.365962326526642e-05 -0.00023738667368888855 0.0 0.0 0.0 0.0
0.002 0.685649037361145 -0.4655244052410126 0.00016325712203979492 -8.658505976200104e-05 0.0 0.0 0.0 0.0
0.003 0.4940943121910095 -0.46208667755126953 0.00012122280895709991 0.0 0.0 0.0 0.0 0.0
0.004 0.36811399459838867 -0.43177419900894165 -0.00012823659926652908 -6.110779941082001e-05 0.0 0.0 0.0 0.0
0.005 0.2830578088760376 -0.3883896768093109 7.843319326639175e-05 -0.00015861168503761292 0.0 0.0 0.0 0.0
0.006 0.2323046624660492 -0.3460090160369873 0.0001663416624069214 7.846392691135406e-06 0.0 0.0 0.0 0.0
0.007 0.19923430681228638 -0.30651894211769104 0.00018560420721769333 -0.0001745373010635376 0.0 0.0 0.0 0.0
0.008 0.17546872794628143 -0.277023583650589 8.294358849525452e-06 -2.4488195776939392e-05 0.0 0.0 0.0 0.0
0.009 0.15981009602546692 -0.2543025016784668 -4.9124471843242645e-05 -0.0001666005700826645 0.0 0.0 0.0 0.0
0.01 0.14908432960510254 -0.23463769257068634 -0.00021908152848482132 -0.00019385386258363724 0.0 0.0 0.0 0.0
0.011 0.14082954823970795 -0.22103910148143768 3.153085708618164e-05 0.0001089833676815033 0.0 0.0 0.0 0.0
0.012 0.13340115547180176 -0.21096183359622955 -4.3011270463466644e-05 3.845430910587311e-06 0.0 0.0 0.0 0.0
0.013 0.12825573980808258 -0.20039397478103638 0.00015496741980314255 1.019798219203949e-06 0.0 0.0 0.0 0.0
0.014 0.1207418441772461 -0.19419622421264648 -2.0116567611694336e-05 -8.535385131835938e-05 0.0 0.0 0.0 0.0
0.015 0.11545319110155106 -0.18663807213306427 -3.0489638447761536e-05 2.0485371351242065e-05 0.0 0.0 0.0 0.0
0.016 0.10961470752954483 -0.18302492797374725 -0.0013784794136881828 0.00023468118160963058 0.0 0.0 0.0 0.0
0.017 0.10483227670192719 -0.17739711701869965 -0.00019157305359840393 -0.00026038940995931625 0.0 0.0 0.0 0.0
0.018 0.09830157458782196 -0.173748180270195 -0.0002780742943286896 -0.00021043792366981506 0.0 0.0 0.0 0.0
0.019 0.09288077801465988 -0.17110221087932587 -0.0006937980651855469 0.00010630767792463303 0.0 0.0 0.0 0.0
0.02 0.08453800529241562 -0.16605119407176971 0.0007238434627652168 0.0023545045405626297 0.0 0.0 0.0 0.0
0.021 0.07844023406505585 -0.160935178399086 0.0008269995450973511 -0.0001686830073595047 0.0 0.0 0.0 0.0
0.022 0.07241459935903549 -0.15646854043006897 0.00029420945793390274 -0.0002577807754278183 0.0 0.0 0.0 0.0
0.023 0.06630413234233856 -0.15152835845947266 0.00021465960890054703 -0.0002972772344946861 0.0 0.0 0.0 0.0
0.024 0.06024138256907463 -0.14778822660446167 -0.00045087840408086777 -0.0006308583542704582 0.0 0.0 0.0 0.0
0.025 0.05564054101705551 -0.1396929770708084 -0.00011898018419742584 -0.0002560345456004143 0.0 0.0 0.0 0.0
0.026 0.051637958735227585 -0.1350078284740448 -0.00015915371477603912 -8.574780076742172e-05 0.0 0.0 0.0 0.0
0.027 0.047549545764923096 -0.12941303849220276 -3.509875386953354e-05 -5.964469164609909e-05 0.0 0.0 0.0 0.0
0.028 0.04341350495815277 -0.12250020354986191 -0.00013634655624628067 -0.00021698884665966034 0.0 0.0 0.0 0.0
0.029 0.041407261043787 -0.11591008305549622 -8.762534707784653e-05 -7.973518222570419e-05 0.0 0.0 0.0 0.0
0.03 0.04020833969116211 -0.10882570594549179 -0.00010516028851270676 6.766151636838913e-05 0.0 0.0 0.0 0.0
0.031 0.03930380567908287 -0.10338586568832397 -0.0002617212012410164 -9.419023990631104e-05 0.0 0.0 0.0 0.0
0.032 0.039552196860313416 -0.09720286726951599 0.0018903780728578568 0.0003041960299015045 0.0 0.0 0.0 0.0
0.033 0.03837073966860771 -0.09145539253950119 -0.0006073145195841789 7.590465247631073e-05 0.0 0.0 0.0 0.0
0.034 0.039749689400196075 -0.08598189055919647 -0.00037988461554050446 0.0002681529149413109 0.0 0.0 0.0 0.0
0.035 0.04197729751467705 -0.08133484423160553 0.00021288171410560608 0.00020066555589437485 0.0 0.0 0.0 0.0
0.036 0.044953349977731705 -0.07920774072408676 0.00028406642377376556 0.00036404095590114594 0.0 0.0 0.0 0.0
0.037 0.04747295379638672 -0.0761285126209259 0.00016731955111026764 -6.923452019691467e-06 0.0 0.0 0.0 0.0
0.038 0.04950525984168053 -0.07305438816547394 0.0001286342740058899 -0.00016017816960811615 0.0 0.0 0.0 0.0
0.039 0.051979560405015945 -0.07241380214691162 5.794689059257507e-06 -0.00014179851859807968 0.0 0.0 0.0 0.0
0.04 0.0543479360640049 -0.0698760598897934 -6.267894059419632e-05 3.39532271027565e-05 0.0 0.0 0.0 0.0
0.041 0.05716903880238533 -0.0697995126247406 -0.00011874176561832428 -0.00020426418632268906 0.0 0.0 0.0 0.0
0.042 0.05921247601509094 -0.07033441960811615 -1.7171725630760193e-05 2.3292377591133118e-05 0.0 0.0 0.0 0.0
0.043 0.06038524582982063 -0.07207134366035461 2.2805295884609222e-05 9.86643135547638e-05 0.0 0.0 0.0 0.0
0.044 0.06190779060125351 -0.07469290494918823 -1.177377998828888e-05 7.482245564460754e-06 0.0 0.0 0.0 0.0
0.045 0.06106778234243393 -0.07491210103034973 -0.00013171136379241943 -0.00013640057295560837 0.0 0.0 0.0 0.0
0.046 0.06214470788836479 -0.07662304490804672 -0.00015729665756225586 -4.88748773932457e-05 0.0 0.0 0.0 0.0
0.047 0.0610310398042202 -0.07826341688632965 -0.00012821145355701447 8.877832442522049e-05 0.0 0.0 0.0 0.0
0.048 0.058853499591350555 -0.08021948486566544 -4.351139068603516e-06 -0.00022487808018922806 0.0 0.0 0.0 0.0
0.049 0.05839693173766136 -0.08195684105157852 -0.00010000821202993393 0.0001663127914071083 0.0 0.0 0.0 0.0
0.05 0.05541267991065979 -0.08370959758758545 -0.0001607947051525116 0.0003338949754834175 0.0 0.0 0.0 0.0
0.051 0.0511830598115921 -0.08366820961236954 0.0004381779581308365 -0.000360758975148201 0.0 0.0 0.0 0.0
0.052 0.047777481377124786 -0.08358520269393921 -0.0004178779199719429 -0.00032026320695877075 0.0 0.0 0.0 0.0
0.053 0.04540553689002991 -0.08275964856147766 -0.00017818063497543335 0.0001743696630001068 0.0 0.0 0.0 0.0
0.054 0.04343969374895096 -0.0820375457406044 0.0001428462564945221 1.0048039257526398e-05 0.0 0.0 0.0 0.0
0.055 0.03973785787820816 -0.0812496617436409 0.0001226421445608139 -4.619918763637543e-05 0.0 0.0 0.0 0.0
0.056 0.035332877188920975 -0.07889852672815323 0.0002069137990474701 -0.000157979317009449 0.0 0.0 0.0 0.0
0.057 0.03267401084303856 -0.07516919821500778 -0.00026018451899290085 -0.00017144624143838882 0.0 0.0 0.0 0.0
0.058 0.031199324876070023 -0.07200058549642563 -0.00046741776168346405 8.806213736534119e-05 0.0 0.0 0.0 0.0
0.059 0.030831430107355118 -0.06927509605884552 -0.000231938436627388 0.0007169889286160469 0.0 0.0 0.0 0.0
0.06 0.027738086879253387 -0.06566030532121658 0.0006187576800584793 0.0006845146417617798 0.0 0.0 0.0 0.0
0.061 0.02811628207564354 -0.06188010424375534 0.0009874403476715088 0.00019157212227582932 0.0 0.0 0.0 0.0
0.062 0.02843296527862549 -0.05774197727441788 0.0007421243935823441 -0.00018013641238212585 0.0 0.0 0.0 0.0
0.063 0.028849216178059578 -0.053205568343400955 0.0007375599816441536 -0.0005643432959914207 0.0 0.0 0.0 0.0
0.064 0.029991362243890762 -0.04857383295893669 -6.967969238758087e-05 0.0008163917809724808 0.0 0.0 0.0 0.0
0.065 0.03304126486182213 -0.04579922556877136 -1.4061108231544495e-05 -0.0012602843344211578 0.0 0.0 0.0 0.0
0.066 0.0359359048306942 -0.04331814870238304 -0.001143026165664196 -0.0007785763591527939 0.0 0.0 0.0 0.0
0.067 0.038871463388204575 -0.041693855077028275 -0.0007646083831787109 0.00040104519575834274 0.0 0.0 0.0 0.0
0.068 0.04124503582715988 -0.039891768246889114 -9.855441749095917e-05 0.0007113320752978325 0.0 0.0 0.0 0.0
0.069 0.04480230435729027 -0.03942134976387024 -0.00034681428223848343 0.0003041662275791168 0.0 0.0 0.0 0.0
0.07 0.048303551971912384 -0.0383140929043293 -6.864778697490692e-05 0.0004131598398089409 0.0 0.0 0.0 0.0
0.071 0.05151791125535965 -0.03815083205699921 -9.043607860803604e-05 0.00014451798051595688 0.0 0.0 0.0 0.0
0.072 0.05683523789048195 -0.03955918923020363 4.314258694648743e-05 0.00019166432321071625 0.0 0.0 0.0 0.0
0.073 0.059329066425561905 -0.0420302078127861 -0.0001534176990389824 0.00019939616322517395 0.0 0.0 0.0 0.0
0.074 0.06189161539077759 -0.04399968311190605 -1.3985671103000641e-05 0.00010292977094650269 0.0 0.0 0.0 0.0
0.075 0.06366770714521408 -0.047389302402734756 0.00015004724264144897 4.8619695007801056e-05 0.0 0.0 0.0 0.0
0.076 0.06415461748838425 -0.051478393375873566 8.283834904432297e-05 -8.602626621723175e-05 0.0 0.0 0.0 0.0
0.077 0.0644187331199646 -0.054359350353479385 5.204230546951294e-05 -7.204897701740265e-05 0.0 0.0 0.0 0.0
0.078 0.0649898424744606 -0.05654240399599075 -3.4596771001815796e-05 -6.376300007104874e-05 0.0 0.0 0.0 0.0
0.079 0.06404811888933182 -0.06096143275499344 -2.7398578822612762e-05 -0.00011783838272094727 0.0 0.0 0.0 0.0
0.08 0.063304103910923 -0.06378942728042603 9.217113256454468e-05 0.00011053774505853653 0.0 0.0 0.0 0.0
0.081 0.06295421719551086 -0.06695856153964996 0.00013619661331176758 6.134063005447388e-05 0.0 0.0 0.0 0.0
0.082 0.06010694429278374 -0.06998548656702042 -1.701340079307556e-05 2.1476298570632935e-06 0.0 0.0 0.0 0.0
0.083 0.056124135851860046 -0.07273297756910324 8.904654532670975e-05 -0.00017998740077018738 0.0 0.0 0.0 0.0
0.084 0.05229325592517853 -0.07414588332176208 -0.00020901672542095184 -0.0004334729164838791 0.0 0.0 0.0 0.0
0.085 0.048810578882694244 -0.07434689998626709 -0.0003598257899284363 -0.00034189317375421524 0.0 0.0 0.0 0.0
0.086 0.046484798192977905 -0.07377587258815765 -0.0006437646225094795 -6.203353404998779e-05 0.0 0.0 0.0 0.0
0.087 0.04269319772720337 -0.07438962906599045 -0.000866815447807312 0.00023215636610984802 0.0 0.0 0.0 0.0
0.088 0.03915718197822571 -0.073820099234581 -0.0008045593276619911 0.0006959894672036171 0.0 0.0 0.0 0.0
0.089 0.03531955927610397 -0.07095981389284134 0.002042061649262905 0.0032841572538018227 0.0 0.0 0.0 0.0
0.09 0.032339707016944885 -0.0696442499756813 0.00015973113477230072 0.0015153195708990097 0.0 0.0 0.0 0.0
0.091 0.02987019158899784 -0.06649946421384811 0.001258724369108677 0.0015310831367969513 0.0 0.0 0.0 0.0
0.092 0.02865040861070156 -0.06460639089345932 0.0009892554953694344 0.0015295445919036865 0.0 0.0 0.0 0.0
0.093 0.02609248459339142 -0.06148408353328705 0.001264330931007862 -0.00011939834803342819 0.0 0.0 0.0 0.0
0.094 0.02542770467698574 -0.05862130597233772 0.000816022977232933 -0.0003101350739598274 0.0 0.0 0.0 0.0
0.095 0.02473573572933674 -0.05441734939813614 0.00045533478260040283 -0.0005609206855297089 0.0 0.0 0.0 0.0
0.096 0.025340842083096504 -0.05226156488060951 -0.0014858981594443321 -0.0017279395833611488 0.0 0.0 0.0 0.0
0.097 0.02642749436199665 -0.04724746569991112 -9.397044777870178e-06 -0.00022289901971817017 0.0 0.0 0.0 0.0
0.098 0.02876284532248974 -0.04534144699573517 0.00011310447007417679 -0.00046296417713165283 0.0 0.0 0.0 0.0
0.099 0.031133919954299927 -0.04262499883770943 1.184176653623581e-05 -0.00018455740064382553 0.0 0.0 0.0 0.0
0.1 0.03236768767237663 -0.042337752878665924 0.0001046936959028244 -0.0002788035199046135 0.0 0.0 0.0 0.0
0.101 0.03282518684864044 -0.04025885835289955 0.0003776904195547104 -0.00027220044285058975 0.0 0.0 0.0 0.0
0.102 0.03630182892084122 -0.038937345147132874 0.0005517285317182541 -0.0003444179892539978 0.0 0.0 0.0 0.0
0.103 0.03899867832660675 -0.03829813748598099 0.00021066609770059586 -0.000690762884914875 0.0 0.0 0.0 0.0
0.104 0.04095184803009033 -0.04029405489563942 -0.00025224778801202774 -0.0010278243571519852 0.0 0.0 0.0 0.0
0.105 0.0439438596367836 -0.04124407842755318 -0.00042710080742836 -0.0009271958842873573 0.0 0.0 0.0 0.0
0.106 0.045147426426410675 -0.04224713519215584 -0.0008345851674675941 -0.0006528226658701897 0.0 0.0 0.0 0.0
0.107 0.046940382570028305 -0.044926609843969345 -0.0010304711759090424 -0.00035553984344005585 0.0 0.0 0.0 0.0
0.108 0.04761819913983345 -0.04600782319903374 -0.0010863514617085457 0.00014988798648118973 0.0 0.0 0.0 0.0
0.109 0.048804234713315964 -0.04914943128824234 -0.001003260724246502 0.00025927647948265076 0.0 0.0 0.0 0.0
0.11 0.04824327677488327 -0.05142892152070999 -0.0007841214537620544 0.0006399340927600861 0.0 0.0 0.0 0.0
0.111 0.04655484855175018 -0.05315770208835602 -0.0007002614438533783 0.0007995814085006714 0.0 0.0 0.0 0.0
0.112 0.046648360788822174 -0.056012559682130814 -0.00036259274929761887 0.0007939301431179047 0.0 0.0 0.0 0.0
0.113 0.04480763152241707 -0.058732543140649796 -0.00011301226913928986 0.0008834684267640114 0.0 0.0 0.0 0.0
0.114 0.041997551918029785 -0.0595194473862648 0.000173056498169899 0.0009253993630409241 0.0 0.0 0.0 0.0
0.115 0.03890430927276611 -0.06045097857713699 7.518753409385681e-05 0.0007453262805938721 0.0 0.0 0.0 0.0
0.116 0.036917269229888916 -0.06029360368847847 0.0002826787531375885 0.0008303821086883545 0.0 0.0 0.0 0.0
0.117 0.03446599096059799 -0.06067781150341034 0.0004418063908815384 0.0008444124832749367 0.0 0.0 0.0 0.0
0.118 0.03092186339199543 -0.06019137054681778 0.0007709003984928131 0.0006227921694517136 0.0 0.0 0.0 0.0
0.119 0.028833234682679176 -0.05937311425805092 0.0011346247047185898 0.0005140332505106926 0.0 0.0 0.0 0.0
0.12 0.02526763267815113 -0.05683028697967529 0.0014267470687627792 5.2187591791152954e-05 0.0 0.0 0.0 0.0
0.121 0.02216625027358532 -0.05484110489487648 0.0011310447007417679 -0.0004887478426098824 0.0 0.0 0.0 0.0
0.122 0.02112339250743389 -0.05281310901045799 0.0008412906900048256 -0.0010771630331873894 0.0 0.0 0.0 0.0
0.123 0.01927383430302143 -0.04954775050282478 0.0004631560295820236 -0.0012909537181258202 0.0 0.0 0.0 0.0
0.124 0.019418960437178612 -0.04506918415427208 -0.00028079189360141754 -0.0011763442307710648 0.0 0.0 0.0 0.0
0.125 0.019051630049943924 -0.04114886000752449 -0.0009444765746593475 -0.0006980737671256065 0.0 0.0 0.0 0.0
0.126 0.01985999383032322 -0.03805815428495407 -0.0007174070924520493 -0.00042467471212148666 0.0 0.0 0.0 0.0
0.127 0.020817166194319725 -0.03505794331431389 -0.0007561966776847839 1.9647181034088135e-05 0.0 0.0 0.0 0.0
0.128 0.022181255742907524 -0.03101642243564129 -0.0006831763312220573 5.191843956708908e-05 0.0 0.0 0.0 0.0
0.129 0.024576319381594658 -0.027622045949101448 -0.0005187643691897392 0.0005164323374629021 0.0 0.0 0.0 0.0
0.13 0.02838243544101715 -0.026111675426363945 -0.00019827950745821 0.0006739431992173195 0.0 0.0 0.0 0.0
0.131 0.03254278376698494 -0.022875774651765823 -3.9210543036460876e-05 0.0007836753502488136 0.0 0.0 0.0 0.0
0.132 0.035504717379808426 -0.0227447971701622 0.00044244434684515 0.000688532367348671 0.0 0.0 0.0 0.0
0.133 0.03876741603016853 -0.021973909810185432 0.0008356720209121704 0.00027433130890130997 0.0 0.0 0.0 0.0
0.134 0.043532777577638626 -0.02105669304728508 0.0009426278993487358 -0.0003566443920135498 0.0 0.0 0.0 0.0
0.135 0.04805712029337883 -0.021475544199347496 6.614904850721359e-05 -0.0008450597524642944 0.0 0.0 0.0 0.0
0.136 0.05212022736668587 -0.023986604064702988 -0.0003588637337088585 -0.0004367055371403694 0.0 0.0 0.0 0.0
0.137 0.054496828466653824 -0.026219526305794716 -0.00026937201619148254 -8.811242878437042e-06 0.0 0.0 0.0 0.0
0.138 0.05774256959557533 -0.02862655371427536 -8.199643343687057e-05 6.574206054210663e-06 0.0 0.0 0.0 0.0
0.139 0.06134103983640671 -0.03196301311254501 -9.870342910289764e-05 0.0001632915809750557 0.0 0.0 0.0 0.0
0.14 0.06218010559678078 -0.03571179136633873 0.00014778506010770798 -4.0325336158275604e-05 0.0 0.0 0.0 0.0
0.141 0.06423233449459076 -0.03974177688360214 0.00015525147318840027 8.154287934303284e-05 0.0 0.0 0.0 0.0
0.142 0.0638776570558548 -0.043878473341464996 0.00020545348525047302 -8.919462561607361e-05 0.0 0.0 0.0 0.0
0.143 0.0641617700457573 -0.046619951725006104 -3.389827907085419e-05 -9.674578905105591e-05 0.0 0.0 0.0 0.0
0.144 0.06246150657534599 -0.05105435103178024 -7.12638720870018e-05 -0.000290602445602417 0.0 0.0 0.0 0.0
0.145 0.061620913445949554 -0.05460798367857933 -0.00011441949754953384 -0.00014795642346143723 0.0 0.0 0.0 0.0
0.146 0.05836259573698044 -0.057809457182884216 8.768029510974884e-05 -0.00017093587666749954 0.0 0.0 0.0 0.0
0.147 0.055693529546260834 -0.06092938780784607 9.903311729431152e-05 -0.00021961145102977753 0.0 0.0 0.0 0.0
0.148 0.05278249830007553 -0.06215782091021538 0.00018222536891698837 -0.00023308396339416504 0.0 0.0 0.0 0.0
0.149 0.0494522862136364 -0.06441231071949005 0.00015269219875335693 -0.0004360070452094078 0.0 0.0 0.0 0.0
0.15 0.045204900205135345 -0.06468959152698517 -9.604450315237045e-05 -0.0005777515470981598 0.0 0.0 0.0 0.0
0.151 0.04095872864127159 -0.06417208909988403 -0.0005631055682897568 -0.0006145378574728966 0.0 0.0 0.0 0.0
0.152 0.03783120587468147 -0.06365355849266052 -0.000434093177318573 -0.00033903680741786957 0.0 0.0 0.0 0.0
0.153 0.034451499581336975 -0.061981186270713806 -0.0004364335909485817 -9.538419544696808e-05 0.0 0.0 0.0 0.0
0.154 0.03182865306735039 -0.05930999293923378 -0.0004786308854818344 0.00015441421419382095 0.0 0.0 0.0 0.0
0.155 0.029302889481186867 -0.056530848145484924 -0.0006076525896787643 0.0001810472458600998 0.0 0.0 0.0 0.0
0.156 0.026410767808556557 -0.05357178673148155 -0.000525500625371933 0.00026908237487077713 0.0 0.0 0.0 0.0
0.157 0.02566489763557911 -0.049203645437955856 -0.00049624964594841 0.0005125133320689201 0.0 0.0 0.0 0.0
0.158 0.024742960929870605 -0.04554327577352524 -0.0002758558839559555 0.00042150355875492096 0.0 0.0 0.0 0.0
0.159 0.025229908525943756 -0.04153575375676155 -0.00033065490424633026 0.0007070871070027351 0.0 0.0 0.0 0.0
0.16 0.026229992508888245 -0.03822854533791542 -0.00011893361806869507 0.0005825646221637726 0.0 0.0 0.0 0.0
0.161 0.02807789295911789 -0.03353411331772804 0.0002283230423927307 0.0010337289422750473 0.0 0.0 0.0 0.0
0.162 0.03059040941298008 -0.031093301251530647 0.0003983462229371071 0.0004665497690439224 0.0 0.0 0.0 0.0
0.163 0.033532630652189255 -0.027867041528224945 0.0004295865073800087 0.0006338478997349739 0.0 0.0 0.0 0.0
0.164 0.0367288738489151 -0.025571903213858604 0.0005401056259870529 0.0005352376028895378 0.0 0.0 0.0 0.0
0.165 0.04080991819500923 -0.02360530197620392 0.0003846120089292526 0.0006201062351465225 0.0 0.0 0.0 0.0
0.166 0.044910844415426254 -0.02225622721016407 0.000570906326174736 0.00042063184082508087 0.0 0.0 0.0 0.0
0.167 0.049368515610694885 -0.0221299696713686 0.0007381858304142952 0.00038828328251838684 0.0 0.0 0.0 0.0
0.168 0.053424809128046036 -0.02396128699183464 0.0010941838845610619 3.928225487470627e-05 0.0 0.0 0.0 0.0
0.169 0.0578523650765419 -0.024719618260860443 0.0011317338794469833 -0.00016715563833713531 0.0 0.0 0.0 0.0
0.17 0.0614880807697773 -0.026367077603936195 0.0009656576439738274 -0.00037462078034877777 0.0 0.0 0.0 0.0
0.171 0.06495065987110138 -0.029181404039263725 0.0009675957262516022 -0.0006000129505991936 0.0 0.0 0.0 0.0
0.172 0.06852751970291138 -0.0332796648144722 0.0008886437863111496 -0.0012311069294810295 0.0 0.0 0.0 0.0
0.173 0.07007740437984467 -0.03633096069097519 0.00027117133140563965 -0.0015627481043338776 0.0 0.0 0.0 0.0
0.174 0.0723957046866417 -0.041089363396167755 -0.00022126082330942154 -0.0016057342290878296 0.0 0.0 0.0 0.0
0.175 0.07283320277929306 -0.04507829621434212 -0.0010907994583249092 -0.0013170139864087105 0.0 0.0 0.0 0.0
0.176 0.07268766313791275 -0.04815944656729698 -0.0012349039316177368 -0.0009372411295771599 0.0 0.0 0.0 0.0
0.177 0.07238888740539551 -0.053417038172483444 -0.0010126279667019844 -0.00013713166117668152 0.0 0.0 0.0 0.0
0.178 0.07132700085639954 -0.05747509002685547 -0.0007998738437891006 0.0002359990030527115 0.0 0.0 0.0 0.0
0.179 0.0677146390080452 -0.06008901074528694 -0.0006565460935235023 0.00027516670525074005 0.0 0.0 0.0 0.0
0.18 0.0653044804930687 -0.06223239749670029 -0.0005891863256692886 0.0002875877544283867 0.0 0.0 0.0 0.0
0.181 0.06197981536388397 -0.06510382145643234 -0.0004976345226168633 9.027961641550064e-05 0.0 0.0 0.0 0.0
0.182 0.058623988181352615 -0.06757116317749023 -0.00013571325689554214 -5.587935447692871e-07 0.0 0.0 0.0 0.0
0.183 0.05618318170309067 -0.06766004860401154 -0.00034910812973976135 0.0001637004315853119 0.0 0.0 0.0 0.0
