!Created with skrf (http://scikit-rf.org).
# GHz S RI R 50.0 
!freq ReS11 ImS11 ReS21 ImS21 ReS12 ImS12 ReS22 ImS22
0.001 0.9471422433853149 -0.33012667298316956 0.18830929696559906 0.3085099756717682 0.0 0.0 0.0 0.0
0.002 0.6809424161911011 -0.4593353867530823 0.47492578625679016 0.2679773271083832 0.0 0.0 0.0 0.0
0.003 0.49073371291160583 -0.44955459237098694 0.6542329788208008 0.06929414719343185 0.0 0.0 0.0 0.0
0.004 0.36958450078964233 -0.41056933999061584 0.6943299770355225 -0.16857658326625824 0.0 0.0 0.0 0.0
0.005 0.3042234480381012 -0.36363497376441956 0.6377794742584229 -0.3717936873435974 0.0 0.0 0.0 0.0
0.006 0.26478275656700134 -0.3305923342704773 0.5226377248764038 -0.5539356470108032 0.0 0.0 0.0 0.0
0.007 0.23942618072032928 -0.3093503713607788 0.3744816184043884 -0.6673402190208435 0.0 0.0 0.0 0.0
0.008 0.2209915667772293 -0.2943366467952728 0.21881866455078125 -0.7373263835906982 0.0 0.0 0.0 0.0
0.009 0.19798924028873444 -0.28979817032814026 0.052362967282533646 -0.7681626677513123 0.0 0.0 0.0 0.0
0.01 0.17397990822792053 -0.28367698192596436 -0.10906967520713806 -0.7595943808555603 0.0 0.0 0.0 0.0
0.011 0.14856912195682526 -0.2763447165489197 -0.26066854596138 -0.7224628925323486 0.0 0.0 0.0 0.0
0.012 0.1208353117108345 -0.26604560017585754 -0.4043711721897125 -0.6547548174858093 0.0 0.0 0.0 0.0
0.013 0.09608235955238342 -0.2523183524608612 -0.529446542263031 -0.5652764439582825 0.0 0.0 0.0 0.0
0.014 0.07568676024675369 -0.2323903739452362 -0.6309448480606079 -0.4493628442287445 0.0 0.0 0.0 0.0
0.015 0.06087421998381615 -0.20974871516227722 -0.7077738046646118 -0.31538745760917664 0.0 0.0 0.0 0.0
0.016 0.04981570690870285 -0.18620140850543976 -0.7588040232658386 -0.1696668416261673 0.0 0.0 0.0 0.0
0.017 0.04855726286768913 -0.1631777584552765 -0.7756792306900024 -0.02045261487364769 0.0 0.0 0.0 0.0
0.018 0.04941074550151825 -0.14432372152805328 -0.7702553272247314 0.1362929791212082 0.0 0.0 0.0 0.0
0.019 0.05668831989169121 -0.12831734120845795 -0.7277311682701111 0.2845422625541687 0.0 0.0 0.0 0.0
0.02 0.06705834716558456 -0.11689963191747665 -0.6598058342933655 0.42429816722869873 0.0 0.0 0.0 0.0
0.021 0.07675881683826447 -0.11233362555503845 -0.5618965029716492 0.5459300875663757 0.0 0.0 0.0 0.0
0.022 0.08583597838878632 -0.11337214708328247 -0.4441831409931183 0.6420218348503113 0.0 0.0 0.0 0.0
0.023 0.09234786033630371 -0.11883213371038437 -0.31159424781799316 0.7198970913887024 0.0 0.0 0.0 0.0
0.024 0.09166309237480164 -0.12448142468929291 -0.1639229953289032 0.760256290435791 0.0 0.0 0.0 0.0
0.025 0.08888459950685501 -0.1319652944803238 -0.015491385012865067 0.7787979245185852 0.0 0.0 0.0 0.0
0.026 0.08102983981370926 -0.13828006386756897 0.13594450056552887 0.7649329304695129 0.0 0.0 0.0 0.0
0.027 0.06998240947723389 -0.14002776145935059 0.2805534601211548 0.7215254306793213 0.0 0.0 0.0 0.0
0.028 0.057208552956581116 -0.13733933866024017 0.412919819355011 0.6522496938705444 0.0 0.0 0.0 0.0
0.029 0.04767156392335892 -0.13108676671981812 0.5264392495155334 0.5609695911407471 0.0 0.0 0.0 0.0
0.03 0.038452792912721634 -0.12338483333587646 0.6275140643119812 0.4532768130302429 0.0 0.0 0.0 0.0
0.031 0.032056961208581924 -0.11076591163873672 0.6979689598083496 0.3232315480709076 0.0 0.0 0.0 0.0
0.032 0.029371406883001328 -0.09715718030929565 0.7454742789268494 0.1823248565196991 0.0 0.0 0.0 0.0
0.033 0.03184313699603081 -0.08629724383354187 0.771726667881012 0.03495516628026962 0.0 0.0 0.0 0.0
0.034 0.038446247577667236 -0.07512485235929489 0.7611555457115173 -0.11120624095201492 0.0 0.0 0.0 0.0
0.035 0.04659112170338631 -0.06756003201007843 0.7253431081771851 -0.2563580870628357 0.0 0.0 0.0 0.0
0.036 0.058617301285266876 -0.06444933265447617 0.6604305505752563 -0.3872213065624237 0.0 0.0 0.0 0.0
0.037 0.06845523416996002 -0.06725361198186874 0.5776434540748596 -0.5059568881988525 0.0 0.0 0.0 0.0
0.038 0.07688680291175842 -0.073603056371212 0.4704098403453827 -0.6078920364379883 0.0 0.0 0.0 0.0
0.039 0.07935637980699539 -0.08289004117250443 0.3432753384113312 -0.6871761679649353 0.0 0.0 0.0 0.0
0.04 0.07883632928133011 -0.09164053946733475 0.20235352218151093 -0.738191545009613 0.0 0.0 0.0 0.0
0.041 0.07427497953176498 -0.10182487964630127 0.05716516822576523 -0.76118403673172 0.0 0.0 0.0 0.0
0.042 0.06690551340579987 -0.10850110650062561 -0.08762288093566895 -0.7557517290115356 0.0 0.0 0.0 0.0
0.043 0.055815234780311584 -0.11294487118721008 -0.2288961112499237 -0.7220293879508972 0.0 0.0 0.0 0.0
0.044 0.042758699506521225 -0.11296002566814423 -0.3587163984775543 -0.6660383343696594 0.0 0.0 0.0 0.0
0.045 0.029067695140838623 -0.1088404729962349 -0.48231232166290283 -0.5850251913070679 0.0 0.0 0.0 0.0
0.046 0.018902070820331573 -0.09949634224176407 -0.5809596180915833 -0.4805264174938202 0.0 0.0 0.0 0.0
0.047 0.01273388136178255 -0.08681025356054306 -0.6613337397575378 -0.3635064363479614 0.0 0.0 0.0 0.0
0.048 0.01049472950398922 -0.07359210401773453 -0.7136743068695068 -0.23154455423355103 0.0 0.0 0.0 0.0
0.049 0.010714913718402386 -0.06118518486618996 -0.7466655373573303 -0.09424175322055817 0.0 0.0 0.0 0.0
0.05 0.016332587227225304 -0.04949522390961647 -0.752201497554779 0.050461605191230774 0.0 0.0 0.0 0.0
0.051 0.025773920118808746 -0.039125047624111176 -0.7242097854614258 0.19053839147090912 0.0 0.0 0.0 0.0
0.052 0.03778519853949547 -0.0347919687628746 -0.6751753091812134 0.32430195808410645 0.0 0.0 0.0 0.0
0.053 0.049644585698843 -0.034869927912950516 -0.6055842041969299 0.4480908215045929 0.0 0.0 0.0 0.0
0.054 0.059716302901506424 -0.037862371653318405 -0.5072892904281616 0.553292453289032 0.0 0.0 0.0 0.0
0.055 0.06710071861743927 -0.04409844055771828 -0.39209431409835815 0.6401255130767822 0.0 0.0 0.0 0.0
0.056 0.07182510197162628 -0.05306960269808769 -0.26113423705101013 0.7015066146850586 0.0 0.0 0.0 0.0
0.057 0.07302563637495041 -0.06365601718425751 -0.12345143407583237 0.7405343055725098 0.0 0.0 0.0 0.0
0.058 0.07041605561971664 -0.07271118462085724 0.017470786347985268 0.7501105070114136 0.0 0.0 0.0 0.0
0.059 0.0622888058423996 -0.07901602983474731 0.16059431433677673 0.729004979133606 0.0 0.0 0.0 0.0
0.06 0.053466539829969406 -0.08059512823820114 0.2937413454055786 0.6847026348114014 0.0 0.0 0.0 0.0
0.061 0.04399551823735237 -0.08004629611968994 0.41877156496047974 0.6135042309761047 0.0 0.0 0.0 0.0
0.062 0.036785054951906204 -0.07656637579202652 0.5258517265319824 0.5234279632568359 0.0 0.0 0.0 0.0
0.063 0.031064266338944435 -0.06955480575561523 0.6135831475257874 0.41391125321388245 0.0 0.0 0.0 0.0
0.064 0.028303397819399834 -0.06197543814778328 0.681074857711792 0.290067583322525 0.0 0.0 0.0 0.0
0.065 0.029379582032561302 -0.05176246911287308 0.7202301621437073 0.15807195007801056 0.0 0.0 0.0 0.0
0.066 0.034089017659425735 -0.04471947252750397 0.735476016998291 0.016773024573922157 0.0 0.0 0.0 0.0
0.067 0.041855525225400925 -0.04038906842470169 0.7292718291282654 -0.12035994231700897 0.0 0.0 0.0 0.0
0.068 0.0505293607711792 -0.03830403462052345 0.6927368640899658 -0.2556452453136444 0.0 0.0 0.0 0.0
0.069 0.058729689568281174 -0.039841316640377045 0.6316763162612915 -0.3834590017795563 0.0 0.0 0.0 0.0
0.07 0.0653078630566597 -0.04571594297885895 0.5446644425392151 -0.4991607367992401 0.0 0.0 0.0 0.0
0.071 0.07057052850723267 -0.05308840423822403 0.4392819106578827 -0.5905985832214355 0.0 0.0 0.0 0.0
0.072 0.07366611808538437 -0.06231144070625305 0.3193539083003998 -0.6606393456459045 0.0 0.0 0.0 0.0
0.073 0.07031852006912231 -0.07236424088478088 0.18582670390605927 -0.7104530930519104 0.0 0.0 0.0 0.0
0.074 0.06390231847763062 -0.08111891150474548 0.04782906174659729 -0.7306320667266846 0.0 0.0 0.0 0.0
0.075 0.055298369377851486 -0.0857020691037178 -0.08635073155164719 -0.7259086966514587 0.0 0.0 0.0 0.0
0.076 0.04490961506962776 -0.08948808908462524 -0.2219262421131134 -0.6966575384140015 0.0 0.0 0.0 0.0
0.077 0.03300940990447998 -0.08838444948196411 -0.3508278429508209 -0.6420449018478394 0.0 0.0 0.0 0.0
0.078 0.02256430871784687 -0.08227761834859848 -0.46279779076576233 -0.56290602684021 0.0 0.0 0.0 0.0
0.079 0.015210953541100025 -0.07355654984712601 -0.5584256052970886 -0.4654085338115692 0.0 0.0 0.0 0.0
0.08 0.010657045990228653 -0.06386007368564606 -0.6369159817695618 -0.35096338391304016 0.0 0.0 0.0 0.0
0.081 0.010269062593579292 -0.051475729793310165 -0.688403844833374 -0.22118724882602692 0.0 0.0 0.0 0.0
0.082 0.013066565617918968 -0.040146324783563614 -0.7182429432868958 -0.09002811461687088 0.0 0.0 0.0 0.0
0.083 0.02093900926411152 -0.030737601220607758 -0.7205991744995117 0.04702586680650711 0.0 0.0 0.0 0.0
0.084 0.03063224069774151 -0.026302602142095566 -0.6986766457557678 0.1816113442182541 0.0 0.0 0.0 0.0
0.085 0.0409470833837986 -0.02423032745718956 -0.6536552906036377 0.3093873858451843 0.0 0.0 0.0 0.0
0.086 0.05117464438080788 -0.02569214440882206 -0.5838320255279541 0.426934152841568 0.0 0.0 0.0 0.0
0.087 0.05884723365306854 -0.030991729348897934 -0.4906863272190094 0.5306993722915649 0.0 0.0 0.0 0.0
0.088 0.06485382467508316 -0.0380081832408905 -0.3806155323982239 0.6116315126419067 0.0 0.0 0.0 0.0
0.089 0.06833994388580322 -0.04729045182466507 -0.2586067020893097 0.6735584139823914 0.0 0.0 0.0 0.0
0.09 0.06700386852025986 -0.05583953112363815 -0.12530052661895752 0.7098844647407532 0.0 0.0 0.0 0.0
0.091 0.06352902203798294 -0.06384064257144928 0.0094514861702919 0.7196316719055176 0.0 0.0 0.0 0.0
0.092 0.05646037682890892 -0.06947788596153259 0.146336168050766 0.704567551612854 0.0 0.0 0.0 0.0
0.093 0.04932720214128494 -0.07037653028964996 0.2748233377933502 0.6607438325881958 0.0 0.0 0.0 0.0
0.094 0.04257650300860405 -0.06892669945955276 0.39333441853523254 0.5994976162910461 0.0 0.0 0.0 0.0
0.095 0.03689659386873245 -0.06619346141815186 0.49762389063835144 0.5117809772491455 0.0 0.0 0.0 0.0
0.096 0.03195011243224144 -0.06135297194123268 0.5895826816558838 0.40752777457237244 0.0 0.0 0.0 0.0
0.097 0.030194727703928947 -0.05433385446667671 0.652360200881958 0.2875710427761078 0.0 0.0 0.0 0.0
0.098 0.03198186308145523 -0.04773649573326111 0.69273841381073 0.15999840199947357 0.0 0.0 0.0 0.0
0.099 0.038212839514017105 -0.04252101853489876 0.7118889093399048 0.02983230911195278 0.0 0.0 0.0 0.0
0.1 0.043905820697546005 -0.04283873364329338 0.7084368467330933 -0.12188859283924103 0.0 0.0 0.0 0.0
0.101 0.04757502302527428 -0.04150247201323509 0.6518887281417847 -0.24709753692150116 0.0 0.0 0.0 0.0
0.102 0.05357641354203224 -0.04604189842939377 0.5940163135528564 -0.3641710877418518 0.0 0.0 0.0 0.0
0.103 0.05861895903944969 -0.052003175020217896 0.5143178105354309 -0.46735262870788574 0.0 0.0 0.0 0.0
0.104 0.059449583292007446 -0.06001703813672066 0.41472959518432617 -0.5583707690238953 0.0 0.0 0.0 0.0
0.105 0.057904649525880814 -0.06834236532449722 0.3033365309238434 -0.6247939467430115 0.0 0.0 0.0 0.0
0.106 0.052155740559101105 -0.07621190696954727 0.17660918831825256 -0.6705705523490906 0.0 0.0 0.0 0.0
0.107 0.04521893709897995 -0.08154167234897614 0.048331622034311295 -0.6888007521629333 0.0 0.0 0.0 0.0
0.108 0.03437744453549385 -0.08482137322425842 -0.08346154540777206 -0.6867237687110901 0.0 0.0 0.0 0.0
0.109 0.024191908538341522 -0.08315359801054001 -0.20980265736579895 -0.6539997458457947 0.0 0.0 0.0 0.0
0.11 0.012872612103819847 -0.07885883748531342 -0.331391304731369 -0.6029307246208191 0.0 0.0 0.0 0.0
0.111 0.005277254618704319 -0.07107327878475189 -0.43421533703804016 -0.5297210216522217 0.0 0.0 0.0 0.0
0.112 -0.0010328572243452072 -0.061381448060274124 -0.5269740223884583 -0.43789559602737427 0.0 0.0 0.0 0.0
0.113 -0.0019298670813441277 -0.04973238706588745 -0.5960944890975952 -0.3324168622493744 0.0 0.0 0.0 0.0
0.114 -0.0013674870133399963 -0.03813325986266136 -0.6493595838546753 -0.2127719670534134 0.0 0.0 0.0 0.0
0.115 0.004549041390419006 -0.028512172400951385 -0.677434504032135 -0.08832794427871704 0.0 0.0 0.0 0.0
0.116 0.011614283546805382 -0.020601363852620125 -0.6814179420471191 0.04058001562952995 0.0 0.0 0.0 0.0
0.117 0.02240893803536892 -0.01627221889793873 -0.6604702472686768 0.16561520099639893 0.0 0.0 0.0 0.0
0.118 0.032952047884464264 -0.014980298466980457 -0.6181505918502808 0.28784799575805664 0.0 0.0 0.0 0.0
0.119 0.041799016296863556 -0.017995934933423996 -0.5531793236732483 0.3974607288837433 0.0 0.0 0.0 0.0
0.12 0.04993704706430435 -0.02343982458114624 -0.4690590798854828 0.49652403593063354 0.0 0.0 0.0 0.0
0.121 0.053955551236867905 -0.02974962815642357 -0.366436630487442 0.5745224356651306 0.0 0.0 0.0 0.0
0.122 0.05590372532606125 -0.03828014060854912 -0.2512294054031372 0.6353951096534729 0.0 0.0 0.0 0.0
0.123 0.054082468152046204 -0.0452582873404026 -0.12748610973358154 0.6693811416625977 0.0 0.0 0.0 0.0
0.124 0.0500018373131752 -0.04958156868815422 0.0012491093948483467 0.6819884181022644 0.0 0.0 0.0 0.0
0.125 0.04428644850850105 -0.05371725559234619 0.1300458461046219 0.6675030589103699 0.0 0.0 0.0 0.0
0.126 0.037787359207868576 -0.052988775074481964 0.25323402881622314 0.6301699280738831 0.0 0.0 0.0 0.0
0.127 0.03269096091389656 -0.05096790939569473 0.3654658794403076 0.5706747770309448 0.0 0.0 0.0 0.0
0.128 0.029161708429455757 -0.04713164269924164 0.4691786766052246 0.49275028705596924 0.0 0.0 0.0 0.0
0.129 0.027542073279619217 -0.04065809026360512 0.5507060885429382 0.39405494928359985 0.0 0.0 0.0 0.0
0.13 0.028261613100767136 -0.033335186541080475 0.6144126057624817 0.2834446132183075 0.0 0.0 0.0 0.0
0.131 0.03271041065454483 -0.02890009619295597 0.6558319926261902 0.1628938615322113 0.0 0.0 0.0 0.0
0.132 0.038746178150177 -0.02435925044119358 0.6741185188293457 0.036713745445013046 0.0 0.0 0.0 0.0
0.133 0.04644259810447693 -0.023634126409888268 0.6681429147720337 -0.08931946009397507 0.0 0.0 0.0 0.0
0.134 0.05392207205295563 -0.025477156043052673 0.640191376209259 -0.21409672498703003 0.0 0.0 0.0 0.0
0.135 0.06061277911067009 -0.03100578300654888 0.5886690020561218 -0.3308963179588318 0.0 0.0 0.0 0.0
0.136 0.06549667567014694 -0.038085583597421646 0.5170199871063232 -0.43697261810302734 0.0 0.0 0.0 0.0
0.137 0.06584112346172333 -0.04582113400101662 0.42267492413520813 -0.5238444805145264 0.0 0.0 0.0 0.0
0.138 0.0652695819735527 -0.05423199012875557 0.3168337047100067 -0.5952052474021912 0.0 0.0 0.0 0.0
0.139 0.0603196881711483 -0.06272149085998535 0.19913864135742188 -0.6435825824737549 0.0 0.0 0.0 0.0
0.14 0.05284750834107399 -0.06745970249176025 0.07192237675189972 -0.6684708595275879 0.0 0.0 0.0 0.0
0.141 0.044180817902088165 -0.07102090865373611 -0.053604159504175186 -0.6703707575798035 0.0 0.0 0.0 0.0
0.142 0.033615078777074814 -0.06989094614982605 -0.1815648376941681 -0.6471536159515381 0.0 0.0 0.0 0.0
0.143 0.025463642552495003 -0.06511670351028442 -0.29662373661994934 -0.5987177491188049 0.0 0.0 0.0 0.0
0.144 0.019720079377293587 -0.05824519321322441 -0.4051920771598816 -0.5327587723731995 0.0 0.0 0.0 0.0
0.145 0.015740998089313507 -0.049405790865421295 -0.49580302834510803 -0.4458436667919159 0.0 0.0 0.0 0.0
0.146 0.014948681928217411 -0.03995255008339882 -0.5724664330482483 -0.3450801372528076 0.0 0.0 0.0 0.0
0.147 0.018557343631982803 -0.03185414895415306 -0.6233272552490234 -0.23237454891204834 0.0 0.0 0.0 0.0
0.148 0.02401769533753395 -0.02337443269789219 -0.6579540371894836 -0.11162504553794861 0.0 0.0 0.0 0.0
0.149 0.032565660774707794 -0.01923670619726181 -0.6634482145309448 0.014182928949594498 0.0 0.0 0.0 0.0
0.15 0.04064683988690376 -0.01675366796553135 -0.6518495082855225 0.13768360018730164 0.0 0.0 0.0 0.0
0.151 0.04985157400369644 -0.019021106883883476 -0.6123349070549011 0.2576790153980255 0.0 0.0 0.0 0.0
0.152 0.05733710527420044 -0.02274923026561737 -0.5545209646224976 0.3686119318008423 0.0 0.0 0.0 0.0
0.153 0.06298055499792099 -0.029571572318673134 -0.47432276606559753 0.46508699655532837 0.0 0.0 0.0 0.0
0.154 0.06576398760080338 -0.03718367591500282 -0.3789430260658264 0.5463379621505737 0.0 0.0 0.0 0.0
0.155 0.0660526379942894 -0.04509422928094864 -0.2684139311313629 0.6076957583427429 0.0 0.0 0.0 0.0
0.156 0.06250588595867157 -0.05172398313879967 -0.1497901976108551 0.6486701369285583 0.0 0.0 0.0 0.0
0.157 0.056554824113845825 -0.057377368211746216 -0.023177243769168854 0.6635956168174744 0.0 0.0 0.0 0.0
0.158 0.050159767270088196 -0.05947063863277435 0.10195828974246979 0.6553462743759155 0.0 0.0 0.0 0.0
0.159 0.04332851618528366 -0.058521438390016556 0.22362084686756134 0.6227830052375793 0.0 0.0 0.0 0.0
0.16 0.0376727320253849 -0.05550029128789902 0.3374822437763214 0.5703021883964539 0.0 0.0 0.0 0.0
0.161 0.0339239202439785 -0.04980898275971413 0.43680232763290405 0.4957394301891327 0.0 0.0 0.0 0.0
0.162 0.032549433410167694 -0.043868448585271835 0.521929919719696 0.40442705154418945 0.0 0.0 0.0 0.0
0.163 0.03387756645679474 -0.037831876426935196 0.5885841250419617 0.2976679801940918 0.0 0.0 0.0 0.0
0.164 0.03842257335782051 -0.03141499310731888 0.6330700516700745 0.1837158203125 0.0 0.0 0.0 0.0
0.165 0.044755641371011734 -0.028123769909143448 0.6556720733642578 0.06157100945711136 0.0 0.0 0.0 0.0
0.166 0.051224078983068466 -0.027187876403331757 0.6555729508399963 -0.06154772266745567 0.0 0.0 0.0 0.0
0.167 0.05869472771883011 -0.028233977034687996 0.6309701800346375 -0.1837177276611328 0.0 0.0 0.0 0.0
0.168 0.06459664553403854 -0.03281909599900246 0.58460533618927 -0.2997625172138214 0.0 0.0 0.0 0.0
0.169 0.06842547655105591 -0.038840893656015396 0.517070472240448 -0.40504637360572815 0.0 0.0 0.0 0.0
0.17 0.0704568549990654 -0.04647097736597061 0.43255096673965454 -0.49398231506347656 0.0 0.0 0.0 0.0
0.171 0.0691453367471695 -0.05471637845039368 0.330686092376709 -0.5689095258712769 0.0 0.0 0.0 0.0
0.172 0.06590647250413895 -0.061599232256412506 0.22046338021755219 -0.6205077767372131 0.0 0.0 0.0 0.0
0.173 0.059826597571372986 -0.06542957574129105 0.09737955778837204 -0.6481070518493652 0.0 0.0 0.0 0.0
0.174 0.052959173917770386 -0.06833626329898834 -0.023971909657120705 -0.6559131145477295 0.0 0.0 0.0 0.0
0.175 0.045225802809000015 -0.06724689155817032 -0.14957448840141296 -0.6377789378166199 0.0 0.0 0.0 0.0
0.176 0.03816024586558342 -0.06478802114725113 -0.2653401792049408 -0.5993837714195251 0.0 0.0 0.0 0.0
0.177 0.03256469592452049 -0.05912867933511734 -0.37551018595695496 -0.5371204018592834 0.0 0.0 0.0 0.0
0.178 0.03073715977370739 -0.05221153050661087 -0.46585917472839355 -0.45821815729141235 0.0 0.0 0.0 0.0
0.179 0.030049225315451622 -0.04527592286467552 -0.5460290312767029 -0.3605307340621948 0.0 0.0 0.0 0.0
0.18 0.03328092768788338 -0.037916649132966995 -0.600481390953064 -0.25003334879875183 0.0 0.0 0.0 0.0
0.181 0.03809819743037224 -0.032440803945064545 -0.6383626461029053 -0.13275034725666046 0.0 0.0 0.0 0.0
0.182 0.044470034539699554 -0.030519461259245872 -0.6516358256340027 -0.012209120206534863 0.0 0.0 0.0 0.0
0.183 0.05269917845726013 -0.029567614197731018 -0.6415608525276184 0.1107204332947731 0.0 0.0 0.0 0.0
0.184 0.05818311125040054 -0.031763020902872086 -0.6095079183578491 0.2273218333721161 0.0 0.0 0.0 0.0
0.185 0.06291628628969193 -0.03572581708431244 -0.5551309585571289 0.3386892080307007 0.0 0.0 0.0 0.0
0.186 0.06614064425230026 -0.04114031046628952 -0.4809640049934387 0.4357244670391083 0.0 0.0 0.0 0.0
0.187 0.06676534563302994 -0.0464678592979908 -0.39089375734329224 0.5194129943847656 0.0 0.0 0.0 0.0
0.188 0.06555607169866562 -0.05327104404568672 -0.2855684459209442 0.5827369689941406 0.0 0.0 0.0 0.0
0.189 0.0633869618177414 -0.056492727249860764 -0.17208346724510193 0.6279574632644653 0.0 0.0 0.0 0.0
0.19 0.05877245217561722 -0.05920783430337906 -0.050762299448251724 0.6471734642982483 0.0 0.0 0.0 0.0
0.191 0.05372177064418793 -0.058763451874256134 0.0731564536690712 0.6458323001861572 0.0 0.0 0.0 0.0
0.192 0.048255931586027145 -0.0568150170147419 0.19195249676704407 0.6178953647613525 0.0 0.0 0.0 0.0
0.193 0.04699656739830971 -0.05268128961324692 0.30618470907211304 0.5729783177375793 0.0 0.0 0.0 0.0
