!Created with skrf (http://scikit-rf.org).
# GHz S RI R 50.0 
!freq ReS11 ImS11 ReS21 ImS21 ReS12 ImS12 ReS22 ImS22
0.001 0.9979000091552734 -0.35078516602516174 -1.8157996237277985e-05 -2.168118953704834e-05 0.0 0.0 0.0 0.0
0.002 0.7390338778495789 -0.6034836769104004 -0.00018279626965522766 7.220916450023651e-05 0.0 0.0 0.0 0.0
0.003 0.44874632358551025 -0.7717182040214539 0.00012327264994382858 0.00010353419929742813 0.0 0.0 0.0 0.0
0.004 0.10106449574232101 -0.7956939935684204 -2.6759691536426544e-05 0.00019167643040418625 0.0 0.0 0.0 0.0
0.005 -0.2060876488685608 -0.6710923910140991 -7.40252435207367e-05 -7.171835750341415e-05 0.0 0.0 0.0 0.0
0.006 -0.44912049174308777 -0.4220736026763916 4.909094423055649e-05 -7.484015077352524e-05 0.0 0.0 0.0 0.0
0.007 -0.5497453808784485 -0.09679019451141357 2.5756657123565674e-05 6.504356861114502e-05 0.0 0.0 0.0 0.0
0.008 -0.4922000467777252 0.2361103743314743 4.149973392486572e-05 0.00020357593894004822 0.0 0.0 0.0 0.0
0.009 -0.306570827960968 0.49340352416038513 -4.929210990667343e-05 3.764405846595764e-06 0.0 0.0 0.0 0.0
0.01 -0.04749324172735214 0.6388934850692749 0.00029381923377513885 -7.068924605846405e-05 0.0 0.0 0.0 0.0
0.011 0.22498980164527893 0.6709700226783752 4.5406632125377655e-05 1.4554709196090698e-05 0.0 0.0 0.0 0.0
0.012 0.46570032835006714 0.6019919514656067 -5.248747766017914e-05 -7.826276123523712e-05 0.0 0.0 0.0 0.0
0.013 0.6568728685379028 0.4703710079193115 -5.01507893204689e-05 -0.00014328304678201675 0.0 0.0 0.0 0.0
0.014 0.7856491208076477 0.3010760545730591 -8.987169712781906e-05 -0.00010594818741083145 0.0 0.0 0.0 0.0
0.015 0.8535191416740417 0.12043970823287964 6.466265767812729e-05 4.2484141886234283e-05 0.0 0.0 0.0 0.0
0.016 0.8754218220710754 -0.06131689250469208 -0.001044631004333496 0.0003351503983139992 0.0 0.0 0.0 0.0
0.017 0.8451659083366394 -0.2291540503501892 -0.00032693706452846527 0.00012949667870998383 0.0 0.0 0.0 0.0
0.018 0.7898600101470947 -0.38024619221687317 -0.00014152657240629196 0.0005277609452605247 0.0 0.0 0.0 0.0
0.019 0.705247163772583 -0.503420889377594 -1.4660879969596863e-05 0.0004549063742160797 0.0 0.0 0.0 0.0
0.02 0.6025933027267456 -0.605586051940918 0.0007414808496832848 0.0008346876129508018 0.0 0.0 0.0 0.0
0.021 0.4859144389629364 -0.6857680082321167 0.00021596718579530716 -0.0006447145715355873 0.0 0.0 0.0 0.0
0.022 0.36189132928848267 -0.7317265868186951 -0.00023319106549024582 -0.00043383706361055374 0.0 0.0 0.0 0.0
0.023 0.2398667186498642 -0.7600091099739075 -0.00021427497267723083 -6.712693721055984e-05 0.0 0.0 0.0 0.0
0.024 0.11553822457790375 -0.7697422504425049 0.00024055223912000656 0.0003352547064423561 0.0 0.0 0.0 0.0
0.025 -0.009515171870589256 -0.7490299344062805 -0.00020083598792552948 -5.496107041835785e-05 0.0 0.0 0.0 0.0
0.026 -0.12099699676036835 -0.7179471850395203 -0.00023182854056358337 0.00012027565389871597 0.0 0.0 0.0 0.0
0.027 -0.22707311809062958 -0.6662757396697998 -0.00022408831864595413 8.837319910526276e-06 0.0 0.0 0.0 0.0
0.028 -0.3257870376110077 -0.6036059260368347 -0.00010888837277889252 5.6439079344272614e-05 0.0 0.0 0.0 0.0
0.029 -0.41192227602005005 -0.5179795026779175 -0.00016423966735601425 -9.976699948310852e-05 0.0 0.0 0.0 0.0
0.03 -0.4787932336330414 -0.4206141233444214 -0.0002165772020816803 3.29846516251564e-05 0.0 0.0 0.0 0.0
0.031 -0.532617449760437 -0.3156280517578125 -0.00016550999134778976 7.622875273227692e-06 0.0 0.0 0.0 0.0
0.032 -0.5622963905334473 -0.20605365931987762 -0.00033132825046777725 0.002314092591404915 0.0 0.0 0.0 0.0
0.033 -0.5765332579612732 -0.0825851708650589 -0.000143381766974926 0.00023062527179718018 0.0 0.0 0.0 0.0
0.034 -0.5722327828407288 0.03919939324259758 -0.000136667862534523 2.829078584909439e-05 0.0 0.0 0.0 0.0
0.035 -0.5445950031280518 0.1581425964832306 -3.834255039691925e-05 0.00026103947311639786 0.0 0.0 0.0 0.0
0.036 -0.49629873037338257 0.2778925895690918 4.1007064282894135e-05 8.315034210681915e-05 0.0 0.0 0.0 0.0
0.037 -0.4200493395328522 0.3878856599330902 -1.6052275896072388e-05 -2.208724617958069e-05 0.0 0.0 0.0 0.0
0.038 -0.32259589433670044 0.4830029308795929 -5.86705282330513e-05 -4.4179148972034454e-05 0.0 0.0 0.0 0.0
0.039 -0.20519505441188812 0.5579955577850342 3.805384039878845e-05 4.6176835894584656e-05 0.0 0.0 0.0 0.0
0.04 -0.0717591941356659 0.6093026995658875 0.00014588981866836548 1.1523254215717316e-05 0.0 0.0 0.0 0.0
0.041 0.07478498667478561 0.6319129467010498 -3.529805690050125e-05 -6.532762199640274e-05 0.0 0.0 0.0 0.0
0.042 0.2247077226638794 0.6227521896362305 0.00010877102613449097 2.4316832423210144e-05 0.0 0.0 0.0 0.0
0.043 0.37713760137557983 0.5781282186508179 -5.61615452170372e-05 -3.693811595439911e-05 0.0 0.0 0.0 0.0
0.044 0.5117392539978027 0.49683037400245667 -3.6172568798065186e-06 0.00031120236963033676 0.0 0.0 0.0 0.0
0.045 0.6294520497322083 0.38903650641441345 -0.00014600250869989395 9.479839354753494e-05 0.0 0.0 0.0 0.0
0.046 0.716922402381897 0.252729207277298 -1.5604309737682343e-05 -1.0546296834945679e-05 0.0 0.0 0.0 0.0
0.047 0.7687308192253113 0.09935995191335678 -1.621898263692856e-05 0.000156378373503685 0.0 0.0 0.0 0.0
0.048 0.7882845997810364 -0.05958312377333641 2.526957541704178e-05 0.000334140844643116 0.0 0.0 0.0 0.0
0.049 0.7605127096176147 -0.21864448487758636 -0.0002194540575146675 0.00011780764907598495 0.0 0.0 0.0 0.0
0.05 0.707007884979248 -0.36367473006248474 -8.085090667009354e-05 0.000360255129635334 0.0 0.0 0.0 0.0
0.051 0.624713659286499 -0.48937830328941345 0.00026759784668684006 8.934643119573593e-05 0.0 0.0 0.0 0.0
0.052 0.5166406631469727 -0.5907099843025208 0.00032061897218227386 -5.847122520208359e-05 0.0 0.0 0.0 0.0
0.053 0.39051130414009094 -0.6652857661247253 0.0005584461614489555 -0.00020555034279823303 0.0 0.0 0.0 0.0
0.054 0.2599220871925354 -0.7076104283332825 7.485970854759216e-06 -0.0004889676347374916 0.0 0.0 0.0 0.0
0.055 0.1301874816417694 -0.7263215184211731 -0.00013306178152561188 0.00035852473229169846 0.0 0.0 0.0 0.0
0.056 0.001066627912223339 -0.7180637717247009 0.0002811821177601814 6.537511944770813e-05 0.0 0.0 0.0 0.0
0.057 -0.12259477376937866 -0.6877925395965576 0.00011940859258174896 -0.00032424088567495346 0.0 0.0 0.0 0.0
0.058 -0.23829355835914612 -0.6339995265007019 -0.00012199115008115768 -0.0004434073343873024 0.0 0.0 0.0 0.0
0.059 -0.33165475726127625 -0.5615644454956055 -0.0003886967897415161 -0.0005038976669311523 0.0 0.0 0.0 0.0
0.06 -0.4141272306442261 -0.4820787012577057 -0.0006443168967962265 8.884631097316742e-05 0.0 0.0 0.0 0.0
0.061 -0.47615668177604675 -0.3830627202987671 -0.0004005543887615204 0.0005463678389787674 0.0 0.0 0.0 0.0
0.062 -0.5241643190383911 -0.27982980012893677 9.798351675271988e-05 0.0006482088938355446 0.0 0.0 0.0 0.0
0.063 -0.5553874373435974 -0.1740885078907013 0.0004708515480160713 0.00027611199766397476 0.0 0.0 0.0 0.0
0.064 -0.5603605508804321 -0.06016843020915985 0.001255209557712078 8.312519639730453e-05 0.0 0.0 0.0 0.0
0.065 -0.5538318753242493 0.048748765140771866 0.0006510792300105095 3.870483487844467e-05 0.0 0.0 0.0 0.0
0.066 -0.5260072350502014 0.1585385948419571 0.0008315714076161385 -0.0004968093708157539 0.0 0.0 0.0 0.0
0.067 -0.4784434735774994 0.2641664445400238 -0.00027206819504499435 -0.0011706845834851265 0.0 0.0 0.0 0.0
0.068 -0.4124463200569153 0.3612616956233978 -0.0008964939042925835 -3.2539479434490204e-05 0.0 0.0 0.0 0.0
0.069 -0.32830002903938293 0.44270044565200806 -0.0005653752014040947 0.0003984365612268448 0.0 0.0 0.0 0.0
0.07 -0.22961100935935974 0.5105774402618408 -0.00034414418041706085 0.0002023177221417427 0.0 0.0 0.0 0.0
0.071 -0.11801295727491379 0.5581758618354797 0.00010963995009660721 0.00039005931466817856 0.0 0.0 0.0 0.0
0.072 0.0015398617833852768 0.5863128304481506 5.130656063556671e-06 -2.2244639694690704e-05 0.0 0.0 0.0 0.0
0.073 0.12992751598358154 0.5920888185501099 5.1062554121017456e-05 6.536301225423813e-05 0.0 0.0 0.0 0.0
0.074 0.2588798403739929 0.569699764251709 -5.5713579058647156e-05 3.916211426258087e-06 0.0 0.0 0.0 0.0
0.075 0.3856048583984375 0.5199356079101562 2.7214176952838898e-05 -0.0001333942636847496 0.0 0.0 0.0 0.0
0.076 0.498222291469574 0.4450099468231201 -7.112789899110794e-05 -0.0001794770359992981 0.0 0.0 0.0 0.0
0.077 0.59638911485672 0.34549951553344727 -0.00014749635010957718 3.552064299583435e-06 0.0 0.0 0.0 0.0
0.078 0.6709159016609192 0.22472769021987915 -0.00013525690883398056 0.00011396408081054688 0.0 0.0 0.0 0.0
0.079 0.7158339023590088 0.0866178348660469 -0.0002124384045600891 0.00021354854106903076 0.0 0.0 0.0 0.0
0.08 0.733773410320282 -0.05422534421086311 -3.569386899471283e-05 -1.1129304766654968e-06 0.0 0.0 0.0 0.0
0.081 0.7188028693199158 -0.20022983849048615 -3.5244040191173553e-05 7.474049925804138e-05 0.0 0.0 0.0 0.0
0.082 0.6711843609809875 -0.3369649648666382 -9.87248495221138e-05 0.00024244468659162521 0.0 0.0 0.0 0.0
0.083 0.5953165292739868 -0.4570620059967041 0.00019144639372825623 8.485652506351471e-05 0.0 0.0 0.0 0.0
0.084 0.4944736659526825 -0.5581968426704407 -8.64267349243164e-05 9.105540812015533e-06 0.0 0.0 0.0 0.0
0.085 0.38000714778900146 -0.6294133067131042 -2.8772279620170593e-05 0.00015099532902240753 0.0 0.0 0.0 0.0
0.086 0.25615206360816956 -0.677582859992981 8.409935981035233e-05 -2.592429518699646e-05 0.0 0.0 0.0 0.0
0.087 0.12712150812149048 -0.7012710571289062 1.8591992557048798e-05 9.501352906227112e-06 0.0 0.0 0.0 0.0
0.088 -0.0007400233298540115 -0.6943170428276062 2.9782764613628387e-05 -4.2829662561416626e-05 0.0 0.0 0.0 0.0
0.089 -0.12440172582864761 -0.6624273657798767 -0.0011323196813464165 -0.004713909700512886 0.0 0.0 0.0 0.0
0.09 -0.23339585959911346 -0.6126413941383362 -0.00037429574877023697 1.4690682291984558e-05 0.0 0.0 0.0 0.0
0.091 -0.3304366171360016 -0.5401103496551514 -8.47112387418747e-05 0.00043233390897512436 0.0 0.0 0.0 0.0
0.092 -0.4111732542514801 -0.460627019405365 -4.2887404561042786e-06 -0.00012201350182294846 0.0 0.0 0.0 0.0
0.093 -0.4744298756122589 -0.365717351436615 0.00024475809186697006 0.00018418952822685242 0.0 0.0 0.0 0.0
0.094 -0.5199333429336548 -0.26155880093574524 0.0004990743473172188 0.0002200426533818245 0.0 0.0 0.0 0.0
0.095 -0.5447031259536743 -0.1526361107826233 0.00011838879436254501 2.6617199182510376e-05 0.0 0.0 0.0 0.0
0.096 -0.5447884202003479 -0.04439694061875343 -0.0005682855844497681 0.001840953715145588 0.0 0.0 0.0 0.0
0.097 -0.5349439382553101 0.06127731874585152 -3.77018004655838e-05 -0.00020516850054264069 0.0 0.0 0.0 0.0
0.098 -0.5034436583518982 0.16610123217105865 0.00013856403529644012 0.00014570727944374084 0.0 0.0 0.0 0.0
0.099 -0.45496466755867004 0.26533859968185425 0.00018272735178470612 -0.0006869165226817131 0.0 0.0 0.0 0.0
0.1 -0.3851602077484131 0.3643874526023865 -1.8106773495674133e-05 0.000148761086165905 0.0 0.0 0.0 0.0
0.101 -0.29399028420448303 0.41253721714019775 0.0004312722012400627 0.0005035353824496269 0.0 0.0 0.0 0.0
0.102 -0.20494069159030914 0.4716331362724304 0.0006964057683944702 0.00028922874480485916 0.0 0.0 0.0 0.0
0.103 -0.10417477041482925 0.5152328610420227 0.0010585803538560867 -4.637986421585083e-05 0.0 0.0 0.0 0.0
0.104 0.005244691856205463 0.5403580665588379 0.0009033950045704842 -0.0006617773324251175 0.0 0.0 0.0 0.0
0.105 0.12137824296951294 0.54206782579422 0.0006472710520029068 -0.0011481335386633873 0.0 0.0 0.0 0.0
0.106 0.23880913853645325 0.5246073603630066 0.00019448809325695038 -0.0012553846463561058 0.0 0.0 0.0 0.0
0.107 0.35401973128318787 0.4792552888393402 -0.00032866839319467545 -0.0013424167409539223 0.0 0.0 0.0 0.0
0.108 0.4592982828617096 0.41079291701316833 -0.0006707459688186646 -0.0011051725596189499 0.0 0.0 0.0 0.0
0.109 0.5518116354942322 0.31995511054992676 -0.0010545561090111732 -0.0008095130324363708 0.0 0.0 0.0 0.0
0.11 0.6241110563278198 0.20799148082733154 -0.001231917180120945 -0.0004832930862903595 0.0 0.0 0.0 0.0
0.111 0.6696786284446716 0.07780788093805313 -0.0012459047138690948 -9.935721755027771e-05 0.0 0.0 0.0 0.0
0.112 0.6854522824287415 -0.056329578161239624 -0.0012605898082256317 0.0003964332863688469 0.0 0.0 0.0 0.0
0.113 0.6709145307540894 -0.19508342444896698 -0.0011199386790394783 0.00042644888162612915 0.0 0.0 0.0 0.0
0.114 0.622122049331665 -0.3262426257133484 -0.0009431131184101105 0.0007744506001472473 0.0 0.0 0.0 0.0
0.115 0.5492234230041504 -0.44119253754615784 -0.0007497798651456833 0.00099952332675457 0.0 0.0 0.0 0.0
0.116 0.45126113295555115 -0.5388100147247314 -0.0005325349047780037 0.0012666666880249977 0.0 0.0 0.0 0.0
0.117 0.33479446172714233 -0.6056771278381348 -0.00029508862644433975 0.0015278169885277748 0.0 0.0 0.0 0.0
0.118 0.20810586214065552 -0.6475944519042969 0.0001730760559439659 0.0015174150466918945 0.0 0.0 0.0 0.0
0.119 0.08147907257080078 -0.661006510257721 0.0006499774754047394 0.0015316829085350037 0.0 0.0 0.0 0.0
0.12 -0.03986392170190811 -0.6476955413818359 0.0012685516849160194 0.0014478936791419983 0.0 0.0 0.0 0.0
0.121 -0.15497997403144836 -0.6114073991775513 0.0016892971470952034 0.0009036744013428688 0.0 0.0 0.0 0.0
0.122 -0.25935307145118713 -0.5533636808395386 0.002006825990974903 0.00020837318152189255 0.0 0.0 0.0 0.0
0.123 -0.3443435728549957 -0.4796295762062073 0.001977902837097645 -0.0006565535441040993 0.0 0.0 0.0 0.0
0.124 -0.41445061564445496 -0.39599692821502686 0.0016216961666941643 -0.001492365263402462 0.0 0.0 0.0 0.0
0.125 -0.4652464687824249 -0.29930001497268677 0.0006483159959316254 -0.0016798218712210655 0.0 0.0 0.0 0.0
0.126 -0.4993588924407959 -0.2010008543729782 0.00011588446795940399 -0.001728554256260395 0.0 0.0 0.0 0.0
0.127 -0.5132452249526978 -0.09821396321058273 -0.0004757354035973549 -0.0013964427635073662 0.0 0.0 0.0 0.0
0.128 -0.5085884928703308 0.004657038487493992 -0.0010889582335948944 -0.0008607842028141022 0.0 0.0 0.0 0.0
0.129 -0.4889390468597412 0.10289958119392395 -0.0008472688496112823 -0.0009081587195396423 0.0 0.0 0.0 0.0
0.13 -0.45190006494522095 0.19457200169563293 -0.0009847590699791908 -0.0003382991999387741 0.0 0.0 0.0 0.0
0.131 -0.39892515540122986 0.2822246551513672 -0.0011509526520967484 9.740516543388367e-05 0.0 0.0 0.0 0.0
0.132 -0.3343457579612732 0.35635843873023987 -0.0007681809365749359 0.00039520952850580215 0.0 0.0 0.0 0.0
0.133 -0.2555314898490906 0.42146188020706177 -0.0005680518224835396 0.000494563952088356 0.0 0.0 0.0 0.0
0.134 -0.16479946672916412 0.46940726041793823 -0.00021309871226549149 0.0010639037936925888 0.0 0.0 0.0 0.0
0.135 -0.06756656616926193 0.5032408237457275 0.0003761434927582741 0.000867343507707119 0.0 0.0 0.0 0.0
0.136 0.03645499423146248 0.5189663767814636 0.0006546294316649437 0.000174621120095253 0.0 0.0 0.0 0.0
0.137 0.14326168596744537 0.5164316892623901 0.00020417477935552597 -0.0001626778393983841 0.0 0.0 0.0 0.0
0.138 0.2506060302257538 0.49269336462020874 3.8615427911281586e-05 -1.6062520444393158e-05 0.0 0.0 0.0 0.0
0.139 0.3544435501098633 0.447526752948761 0.00013743340969085693 0.00010004546493291855 0.0 0.0 0.0 0.0
0.14 0.448596715927124 0.383409708738327 1.8895603716373444e-05 4.507973790168762e-05 0.0 0.0 0.0 0.0
0.141 0.5309692025184631 0.29660969972610474 0.00017394963651895523 6.53192400932312e-05 0.0 0.0 0.0 0.0
0.142 0.5942611694335938 0.1951429396867752 0.0003368621692061424 -0.00014631450176239014 0.0 0.0 0.0 0.0
0.143 0.6364344954490662 0.0794491097331047 0.00021701771765947342 -0.0001338748261332512 0.0 0.0 0.0 0.0
0.144 0.6546172499656677 -0.04436134174466133 0.00025749485939741135 -0.00020393822342157364 0.0 0.0 0.0 0.0
0.145 0.6450763940811157 -0.17027884721755981 0.00017267372459173203 -0.00011599436402320862 0.0 0.0 0.0 0.0
0.146 0.6084813475608826 -0.29201143980026245 -7.476750761270523e-05 9.716860949993134e-05 0.0 0.0 0.0 0.0
0.147 0.544474184513092 -0.40386927127838135 0.00020735245198011398 -0.00016412697732448578 0.0 0.0 0.0 0.0
0.148 0.4592224955558777 -0.49792954325675964 0.0003967946395277977 -0.0001656925305724144 0.0 0.0 0.0 0.0
0.149 0.35400664806365967 -0.5731763243675232 0.0005963696166872978 -0.000456332229077816 0.0 0.0 0.0 0.0
0.15 0.23755531013011932 -0.620188295841217 0.0002560717985033989 -0.0010170945897698402 0.0 0.0 0.0 0.0
0.151 0.1143198236823082 -0.641933798789978 -0.0006143134087324142 -0.0010593635961413383 0.0 0.0 0.0 0.0
0.152 -0.006393249146640301 -0.6370172500610352 -0.0011188779026269913 -0.000555332750082016 0.0 0.0 0.0 0.0
0.153 -0.12409023940563202 -0.6081240177154541 -0.0011707544326782227 -0.00046808551996946335 0.0 0.0 0.0 0.0
0.154 -0.22827447950839996 -0.5580655932426453 -0.001335393637418747 0.0001637907698750496 0.0 0.0 0.0 0.0
0.155 -0.32016414403915405 -0.49090683460235596 -0.0009999237954616547 0.0005255416035652161 0.0 0.0 0.0 0.0
0.156 -0.39257338643074036 -0.40728697180747986 -0.0008000107482075691 0.0007120762020349503 0.0 0.0 0.0 0.0
0.157 -0.4474669098854065 -0.3128361999988556 -0.00027779582887887955 0.0010063042864203453 0.0 0.0 0.0 0.0
0.158 -0.48291006684303284 -0.21096061170101166 -1.7043203115463257e-05 0.000936395488679409 0.0 0.0 0.0 0.0
0.159 -0.5014937520027161 -0.10614913702011108 0.00015174783766269684 0.000907200388610363 0.0 0.0 0.0 0.0
0.16 -0.4969709813594818 -0.004541193135082722 0.00041832681745290756 0.0008675241842865944 0.0 0.0 0.0 0.0
0.161 -0.47868314385414124 0.09579863399267197 0.0005998061969876289 0.0005154851824045181 0.0 0.0 0.0 0.0
0.162 -0.43847522139549255 0.18842895328998566 0.0008196095004677773 0.0004611341282725334 0.0 0.0 0.0 0.0
0.163 -0.3857572078704834 0.272508829832077 0.0008221622556447983 0.00031984690576791763 0.0 0.0 0.0 0.0
0.164 -0.3189906179904938 0.3463923931121826 0.0007716873660683632 0.0001279124990105629 0.0 0.0 0.0 0.0
0.165 -0.2394271045923233 0.4071963429450989 0.0006309263408184052 -4.331953823566437e-05 0.0 0.0 0.0 0.0
0.166 -0.15204724669456482 0.45166048407554626 0.0006005149334669113 -0.00018418114632368088 0.0 0.0 0.0 0.0
0.167 -0.05728481709957123 0.48284298181533813 0.0005455566570162773 -0.00023861881345510483 0.0 0.0 0.0 0.0
0.168 0.043239496648311615 0.49516040086746216 0.00029261037707328796 -0.00038475915789604187 0.0 0.0 0.0 0.0
0.169 0.14510609209537506 0.4905473291873932 0.00014020781964063644 -0.0006322506815195084 0.0 0.0 0.0 0.0
0.17 0.24337035417556763 0.46502870321273804 9.845849126577377e-05 -0.0005773147568106651 0.0 0.0 0.0 0.0
0.171 0.34006160497665405 0.4245181083679199 -0.0001225275918841362 -0.000509052537381649 0.0 0.0 0.0 0.0
0.172 0.42681413888931274 0.36175045371055603 -1.914333552122116e-05 -0.0003964323550462723 0.0 0.0 0.0 0.0
0.173 0.505297839641571 0.28479722142219543 -0.00011229980736970901 -0.00032090209424495697 0.0 0.0 0.0 0.0
0.174 0.563635528087616 0.1934410184621811 -0.00019260495901107788 -4.079844802618027e-05 0.0 0.0 0.0 0.0
0.175 0.6068637371063232 0.0897403433918953 -2.123229205608368e-05 5.866680294275284e-05 0.0 0.0 0.0 0.0
0.176 0.6254139542579651 -0.025072306394577026 -5.9412792325019836e-05 8.866656571626663e-05 0.0 0.0 0.0 0.0
0.177 0.6242940425872803 -0.13974665105342865 0.00033682677894830704 -0.00023931264877319336 0.0 0.0 0.0 0.0
0.178 0.5955350399017334 -0.2518363893032074 0.0002773841843008995 -0.0007882965728640556 0.0 0.0 0.0 0.0
0.179 0.5477645397186279 -0.3613694906234741 0.0001070098951458931 -0.000709163025021553 0.0 0.0 0.0 0.0
0.18 0.474370539188385 -0.45561811327934265 -0.00030118227005004883 -0.0007752180099487305 0.0 0.0 0.0 0.0
0.181 0.384875625371933 -0.5334895849227905 -0.0007209954783320427 -0.0005670413374900818 0.0 0.0 0.0 0.0
0.182 0.27643299102783203 -0.5893353223800659 -0.001005072146654129 -0.0004888307303190231 0.0 0.0 0.0 0.0
0.183 0.1618422120809555 -0.6243953108787537 -0.00110658910125494 -0.00019458401948213577 0.0 0.0 0.0 0.0
0.184 0.04231106862425804 -0.6315752863883972 -0.0013350490480661392 7.17630609869957e-05 0.0 0.0 0.0 0.0
0.185 -0.07188135385513306 -0.6122395992279053 -0.0012473594397306442 0.0007496215403079987 0.0 0.0 0.0 0.0
