!Created with skrf (http://scikit-rf.org).
# GHz S RI R 50.0 
!freq ReS11 ImS11 ReS21 ImS21 ReS12 ImS12 ReS22 ImS22
0.001 1.0417871475219727 -0.14201389253139496 -6.576627492904663e-05 9.422376751899719e-05 0.0 0.0 0.0 0.0
0.002 0.9481019377708435 -0.2684890925884247 -2.79843807220459e-05 -0.00015669502317905426 0.0 0.0 0.0 0.0
0.003 0.8970076441764832 -0.3858334720134735 5.313754081726074e-05 0.00014493800699710846 0.0 0.0 0.0 0.0
0.004 0.823706865310669 -0.4914306104183197 -0.00013536401093006134 -0.00010923296213150024 0.0 0.0 0.0 0.0
0.005 0.7407629489898682 -0.5811871886253357 0.00016879010945558548 0.00015968084335327148 0.0 0.0 0.0 0.0
0.006 0.6381855607032776 -0.6666122674942017 3.487616777420044e-05 3.3138319849967957e-05 0.0 0.0 0.0 0.0
0.007 0.536364734172821 -0.7281762361526489 0.00010214000940322876 0.00016810093075037003 0.0 0.0 0.0 0.0
0.008 0.4113054871559143 -0.773070752620697 7.377192378044128e-05 -0.00022499356418848038 0.0 0.0 0.0 0.0
0.009 0.29095086455345154 -0.8018878698348999 -9.281560778617859e-06 -0.00010806415230035782 0.0 0.0 0.0 0.0
0.01 0.1610775887966156 -0.8115758299827576 -2.76174396276474e-05 -0.0003717225044965744 0.0 0.0 0.0 0.0
0.011 0.034736860543489456 -0.794869065284729 -5.263742059469223e-05 6.972812116146088e-05 0.0 0.0 0.0 0.0
0.012 -0.08415663242340088 -0.76727694272995 0.00010292883962392807 0.00010531581938266754 0.0 0.0 0.0 0.0
0.013 -0.2029806226491928 -0.7066693305969238 2.521555870771408e-05 -1.9737519323825836e-05 0.0 0.0 0.0 0.0
0.014 -0.29906585812568665 -0.6336336731910706 3.5043805837631226e-05 5.701091140508652e-05 0.0 0.0 0.0 0.0
0.015 -0.3943535089492798 -0.5430037379264832 9.904894977807999e-05 0.00018448475748300552 0.0 0.0 0.0 0.0
0.016 -0.4765453040599823 -0.43298304080963135 0.0008081039413809776 0.0014954134821891785 0.0 0.0 0.0 0.0
0.017 -0.5345236659049988 -0.3122970163822174 -0.0002724630758166313 -0.0006371904164552689 0.0 0.0 0.0 0.0
0.018 -0.5752569437026978 -0.1725805252790451 -0.0005044592544436455 -0.0007093250751495361 0.0 0.0 0.0 0.0
0.019 -0.5843523144721985 -0.02675725519657135 -0.0008961176499724388 -0.0006500957533717155 0.0 0.0 0.0 0.0
0.02 -0.5600748658180237 0.12217044085264206 -0.0030658384785056114 0.0011738184839487076 0.0 0.0 0.0 0.0
0.021 -0.5060539841651917 0.26777827739715576 0.0018698982894420624 0.0012555131688714027 0.0 0.0 0.0 0.0
0.022 -0.4194646179676056 0.39792755246162415 0.0012957584112882614 -3.3901073038578033e-05 0.0 0.0 0.0 0.0
0.023 -0.30179810523986816 0.5148375034332275 0.0007301373407244682 -0.0005853725597262383 0.0 0.0 0.0 0.0
0.024 -0.15507172048091888 0.5987087488174438 -8.945539593696594e-05 -0.0005478570237755775 0.0 0.0 0.0 0.0
0.025 0.008504380472004414 0.645204484462738 -8.851848542690277e-05 -0.0003282278776168823 0.0 0.0 0.0 0.0
0.026 0.18419930338859558 0.6541187167167664 -0.000125126913189888 -0.00020331889390945435 0.0 0.0 0.0 0.0
0.027 0.3587724268436432 0.6168203949928284 -7.236376404762268e-07 -0.0003142552450299263 0.0 0.0 0.0 0.0
0.028 0.5188964009284973 0.534317672252655 -0.000258617103099823 -0.0002912534400820732 0.0 0.0 0.0 0.0
0.029 0.6508923768997192 0.41637617349624634 -0.00020601041615009308 -0.00019121728837490082 0.0 0.0 0.0 0.0
0.03 0.7510638236999512 0.27106305956840515 -0.00034777820110321045 -0.0002027740702033043 0.0 0.0 0.0 0.0
0.031 0.8080154061317444 0.10570196807384491 -0.0004860116168856621 4.8595480620861053e-05 0.0 0.0 0.0 0.0
0.032 0.8245750069618225 -0.06660761684179306 -0.002193753607571125 -0.0012802956625819206 0.0 0.0 0.0 0.0
0.033 0.8026268482208252 -0.2298283725976944 -0.000603729858994484 5.879160016775131e-05 0.0 0.0 0.0 0.0
0.034 0.7412840723991394 -0.37671804428100586 -0.00029330048710107803 0.0005585644394159317 0.0 0.0 0.0 0.0
0.035 0.6534357666969299 -0.5067397356033325 0.0004892535507678986 0.0005812505260109901 0.0 0.0 0.0 0.0
0.036 0.5431511998176575 -0.6040965914726257 0.0003427676856517792 0.0003900323063135147 0.0 0.0 0.0 0.0
0.037 0.4226986765861511 -0.6769713163375854 0.0002843644469976425 0.00015471596270799637 0.0 0.0 0.0 0.0
0.038 0.29559415578842163 -0.7240204811096191 0.0002383096143603325 5.378201603889465e-05 0.0 0.0 0.0 0.0
0.039 0.16318859159946442 -0.7476873993873596 0.0003552353009581566 0.00010937917977571487 0.0 0.0 0.0 0.0
0.04 0.03336405009031296 -0.7400575280189514 1.1358410120010376e-05 -0.00037180911749601364 0.0 0.0 0.0 0.0
0.041 -0.08947507292032242 -0.7174857258796692 -7.809512317180634e-05 -0.0002833288162946701 0.0 0.0 0.0 0.0
0.042 -0.20312711596488953 -0.6663665175437927 6.774812936782837e-05 0.0001451028510928154 0.0 0.0 0.0 0.0
0.043 -0.3017365038394928 -0.6026361584663391 9.021628648042679e-05 -0.00018286798149347305 0.0 0.0 0.0 0.0
0.044 -0.3863513469696045 -0.525330126285553 0.00018149521201848984 0.00026786886155605316 0.0 0.0 0.0 0.0
0.045 -0.4631906747817993 -0.435989648103714 0.00014251656830310822 -0.0002127932384610176 0.0 0.0 0.0 0.0
0.046 -0.517281174659729 -0.33594954013824463 2.1012499928474426e-05 -0.0001483224332332611 0.0 0.0 0.0 0.0
0.047 -0.5532962083816528 -0.2256842702627182 -7.703527808189392e-05 -0.00010355468839406967 0.0 0.0 0.0 0.0
0.048 -0.5707884430885315 -0.11431249976158142 -0.00036004744470119476 -0.00012773089110851288 0.0 0.0 0.0 0.0
0.049 -0.5693630576133728 -0.0018693823367357254 -0.00010514911264181137 -9.93506982922554e-05 0.0 0.0 0.0 0.0
0.05 -0.5518487095832825 0.11342933773994446 0.00014859624207019806 -0.00016654282808303833 0.0 0.0 0.0 0.0
0.051 -0.511752724647522 0.2255575954914093 0.0001666620373725891 -0.00048317108303308487 0.0 0.0 0.0 0.0
0.052 -0.4498659670352936 0.3292514681816101 -0.00014230981469154358 -0.00024569686502218246 0.0 0.0 0.0 0.0
0.053 -0.37198901176452637 0.42110109329223633 -0.00029900670051574707 -0.00019954610615968704 0.0 0.0 0.0 0.0
0.054 -0.2765659987926483 0.49875369668006897 -0.0003172410652041435 -1.9321218132972717e-05 0.0 0.0 0.0 0.0
0.055 -0.16313664615154266 0.5610823035240173 8.195638656616211e-07 -0.0001222388818860054 0.0 0.0 0.0 0.0
0.056 -0.03787408769130707 0.6000102162361145 -0.00012432411313056946 -0.0002393638715147972 0.0 0.0 0.0 0.0
0.057 0.09766847640275955 0.6119275093078613 -0.0004943870007991791 -0.00015452224761247635 0.0 0.0 0.0 0.0
0.058 0.2337580770254135 0.5986886024475098 -0.0005917074158787727 0.00013617798686027527 0.0 0.0 0.0 0.0
0.059 0.36910781264305115 0.5536847114562988 -0.0011445702984929085 0.0008151596412062645 0.0 0.0 0.0 0.0
0.06 0.4915187656879425 0.4791823625564575 -5.50244003534317e-05 0.0017613591626286507 0.0 0.0 0.0 0.0
0.061 0.6002988815307617 0.3779005706310272 0.0015795156359672546 0.0010452726855874062 0.0 0.0 0.0 0.0
0.062 0.683843195438385 0.25426727533340454 0.001799057237803936 -3.846269100904465e-05 0.0 0.0 0.0 0.0
0.063 0.7379052042961121 0.11113844066858292 0.0013012504205107689 -0.0007169712334871292 0.0 0.0 0.0 0.0
0.064 0.7553302645683289 -0.03833929821848869 0.001284346915781498 -0.00021763518452644348 0.0 0.0 0.0 0.0
0.065 0.7472209334373474 -0.18998941779136658 0.0005817525088787079 -0.0021799448877573013 0.0 0.0 0.0 0.0
0.066 0.6964654922485352 -0.3314017951488495 -0.0014916760846972466 -0.0030515678226947784 0.0 0.0 0.0 0.0
0.067 0.6180205345153809 -0.4572460353374481 -0.0036243079230189323 0.0011987071484327316 0.0 0.0 0.0 0.0
0.068 0.5167787671089172 -0.5627225041389465 -0.0002520661801099777 0.0014231661334633827 0.0 0.0 0.0 0.0
0.069 0.3986349403858185 -0.6389860510826111 0.0001573478803038597 0.0011073751375079155 0.0 0.0 0.0 0.0
0.07 0.27183088660240173 -0.6864087581634521 0.00023741088807582855 0.000214490108191967 0.0 0.0 0.0 0.0
0.071 0.14081385731697083 -0.707919716835022 0.00044207461178302765 5.432497709989548e-05 0.0 0.0 0.0 0.0
0.072 0.010751551017165184 -0.7085474133491516 0.0002023475244641304 0.00010941363871097565 0.0 0.0 0.0 0.0
0.073 -0.1125451847910881 -0.6773932576179504 0.000102178193628788 2.8298236429691315e-05 0.0 0.0 0.0 0.0
0.074 -0.22419604659080505 -0.6274184584617615 0.0002887863665819168 6.887130439281464e-05 0.0 0.0 0.0 0.0
0.075 -0.3263486325740814 -0.5610891580581665 0.00015339069068431854 -0.00011902209371328354 0.0 0.0 0.0 0.0
0.076 -0.40930527448654175 -0.47296422719955444 -2.8990209102630615e-05 -3.93204391002655e-06 0.0 0.0 0.0 0.0
0.077 -0.4725474417209625 -0.37709125876426697 -6.026029586791992e-05 2.9398128390312195e-05 0.0 0.0 0.0 0.0
0.078 -0.516569197177887 -0.27309462428092957 5.254056304693222e-05 8.596479892730713e-05 0.0 0.0 0.0 0.0
0.079 -0.5450990200042725 -0.16564618051052094 8.49645584821701e-05 -0.00017475057393312454 0.0 0.0 0.0 0.0
0.08 -0.5528424978256226 -0.05477750673890114 0.0001673167571425438 -1.801922917366028e-05 0.0 0.0 0.0 0.0
0.081 -0.5407106280326843 0.05262814834713936 0.0002816691994667053 -0.00030024629086256027 0.0 0.0 0.0 0.0
0.082 -0.5131808519363403 0.16031621396541595 0.00019865576177835464 3.589596599340439e-05 0.0 0.0 0.0 0.0
0.083 -0.463689923286438 0.25905483961105347 0.0002185208722949028 -0.0003737080842256546 0.0 0.0 0.0 0.0
0.084 -0.3994276523590088 0.3536369800567627 -5.321204662322998e-05 -0.0009213881567120552 0.0 0.0 0.0 0.0
0.085 -0.3165486454963684 0.4329909384250641 -0.00042427703738212585 -0.0007420014590024948 0.0 0.0 0.0 0.0
0.086 -0.22115108370780945 0.49398157000541687 -0.0007890267297625542 -0.0006647724658250809 0.0 0.0 0.0 0.0
0.087 -0.1146247386932373 0.5417343974113464 -0.0013543302193284035 -0.00039003603160381317 0.0 0.0 0.0 0.0
0.088 0.003937854431569576 0.565703272819519 -0.0018139304593205452 -5.714595317840576e-06 0.0 0.0 0.0 0.0
0.089 0.12473458796739578 0.5697364211082458 -0.007472740486264229 -0.005875526927411556 0.0 0.0 0.0 0.0
0.09 0.24964039027690887 0.5497042536735535 -0.0018183495849370956 0.0024348851293325424 0.0 0.0 0.0 0.0
0.091 0.36656323075294495 0.5006621479988098 0.00012742076069116592 0.004348595626652241 0.0 0.0 0.0 0.0
0.092 0.4769134819507599 0.42977210879325867 0.0021949494257569313 0.0021015768870711327 0.0 0.0 0.0 0.0
0.093 0.5704377889633179 0.3348371684551239 0.0030481209978461266 0.0006627961993217468 0.0 0.0 0.0 0.0
0.094 0.644607663154602 0.2196367084980011 0.00230579636991024 -0.0006959596648812294 0.0 0.0 0.0 0.0
0.095 0.6904561519622803 0.08736718446016312 0.0015489999204874039 -0.001058434136211872 0.0 0.0 0.0 0.0
0.096 0.7088701725006104 -0.04781972989439964 0.000861036591231823 -0.0024051163345575333 0.0 0.0 0.0 0.0
0.097 0.6982504725456238 -0.19090762734413147 0.0011950666084885597 -0.0014599151909351349 0.0 0.0 0.0 0.0
0.098 0.6532532572746277 -0.3237534463405609 0.00046742241829633713 -0.001318938098847866 0.0 0.0 0.0 0.0
0.099 0.5803669095039368 -0.44278445839881897 -0.0003385394811630249 -0.0014923345297574997 0.0 0.0 0.0 0.0
0.1 0.47838449478149414 -0.5585532784461975 -6.487779319286346e-05 -0.0009238617494702339 0.0 0.0 0.0 0.0
0.101 0.3474613130092621 -0.6195600032806396 -0.000302337110042572 -0.000950871966779232 0.0 0.0 0.0 0.0
0.102 0.21788910031318665 -0.6635662913322449 -0.0002928897738456726 -0.0010483497753739357 0.0 0.0 0.0 0.0
0.103 0.0876777246594429 -0.6739983558654785 -0.0003565652295947075 -0.0012908019125461578 0.0 0.0 0.0 0.0
0.104 -0.03581157699227333 -0.6632475256919861 -0.0010336488485336304 -0.0011503677815198898 0.0 0.0 0.0 0.0
0.105 -0.1488402783870697 -0.6240133047103882 -0.0014437390491366386 -0.0005334578454494476 0.0 0.0 0.0 0.0
0.106 -0.25188857316970825 -0.5721883177757263 -0.0015996098518371582 -0.00030202604830265045 0.0 0.0 0.0 0.0
0.107 -0.33661791682243347 -0.498516321182251 -0.0013706879690289497 0.0004528462886810303 0.0 0.0 0.0 0.0
0.108 -0.40888792276382446 -0.4147469699382782 -0.0011703511700034142 0.0007091779261827469 0.0 0.0 0.0 0.0
0.109 -0.46083787083625793 -0.32547250390052795 -0.0008397111669182777 0.0008980715647339821 0.0 0.0 0.0 0.0
0.11 -0.4985189437866211 -0.22625510394573212 -0.0006128950044512749 0.0011601317673921585 0.0 0.0 0.0 0.0
0.111 -0.5173432230949402 -0.12616123259067535 -0.000276077538728714 0.001216113567352295 0.0 0.0 0.0 0.0
0.112 -0.5195116996765137 -0.02597210928797722 0.00022441335022449493 0.001138937659561634 0.0 0.0 0.0 0.0
0.113 -0.50301593542099 0.07412949949502945 0.000428028404712677 0.0010734191164374352 0.0 0.0 0.0 0.0
0.114 -0.47224557399749756 0.16790267825126648 0.0006462698802351952 0.000491398386657238 0.0 0.0 0.0 0.0
0.115 -0.42650893330574036 0.256972998380661 0.0006882529705762863 0.0004914905875921249 0.0 0.0 0.0 0.0
0.116 -0.3656645119190216 0.338074266910553 0.0006824498996138573 0.0003803912550210953 0.0 0.0 0.0 0.0
0.117 -0.28984126448631287 0.406448632478714 0.0009017651900649071 0.00039535388350486755 0.0 0.0 0.0 0.0
0.118 -0.20356203615665436 0.4631781578063965 0.0009573567658662796 3.819167613983154e-05 0.0 0.0 0.0 0.0
0.119 -0.107742078602314 0.5030178427696228 0.001054546795785427 -0.00015993323177099228 0.0 0.0 0.0 0.0
0.12 -0.002358758822083473 0.5279375314712524 0.0010190661996603012 -0.0006224252283573151 0.0 0.0 0.0 0.0
0.121 0.10670369863510132 0.532031774520874 0.0008135270327329636 -0.0007629264146089554 0.0 0.0 0.0 0.0
0.122 0.218850240111351 0.5158088207244873 0.0005823196843266487 -0.0011126156896352768 0.0 0.0 0.0 0.0
0.123 0.3266242742538452 0.4758392572402954 -9.727757424116135e-05 -0.0014003179967403412 0.0 0.0 0.0 0.0
0.124 0.43038326501846313 0.41719672083854675 -0.000641973689198494 -0.0012087775394320488 0.0 0.0 0.0 0.0
0.125 0.5185205340385437 0.3323368430137634 -0.0012941081076860428 -0.000822683796286583 0.0 0.0 0.0 0.0
0.126 0.5922477841377258 0.23327019810676575 -0.0012081470340490341 7.599592208862305e-07 0.0 0.0 0.0 0.0
0.127 0.642065167427063 0.11498331278562546 -0.001040387898683548 0.00043866783380508423 0.0 0.0 0.0 0.0
0.128 0.6690572500228882 -0.012220416218042374 -0.000575297512114048 0.0006072353571653366 0.0 0.0 0.0 0.0
0.129 0.6611164212226868 -0.14387205243110657 -0.00046223122626543045 0.001015116460621357 0.0 0.0 0.0 0.0
0.13 0.6304635405540466 -0.27499669790267944 2.183392643928528e-05 0.0009566387161612511 0.0 0.0 0.0 0.0
0.131 0.5684884786605835 -0.3892774283885956 0.0005317386239767075 0.001081688329577446 0.0 0.0 0.0 0.0
0.132 0.48170042037963867 -0.4935761094093323 0.0008804053068161011 0.0008592978119850159 0.0 0.0 0.0 0.0
0.133 0.375777006149292 -0.5699155330657959 0.0012504654005169868 0.0003551142290234566 0.0 0.0 0.0 0.0
0.134 0.2577537000179291 -0.6224445104598999 0.0013406192883849144 -0.0004979837685823441 0.0 0.0 0.0 0.0
0.135 0.13344627618789673 -0.6472780108451843 0.0010168366134166718 -0.001466706395149231 0.0 0.0 0.0 0.0
0.136 0.009407740086317062 -0.646661639213562 -0.0004267878830432892 -0.0017446167767047882 0.0 0.0 0.0 0.0
0.137 -0.10692727565765381 -0.6183260083198547 -0.0010193195194005966 -0.00040684454143047333 0.0 0.0 0.0 0.0
0.138 -0.2136377990245819 -0.5721957087516785 -0.0005150735378265381 0.0001665167510509491 0.0 0.0 0.0 0.0
0.139 -0.30747443437576294 -0.5056774616241455 -0.00018911436200141907 9.308476001024246e-05 0.0 0.0 0.0 0.0
0.14 -0.3836340606212616 -0.42341509461402893 -0.0001982860267162323 0.00010473188012838364 0.0 0.0 0.0 0.0
0.141 -0.44391900300979614 -0.3324181139469147 1.5554018318653107e-05 8.856691420078278e-05 0.0 0.0 0.0 0.0
0.142 -0.4829161465167999 -0.23110415041446686 -0.00013437215238809586 -0.0002138456329703331 0.0 0.0 0.0 0.0
0.143 -0.5022653937339783 -0.12851667404174805 3.2092444598674774e-05 -3.91816720366478e-05 0.0 0.0 0.0 0.0
0.144 -0.5039609670639038 -0.025941642001271248 -0.00016283337026834488 4.485622048377991e-05 0.0 0.0 0.0 0.0
0.145 -0.4871163070201874 0.07384426891803741 -0.00010708160698413849 -2.0639970898628235e-05 0.0 0.0 0.0 0.0
0.146 -0.456137478351593 0.16934791207313538 -0.00012139696627855301 -2.080388367176056e-05 0.0 0.0 0.0 0.0
0.147 -0.40627071261405945 0.25463977456092834 -1.704692840576172e-05 -2.4034641683101654e-05 0.0 0.0 0.0 0.0
0.148 -0.34340229630470276 0.33441653847694397 -0.00016948487609624863 -9.705591946840286e-05 0.0 0.0 0.0 0.0
0.149 -0.2665090560913086 0.3984602391719818 -1.689046621322632e-05 3.1084753572940826e-05 0.0 0.0 0.0 0.0
0.15 -0.18122489750385284 0.44931238889694214 0.00014483463019132614 -0.0001728227362036705 0.0 0.0 0.0 0.0
0.151 -0.08548200875520706 0.48481595516204834 -1.8098391592502594e-05 3.942567855119705e-05 0.0 0.0 0.0 0.0
0.152 0.014738477766513824 0.5034403800964355 8.596200495958328e-05 -0.0001326240599155426 0.0 0.0 0.0 0.0
0.153 0.11881427466869354 0.5038285255432129 7.12936744093895e-05 -1.8862076103687286e-05 0.0 0.0 0.0 0.0
0.154 0.22282183170318604 0.48472175002098083 -7.501523941755295e-05 -9.979773312807083e-05 0.0 0.0 0.0 0.0
0.155 0.32399049401283264 0.4459434747695923 -0.0003164643421769142 -0.00021870341151952744 0.0 0.0 0.0 0.0
0.156 0.416509211063385 0.3873629868030548 -0.0004489505663514137 -0.0003403676673769951 0.0 0.0 0.0 0.0
0.157 0.4982358515262604 0.3090938925743103 -0.00040540099143981934 -0.00020613055676221848 0.0 0.0 0.0 0.0
0.158 0.5643774271011353 0.2159867286682129 -0.0006031384691596031 5.768239498138428e-05 0.0 0.0 0.0 0.0
0.159 0.6109368205070496 0.10843965411186218 -0.000689665786921978 0.00022169295698404312 0.0 0.0 0.0 0.0
0.16 0.6357842683792114 -0.006986377760767937 -0.000584806315600872 0.00032543763518333435 0.0 0.0 0.0 0.0
0.161 0.6346970796585083 -0.12811626493930817 6.197765469551086e-05 0.001253729686141014 0.0 0.0 0.0 0.0
0.162 0.6084842085838318 -0.2476530820131302 -0.00016920547932386398 0.0006507467478513718 0.0 0.0 0.0 0.0
0.163 0.5564613342285156 -0.35968029499053955 -0.0001227501779794693 0.0010849982500076294 0.0 0.0 0.0 0.0
0.164 0.4817824065685272 -0.45798173546791077 3.66969034075737e-05 0.0011030882596969604 0.0 0.0 0.0 0.0
0.165 0.3857606053352356 -0.5379711389541626 0.00035217124968767166 0.0011480944231152534 0.0 0.0 0.0 0.0
0.166 0.27733731269836426 -0.5960516929626465 0.0009172605350613594 0.0012099333107471466 0.0 0.0 0.0 0.0
0.167 0.15740272402763367 -0.6286433935165405 0.000988607294857502 0.000952327623963356 0.0 0.0 0.0 0.0
0.168 0.0372612327337265 -0.6352256536483765 0.001588701270520687 0.000624542124569416 0.0 0.0 0.0 0.0
0.169 -0.08178453892469406 -0.6152790784835815 0.0019693756476044655 0.0003675511106848717 0.0 0.0 0.0 0.0
0.17 -0.19149164855480194 -0.5723221302032471 0.002337212674319744 -0.00042110681533813477 0.0 0.0 0.0 0.0
0.171 -0.28624364733695984 -0.5078713297843933 0.002448025159537792 -0.001169232651591301 0.0 0.0 0.0 0.0
0.172 -0.3678645193576813 -0.42769762873649597 0.00201458390802145 -0.002381199039518833 0.0 0.0 0.0 0.0
0.173 -0.42719534039497375 -0.33667534589767456 0.0010561831295490265 -0.0033005960285663605 0.0 0.0 0.0 0.0
0.174 -0.47104910016059875 -0.23666295409202576 -0.0007719984278082848 -0.003876875154674053 0.0 0.0 0.0 0.0
0.175 -0.49269789457321167 -0.13014885783195496 -0.002652350813150406 -0.0029548201709985733 0.0 0.0 0.0 0.0
0.176 -0.49107125401496887 -0.02517930418252945 -0.0033631036058068275 -0.0007189875468611717 0.0 0.0 0.0 0.0
0.177 -0.4757400453090668 0.07536659389734268 -0.003123784437775612 -9.225960820913315e-05 0.0 0.0 0.0 0.0
0.178 -0.437785267829895 0.16914328932762146 -0.0023058196529746056 0.0011141002178192139 0.0 0.0 0.0 0.0
0.179 -0.3858696222305298 0.2560561001300812 -0.001545093022286892 0.0016222689300775528 0.0 0.0 0.0 0.0
0.18 -0.3192829489707947 0.33096352219581604 -0.0008844295516610146 0.0018390677869319916 0.0 0.0 0.0 0.0
0.181 -0.2412092089653015 0.3934094309806824 -0.0002816813066601753 0.001699899323284626 0.0 0.0 0.0 0.0
0.182 -0.1530599743127823 0.43948596715927124 0.00034183915704488754 0.0014694314450025558 0.0 0.0 0.0 0.0
0.183 -0.05956029146909714 0.47043171525001526 0.0005549434572458267 0.0011634519323706627 0.0 0.0 0.0 0.0
0.184 0.03914402052760124 0.4822342097759247 0.0007668044418096542 0.0008597727864980698 0.0 0.0 0.0 0.0
0.185 0.13834689557552338 0.4776223301887512 0.0007239142432808876 0.0003599720075726509 0.0 0.0 0.0 0.0
0.186 0.23584017157554626 0.4540104866027832 0.0007308274507522583 6.524007767438889e-05 0.0 0.0 0.0 0.0
