!Created with skrf (http://scikit-rf.org).
# GHz S RI R 50.0 
!freq ReS11 ImS11 ReS21 ImS21 ReS12 ImS12 ReS22 ImS22
0.001 -0.6464388966560364 0.14184792339801788 -1.1352822184562683e-05 1.5789642930030823e-05 0.0 0.0 0.0 0.0
0.002 -0.6037546992301941 0.27042272686958313 -9.471550583839417e-07 1.5886500477790833e-05 0.0 0.0 0.0 0.0
0.003 -0.5428135991096497 0.38962528109550476 -1.8810853362083435e-05 1.0826624929904938e-05 0.0 0.0 0.0 0.0
0.004 -0.4628834128379822 0.4972933828830719 -4.1833147406578064e-05 -1.9378960132598877e-05 0.0 0.0 0.0 0.0
0.005 -0.3656097948551178 0.5919754505157471 -2.3618340492248535e-05 1.5703029930591583e-05 0.0 0.0 0.0 0.0
0.006 -0.2525034546852112 0.6689624190330505 1.7958693206310272e-05 4.0940940380096436e-06 0.0 0.0 0.0 0.0
0.007 -0.12457996606826782 0.7280594110488892 -5.3318217396736145e-06 -1.3549812138080597e-05 0.0 0.0 0.0 0.0
0.008 0.017269592732191086 0.7640830278396606 6.790272891521454e-06 -4.637613892555237e-05 0.0 0.0 0.0 0.0
0.009 0.16790901124477386 0.7737464904785156 -3.522355109453201e-05 1.043267548084259e-05 0.0 0.0 0.0 0.0
0.01 0.32224881649017334 0.7517969012260437 -9.841285645961761e-06 -1.610349863767624e-05 0.0 0.0 0.0 0.0
0.011 0.4755183756351471 0.6970741748809814 -1.9161030650138855e-05 3.875885158777237e-05 0.0 0.0 0.0 0.0
0.012 0.6177244186401367 0.6087875962257385 -7.079076021909714e-05 -7.952563464641571e-06 0.0 0.0 0.0 0.0
0.013 0.7397968769073486 0.48825791478157043 -1.5136785805225372e-05 -1.6706064343452454e-05 0.0 0.0 0.0 0.0
0.014 0.8356714844703674 0.34010210633277893 -2.4699606001377106e-05 3.1478703022003174e-07 0.0 0.0 0.0 0.0
0.015 0.8936825394630432 0.1725064069032669 -2.0323321223258972e-05 4.118494689464569e-05 0.0 0.0 0.0 0.0
0.016 0.9122271537780762 -0.008299808017909527 1.651328057050705e-05 -1.282431185245514e-05 0.0 0.0 0.0 0.0
0.017 0.888131320476532 -0.18710549175739288 3.059953451156616e-05 -3.369338810443878e-05 0.0 0.0 0.0 0.0
0.018 0.8232403993606567 -0.35051628947257996 -0.0001948745921254158 -6.086193025112152e-05 0.0 0.0 0.0 0.0
0.019 0.7260486483573914 -0.4944065809249878 -6.210058927536011e-06 6.7918561398983e-05 0.0 0.0 0.0 0.0
0.02 0.6023166179656982 -0.6075764894485474 3.452319651842117e-05 0.00019823294132947922 0.0 0.0 0.0 0.0
0.021 0.46253111958503723 -0.6887863278388977 2.6474706828594208e-05 1.5197321772575378e-05 0.0 0.0 0.0 0.0
0.022 0.3148171305656433 -0.737473726272583 1.722387969493866e-05 4.546716809272766e-06 0.0 0.0 0.0 0.0
0.023 0.16656969487667084 -0.754709005355835 1.026783138513565e-05 1.0108575224876404e-05 0.0 0.0 0.0 0.0
0.024 0.024188430979847908 -0.7444300055503845 -7.76723027229309e-06 -7.463619112968445e-06 0.0 0.0 0.0 0.0
0.025 -0.10849911719560623 -0.708276093006134 -5.739368498325348e-05 -3.728177398443222e-05 0.0 0.0 0.0 0.0
0.026 -0.2277783900499344 -0.6525343060493469 3.82494181394577e-05 -2.988334745168686e-05 0.0 0.0 0.0 0.0
0.027 -0.3330027163028717 -0.5792880058288574 2.1061860024929047e-05 1.5787780284881592e-05 0.0 0.0 0.0 0.0
0.028 -0.42146843671798706 -0.49243274331092834 -2.6327557861804962e-05 -2.0364299416542053e-05 0.0 0.0 0.0 0.0
0.029 -0.4927899241447449 -0.3937402069568634 3.311876207590103e-05 -1.1108815670013428e-05 0.0 0.0 0.0 0.0
0.03 -0.5476068258285522 -0.2878676950931549 4.36045229434967e-06 2.2304244339466095e-05 0.0 0.0 0.0 0.0
0.031 -0.5839172005653381 -0.17625540494918823 -2.636946737766266e-05 3.5921111702919006e-06 0.0 0.0 0.0 0.0
0.032 -0.6031410694122314 -0.061323877424001694 -3.127008676528931e-05 1.7764978110790253e-05 0.0 0.0 0.0 0.0
0.033 -0.6038322448730469 0.055686719715595245 1.7173588275909424e-06 -8.186325430870056e-07 0.0 0.0 0.0 0.0
0.034 -0.5860431790351868 0.1724148392677307 -4.169810563325882e-05 2.0740553736686707e-05 0.0 0.0 0.0 0.0
0.035 -0.5492342710494995 0.28686827421188354 -8.359551429748535e-06 -3.9558857679367065e-05 0.0 0.0 0.0 0.0
0.036 -0.49303796887397766 0.39597880840301514 4.773959517478943e-05 1.328345388174057e-05 0.0 0.0 0.0 0.0
0.037 -0.41771402955055237 0.4957180917263031 3.908760845661163e-06 -1.3640150427818298e-05 0.0 0.0 0.0 0.0
0.038 -0.32348451018333435 0.5843073129653931 -2.4069100618362427e-05 4.547648131847382e-06 0.0 0.0 0.0 0.0
0.039 -0.21219830214977264 0.6569846868515015 1.700129359960556e-05 4.180055111646652e-05 0.0 0.0 0.0 0.0
0.04 -0.08460991084575653 0.708903431892395 1.339055597782135e-05 -1.7162412405014038e-05 0.0 0.0 0.0 0.0
0.041 0.05580030009150505 0.7367724180221558 6.088055670261383e-06 -8.218921720981598e-06 0.0 0.0 0.0 0.0
0.042 0.2041676938533783 0.7364960312843323 6.938353180885315e-06 -6.216112524271011e-05 0.0 0.0 0.0 0.0
0.043 0.35404515266418457 0.7039504647254944 2.1969899535179138e-05 -5.860812962055206e-06 0.0 0.0 0.0 0.0
0.044 0.49763941764831543 0.6383902430534363 -4.1789375245571136e-05 -1.6818754374980927e-05 0.0 0.0 0.0 0.0
0.045 0.6253238916397095 0.5404340624809265 1.2923963367938995e-05 3.887247294187546e-05 0.0 0.0 0.0 0.0
0.046 0.7317247986793518 0.4146259129047394 2.0733103156089783e-05 4.552304744720459e-06 0.0 0.0 0.0 0.0
0.047 0.8053362965583801 0.2650957405567169 -2.1156854927539825e-05 1.1702999472618103e-05 0.0 0.0 0.0 0.0
0.048 0.843595027923584 0.101779043674469 -3.097113221883774e-05 -5.4115429520606995e-05 0.0 0.0 0.0 0.0
0.049 0.84264075756073 -0.06341096013784409 -1.9535422325134277e-05 2.4578534066677094e-05 0.0 0.0 0.0 0.0
0.05 0.8055877089500427 -0.2218317687511444 -1.3874843716621399e-05 9.415671229362488e-07 0.0 0.0 0.0 0.0
0.051 0.7349321246147156 -0.3628244400024414 -2.7933157980442047e-05 1.521129161119461e-05 0.0 0.0 0.0 0.0
0.052 0.6389633417129517 -0.4825086295604706 -3.882031887769699e-05 3.405380994081497e-05 0.0 0.0 0.0 0.0
0.053 0.5241405963897705 -0.5759389996528625 -9.694136679172516e-06 1.912470906972885e-05 0.0 0.0 0.0 0.0
0.054 0.39678138494491577 -0.6418530344963074 -3.1626783311367035e-05 1.996103674173355e-05 0.0 0.0 0.0 0.0
0.055 0.26471343636512756 -0.6809040904045105 -8.121132850646973e-06 2.7243047952651978e-05 0.0 0.0 0.0 0.0
0.056 0.1334366351366043 -0.6923367977142334 -2.0780600607395172e-05 3.0875205993652344e-05 0.0 0.0 0.0 0.0
0.057 0.007082405500113964 -0.6811993718147278 1.734308898448944e-05 -6.097089499235153e-05 0.0 0.0 0.0 0.0
0.058 -0.11237750947475433 -0.6486741304397583 0.00011841021478176117 -5.995854735374451e-06 0.0 0.0 0.0 0.0
0.059 -0.2207925021648407 -0.5981435775756836 4.0949322283267975e-05 4.2458996176719666e-06 0.0 0.0 0.0 0.0
0.06 -0.3181253969669342 -0.531950056552887 4.448648542165756e-05 1.5776604413986206e-05 0.0 0.0 0.0 0.0
0.061 -0.4007841944694519 -0.45235389471054077 6.589200347661972e-05 -1.543387770652771e-05 0.0 0.0 0.0 0.0
0.062 -0.4691633880138397 -0.3623028099536896 0.00011882372200489044 -2.455431967973709e-05 0.0 0.0 0.0 0.0
0.063 -0.5220192074775696 -0.2633318603038788 8.386000990867615e-05 -0.00015523843467235565 0.0 0.0 0.0 0.0
0.064 -0.5592972040176392 -0.15776777267456055 -0.00011266395449638367 -0.00011850520968437195 0.0 0.0 0.0 0.0
0.065 -0.5783055424690247 -0.04666074365377426 -0.00011115986853837967 -7.109623402357101e-05 0.0 0.0 0.0 0.0
0.066 -0.580093502998352 0.06696086376905441 -8.094217628240585e-05 3.209151327610016e-05 0.0 0.0 0.0 0.0
0.067 -0.5626525282859802 0.18188460171222687 -9.3141570687294e-05 4.2770057916641235e-05 0.0 0.0 0.0 0.0
0.068 -0.5267643928527832 0.2942565679550171 -7.338915020227432e-05 -5.634501576423645e-07 0.0 0.0 0.0 0.0
0.069 -0.4702547788619995 0.4019539952278137 -6.405077874660492e-05 8.56863334774971e-05 0.0 0.0 0.0 0.0
0.07 -0.39320290088653564 0.5010251998901367 -4.676543176174164e-05 8.635781705379486e-05 0.0 0.0 0.0 0.0
0.071 -0.2969507873058319 0.5874656438827515 -4.395004361867905e-05 9.929109364748001e-05 0.0 0.0 0.0 0.0
0.072 -0.18220236897468567 0.6553898453712463 -2.901814877986908e-05 0.00013116095215082169 0.0 0.0 0.0 0.0
0.073 -0.05081770196557045 0.7019926309585571 8.57822597026825e-05 0.00022459868341684341 0.0 0.0 0.0 0.0
0.074 0.09069982171058655 0.7218519449234009 0.0002196226269006729 0.00029542017728090286 0.0 0.0 0.0 0.0
0.075 0.23729389905929565 0.7105274200439453 0.0005360487848520279 0.00015402864664793015 0.0 0.0 0.0 0.0
0.076 0.38175615668296814 0.6684858202934265 0.00047634541988372803 -0.00045188795775175095 0.0 0.0 0.0 0.0
0.077 0.5174529552459717 0.5931928753852844 -7.364898920059204e-06 -0.0005030101165175438 0.0 0.0 0.0 0.0
0.078 0.6347212195396423 0.4870632588863373 -0.00018304120749235153 -0.00029457639902830124 0.0 0.0 0.0 0.0
0.079 0.7255439162254333 0.3558984398841858 -0.00020396243780851364 -0.00019925925880670547 0.0 0.0 0.0 0.0
0.08 0.7832599878311157 0.20750141143798828 -0.00018639396876096725 -0.00011661462485790253 0.0 0.0 0.0 0.0
0.081 0.805057168006897 0.0520930252969265 -0.00025196652859449387 -5.6823715567588806e-05 0.0 0.0 0.0 0.0
0.082 0.792616069316864 -0.1019679456949234 -0.000196848064661026 1.6786158084869385e-05 0.0 0.0 0.0 0.0
0.083 0.7472034096717834 -0.24509219825267792 -0.00020335707813501358 7.476378232240677e-05 0.0 0.0 0.0 0.0
0.084 0.6745427250862122 -0.3723318576812744 -0.00013271812349557877 0.00010251346975564957 0.0 0.0 0.0 0.0
0.085 0.5797107815742493 -0.4776829779148102 -0.00013749580830335617 0.00010276027023792267 0.0 0.0 0.0 0.0
0.086 0.47026965022087097 -0.5582212805747986 -3.93502414226532e-05 0.00019402801990509033 0.0 0.0 0.0 0.0
0.087 0.3513439893722534 -0.6141368746757507 1.7529353499412537e-05 0.0002499660477042198 0.0 0.0 0.0 0.0
0.088 0.22768396139144897 -0.6461572051048279 0.00018316414207220078 0.00016017723828554153 0.0 0.0 0.0 0.0
0.089 0.10612097382545471 -0.6549568772315979 -0.0002623191103339195 0.0002673054113984108 0.0 0.0 0.0 0.0
0.09 -0.013012933544814587 -0.6427348852157593 3.001932054758072e-05 1.7766840755939484e-05 0.0 0.0 0.0 0.0
0.091 -0.12430787831544876 -0.610680878162384 4.599429666996002e-05 1.2265518307685852e-06 0.0 0.0 0.0 0.0
0.092 -0.2270338237285614 -0.5621783137321472 -8.005648851394653e-06 8.931383490562439e-06 0.0 0.0 0.0 0.0
0.093 -0.3192753493785858 -0.49879348278045654 -3.776978701353073e-05 4.384573549032211e-05 0.0 0.0 0.0 0.0
0.094 -0.3986155092716217 -0.4222568869590759 2.7465634047985077e-05 2.3543834686279297e-05 0.0 0.0 0.0 0.0
0.095 -0.46348515152931213 -0.33472973108291626 2.3669563233852386e-05 1.5221536159515381e-05 0.0 0.0 0.0 0.0
0.096 -0.5156503319740295 -0.2371242493391037 3.0297785997390747e-05 1.7668120563030243e-05 0.0 0.0 0.0 0.0
0.097 -0.5512184500694275 -0.13299216330051422 -1.1698342859745026e-05 3.7221238017082214e-05 0.0 0.0 0.0 0.0
0.098 -0.5694109201431274 -0.02211538888514042 -6.508082151412964e-06 -5.014240741729736e-06 0.0 0.0 0.0 0.0
0.099 -0.5701632499694824 0.09200726449489594 -1.500546932220459e-05 -4.4424086809158325e-06 0.0 0.0 0.0 0.0
0.1 -0.5505513548851013 0.20735429227352142 1.99219211935997e-05 -3.300514072179794e-05 0.0 0.0 0.0 0.0
0.101 -0.5096105337142944 0.31872794032096863 -2.637971192598343e-05 2.3002736270427704e-05 0.0 0.0 0.0 0.0
0.102 -0.4493904113769531 0.42562606930732727 -2.3867934942245483e-05 5.913432687520981e-05 0.0 0.0 0.0 0.0
0.103 -0.3672252893447876 0.5223188996315002 1.2724660336971283e-05 -5.145557224750519e-06 0.0 0.0 0.0 0.0
0.104 -0.26652541756629944 0.6039108633995056 6.0461461544036865e-06 5.9322454035282135e-05 0.0 0.0 0.0 0.0
0.105 -0.14747166633605957 0.6660475730895996 4.692841321229935e-05 3.833882510662079e-05 0.0 0.0 0.0 0.0
0.106 -0.01337270624935627 0.7048499584197998 0.00011990312486886978 7.759872823953629e-05 0.0 0.0 0.0 0.0
0.107 0.12840025126934052 0.7144858241081238 0.00011428818106651306 4.88869845867157e-05 0.0 0.0 0.0 0.0
0.108 0.2725536823272705 0.6932026743888855 0.00013166479766368866 -7.300637662410736e-06 0.0 0.0 0.0 0.0
0.109 0.41206812858581543 0.6415039896965027 0.00011791102588176727 -8.040107786655426e-05 0.0 0.0 0.0 0.0
0.11 0.5372393131256104 0.5585353970527649 4.062242805957794e-05 -9.847339242696762e-05 0.0 0.0 0.0 0.0
0.111 0.6415807008743286 0.4472949504852295 -5.58905303478241e-05 -4.302617162466049e-05 0.0 0.0 0.0 0.0
0.112 0.7197825312614441 0.31744295358657837 -2.328958362340927e-05 -3.97954136133194e-05 0.0 0.0 0.0 0.0
0.113 0.7644082307815552 0.1749991625547409 -5.296152085065842e-05 -6.477627903223038e-05 0.0 0.0 0.0 0.0
0.114 0.7770493626594543 0.02917335368692875 -7.721502333879471e-05 -1.1706724762916565e-06 0.0 0.0 0.0 0.0
0.115 0.7598509192466736 -0.11431620270013809 -8.275732398033142e-06 -4.702247679233551e-06 0.0 0.0 0.0 0.0
0.116 0.7129837274551392 -0.2464037537574768 -2.664513885974884e-05 -1.8231570720672607e-05 0.0 0.0 0.0 0.0
0.117 0.6414828896522522 -0.3621060848236084 2.3098662495613098e-05 -1.7647631466388702e-05 0.0 0.0 0.0 0.0
0.118 0.5531297922134399 -0.45982515811920166 -3.3192336559295654e-05 3.1254254281520844e-05 0.0 0.0 0.0 0.0
0.119 0.4492640495300293 -0.5347372889518738 -4.187319427728653e-05 5.103647708892822e-07 0.0 0.0 0.0 0.0
0.12 0.3374497890472412 -0.5884042978286743 -3.5995617508888245e-05 1.6177073121070862e-06 0.0 0.0 0.0 0.0
0.121 0.22064591944217682 -0.6192262172698975 2.7766451239585876e-05 5.436595529317856e-05 0.0 0.0 0.0 0.0
0.122 0.1035795584321022 -0.6281931400299072 3.21902334690094e-05 -8.101575076580048e-06 0.0 0.0 0.0 0.0
0.123 -0.010495378635823727 -0.6187335848808289 1.4372169971466064e-05 -3.922823816537857e-05 0.0 0.0 0.0 0.0
0.124 -0.11901900917291641 -0.5888193249702454 -3.8644298911094666e-05 -2.6965513825416565e-05 0.0 0.0 0.0 0.0
0.125 -0.22090423107147217 -0.5428062677383423 2.8060749173164368e-06 2.8959475457668304e-05 0.0 0.0 0.0 0.0
0.126 -0.3122072219848633 -0.4813741445541382 -1.153070479631424e-05 -1.680385321378708e-05 0.0 0.0 0.0 0.0
0.127 -0.3921160101890564 -0.4051962196826935 -1.1960044503211975e-05 -2.6028603315353394e-05 0.0 0.0 0.0 0.0
0.128 -0.4590227007865906 -0.31790685653686523 -8.387304842472076e-05 -9.977258741855621e-06 0.0 0.0 0.0 0.0
0.129 -0.5111998915672302 -0.21923527121543884 -7.320195436477661e-07 -2.8779730200767517e-05 0.0 0.0 0.0 0.0
0.13 -0.5462939739227295 -0.11089471727609634 -5.893968045711517e-05 1.1727213859558105e-05 0.0 0.0 0.0 0.0
0.131 -0.5630353689193726 0.0014069601893424988 -6.159208714962006e-05 3.815721720457077e-05 0.0 0.0 0.0 0.0
0.132 -0.5587786436080933 0.11980616301298141 -7.743760943412781e-05 0.00010330229997634888 0.0 0.0 0.0 0.0
0.133 -0.5351099967956543 0.23757018148899078 -6.979051977396011e-05 2.2771768271923065e-05 0.0 0.0 0.0 0.0
0.134 -0.48720109462738037 0.3515336215496063 3.473833203315735e-06 8.492358028888702e-05 0.0 0.0 0.0 0.0
0.135 -0.41735807061195374 0.4574579894542694 3.4028664231300354e-05 2.7441419661045074e-05 0.0 0.0 0.0 0.0
0.136 -0.3264634311199188 0.5501002073287964 -2.6702880859375e-05 8.993130177259445e-05 0.0 0.0 0.0 0.0
0.137 -0.2154000699520111 0.6254788637161255 1.1077150702476501e-05 7.124431431293488e-05 0.0 0.0 0.0 0.0
0.138 -0.08777692914009094 0.677325963973999 4.351325333118439e-05 6.593484431505203e-05 0.0 0.0 0.0 0.0
0.139 0.05015268921852112 0.7020500302314758 4.345737397670746e-05 9.760912507772446e-05 0.0 0.0 0.0 0.0
0.14 0.19458624720573425 0.696783185005188 8.621904999017715e-05 7.422920316457748e-05 0.0 0.0 0.0 0.0
0.141 0.3249273896217346 0.638728678226471 0.00010418891906738281 7.260218262672424e-05 0.0 0.0 0.0 0.0
0.142 0.45126619935035706 0.5766167640686035 0.0001358073204755783 3.288686275482178e-05 0.0 0.0 0.0 0.0
0.143 0.562438428401947 0.48753821849823 0.00013907533138990402 2.6631169021129608e-05 0.0 0.0 0.0 0.0
0.144 0.6514305472373962 0.3765370547771454 0.00016529951244592667 -3.170222043991089e-06 0.0 0.0 0.0 0.0
0.145 0.71380215883255 0.2484404593706131 0.00012749340385198593 -7.866229861974716e-05 0.0 0.0 0.0 0.0
0.146 0.7455411553382874 0.1109887957572937 0.00016010552644729614 -0.00012014992535114288 0.0 0.0 0.0 0.0
0.147 0.7477108240127563 -0.027056781575083733 9.630527347326279e-05 -0.00016010180115699768 0.0 0.0 0.0 0.0
0.148 0.7205914258956909 -0.16100242733955383 3.432389348745346e-05 -0.0002471264451742172 0.0 0.0 0.0 0.0
0.149 0.6677508354187012 -0.2826099097728729 7.591210305690765e-06 -0.0002549048513174057 0.0 0.0 0.0 0.0
0.15 0.5930333137512207 -0.3882131576538086 -0.0001714630052447319 -0.0002545984461903572 0.0 0.0 0.0 0.0
0.151 0.5019354820251465 -0.4743161201477051 -0.00022551603615283966 -0.00019632652401924133 0.0 0.0 0.0 0.0
0.152 0.3984030783176422 -0.5397534966468811 -0.00033659208565950394 -4.913751035928726e-05 0.0 0.0 0.0 0.0
0.153 0.2885863780975342 -0.58262699842453 -0.0002956697717308998 8.719321340322495e-05 0.0 0.0 0.0 0.0
0.154 0.17543676495552063 -0.6054196953773499 -0.0002444488927721977 0.00014339573681354523 0.0 0.0 0.0 0.0
0.155 0.06270947307348251 -0.6064807176589966 -0.0001904824748635292 0.0002072453498840332 0.0 0.0 0.0 0.0
0.156 -0.04621041193604469 -0.5896773934364319 -6.000325083732605e-05 0.0002644117921590805 0.0 0.0 0.0 0.0
0.157 -0.14799655973911285 -0.554625391960144 -4.695728421211243e-05 0.0002724546939134598 0.0 0.0 0.0 0.0
0.158 -0.24193669855594635 -0.5041253566741943 5.0887465476989746e-05 0.00024588126689195633 0.0 0.0 0.0 0.0
0.159 -0.3251558244228363 -0.4390605092048645 0.00013217050582170486 0.000243285670876503 0.0 0.0 0.0 0.0
0.16 -0.39605405926704407 -0.3619403541088104 0.00020795129239559174 0.000212889164686203 0.0 0.0 0.0 0.0
0.161 -0.4540593922138214 -0.27363190054893494 0.0002885209396481514 0.00016457587480545044 0.0 0.0 0.0 0.0
0.162 -0.49709460139274597 -0.17702029645442963 0.0003507118672132492 7.97174870967865e-05 0.0 0.0 0.0 0.0
0.163 -0.5233453512191772 -0.07297376543283463 0.0003889491781592369 -7.50245526432991e-05 0.0 0.0 0.0 0.0
0.164 -0.5316308736801147 0.034519512206315994 0.0003823135048151016 -0.0001876605674624443 0.0 0.0 0.0 0.0
0.165 -0.5220853686332703 0.14521560072898865 0.0002040863037109375 -0.00042028632014989853 0.0 0.0 0.0 0.0
0.166 -0.4919540286064148 0.2535332441329956 -2.0444393157958984e-05 -0.00041667278856039047 0.0 0.0 0.0 0.0
0.167 -0.4420774579048157 0.35793596506118774 -0.00014988891780376434 -0.00024840980768203735 0.0 0.0 0.0 0.0
0.168 -0.37209826707839966 0.45363807678222656 -0.00018532760441303253 -0.0002430099993944168 0.0 0.0 0.0 0.0
0.169 -0.28259167075157166 0.5363123416900635 -0.0001463480293750763 -6.109289824962616e-05 0.0 0.0 0.0 0.0
0.17 -0.17498666048049927 0.6019519567489624 -0.00012754369527101517 4.917383193969727e-07 0.0 0.0 0.0 0.0
0.171 -0.054872363805770874 0.646586000919342 -5.686003714799881e-05 7.838010787963867e-06 0.0 0.0 0.0 0.0
0.172 0.07586292177438736 0.6653088331222534 -2.0160339772701263e-05 -2.648681402206421e-06 0.0 0.0 0.0 0.0
0.173 0.20989780128002167 0.6560927033424377 -3.8603320717811584e-06 -2.3579224944114685e-05 0.0 0.0 0.0 0.0
0.174 0.3405904471874237 0.6181455254554749 -1.7507001757621765e-05 -4.71360981464386e-05 0.0 0.0 0.0 0.0
0.175 0.4616394639015198 0.5517727136611938 -4.1618943214416504e-05 -6.197020411491394e-05 0.0 0.0 0.0 0.0
0.176 0.5655659437179565 0.4601355195045471 -6.514880806207657e-05 -0.00013649184256792068 0.0 0.0 0.0 0.0
0.177 0.6461426615715027 0.3488767147064209 -0.00011891685426235199 -0.0001279721036553383 0.0 0.0 0.0 0.0
0.178 0.7010849118232727 0.22292467951774597 -0.00018253084272146225 -5.6356191635131836e-05 0.0 0.0 0.0 0.0
0.179 0.726660430431366 0.09142205864191055 -0.0002445513382554054 -1.9973143935203552e-05 0.0 0.0 0.0 0.0
0.18 0.7229745984077454 -0.040491994470357895 -0.0002491706982254982 2.2700056433677673e-05 0.0 0.0 0.0 0.0
0.181 0.6936947107315063 -0.1652318239212036 -0.00024330150336027145 0.0001454390585422516 0.0 0.0 0.0 0.0
0.182 0.6418549418449402 -0.2785727083683014 -0.00015872623771429062 0.00017647165805101395 0.0 0.0 0.0 0.0
0.183 0.5712943077087402 -0.37652236223220825 -7.527042180299759e-05 0.00019792933017015457 0.0 0.0 0.0 0.0
0.184 0.48529884219169617 -0.4581829309463501 -6.29303976893425e-05 0.00019483081996440887 0.0 0.0 0.0 0.0
0.185 0.3879081606864929 -0.5209608674049377 -8.072890341281891e-05 0.00015794485807418823 0.0 0.0 0.0 0.0
