!Created with skrf (http://scikit-rf.org).
# GHz S RI R 50.0 
!freq ReS11 ImS11 ReS21 ImS21 ReS12 ImS12 ReS22 ImS22
0.001 0.03216114640235901 0.028886552900075912 -0.9262257218360901 0.1886197030544281 0.0 0.0 0.0 0.0
0.002 0.052952200174331665 0.04635205492377281 -0.8672398924827576 0.3641490340232849 0.0 0.0 0.0 0.0
0.003 0.07618456333875656 0.05265762656927109 -0.7775331139564514 0.5238205194473267 0.0 0.0 0.0 0.0
0.004 0.10003550350666046 0.04855310916900635 -0.6577576398849487 0.6632404327392578 0.0 0.0 0.0 0.0
0.005 0.11859018355607986 0.03637124225497246 -0.515134871006012 0.7724592685699463 0.0 0.0 0.0 0.0
0.006 0.1310311108827591 0.01736413687467575 -0.35756129026412964 0.8540638089179993 0.0 0.0 0.0 0.0
0.007 0.13606810569763184 -0.0042950743809342384 -0.18578140437602997 0.9048854112625122 0.0 0.0 0.0 0.0
0.008 0.1312931776046753 -0.025478346273303032 -0.009007781744003296 0.9195920825004578 0.0 0.0 0.0 0.0
0.009 0.12050329893827438 -0.043634381145238876 0.16652682423591614 0.9007119536399841 0.0 0.0 0.0 0.0
0.01 0.1037595197558403 -0.056264784187078476 0.3345726728439331 0.8478168845176697 0.0 0.0 0.0 0.0
0.011 0.08485964685678482 -0.061918798834085464 0.4860251843929291 0.7656559944152832 0.0 0.0 0.0 0.0
0.012 0.06470838934183121 -0.06004124507308006 0.6206420063972473 0.6563353538513184 0.0 0.0 0.0 0.0
0.013 0.04646354541182518 -0.050933584570884705 0.7300141453742981 0.5256903171539307 0.0 0.0 0.0 0.0
0.014 0.033163778483867645 -0.03625962883234024 0.8127854466438293 0.3774031102657318 0.0 0.0 0.0 0.0
0.015 0.02675170823931694 -0.01929420419037342 0.8668439984321594 0.2169339656829834 0.0 0.0 0.0 0.0
0.016 0.027407364919781685 -0.0012760655954480171 0.8896633386611938 0.05025763437151909 0.0 0.0 0.0 0.0
0.017 0.03491540625691414 0.0142185278236866 0.8815507888793945 -0.11697835475206375 0.0 0.0 0.0 0.0
0.018 0.047419678419828415 0.025875844061374664 0.8424811959266663 -0.2811662256717682 0.0 0.0 0.0 0.0
0.019 0.06381855905056 0.03209038823843002 0.7738350033760071 -0.4332272708415985 0.0 0.0 0.0 0.0
0.02 0.08068288862705231 0.03244514763355255 0.6773990988731384 -0.5711469054222107 0.0 0.0 0.0 0.0
0.021 0.09678154438734055 0.025194581598043442 0.5561425685882568 -0.6880939602851868 0.0 0.0 0.0 0.0
0.022 0.10729018598794937 0.01192451175302267 0.41482019424438477 -0.7797309160232544 0.0 0.0 0.0 0.0
0.023 0.11287611722946167 -0.004371172748506069 0.2579553723335266 -0.8426350951194763 0.0 0.0 0.0 0.0
0.024 0.11088500916957855 -0.02130817621946335 0.09397817403078079 -0.8733812570571899 0.0 0.0 0.0 0.0
0.025 0.10326123237609863 -0.03678985685110092 -0.07394208759069443 -0.873633086681366 0.0 0.0 0.0 0.0
0.026 0.09037299454212189 -0.0479746051132679 -0.2353462278842926 -0.8410860896110535 0.0 0.0 0.0 0.0
0.027 0.07325592637062073 -0.05330713838338852 -0.38922572135925293 -0.7788368463516235 0.0 0.0 0.0 0.0
0.028 0.05612727999687195 -0.05258199945092201 -0.5269390344619751 -0.6894730925559998 0.0 0.0 0.0 0.0
0.029 0.038954079151153564 -0.044586122035980225 -0.6450626254081726 -0.5771390795707703 0.0 0.0 0.0 0.0
0.03 0.027246739715337753 -0.03200791776180267 -0.7396631836891174 -0.44486668705940247 0.0 0.0 0.0 0.0
0.031 0.020262084901332855 -0.016169551759958267 -0.8078109622001648 -0.2984824776649475 0.0 0.0 0.0 0.0
0.032 0.020398259162902832 0.0007603634148836136 -0.847944974899292 -0.14244961738586426 0.0 0.0 0.0 0.0
0.033 0.026306115090847015 0.016681263223290443 -0.858705461025238 0.019119635224342346 0.0 0.0 0.0 0.0
0.034 0.03760245069861412 0.029392823576927185 -0.8393411040306091 0.17950086295604706 0.0 0.0 0.0 0.0
0.035 0.05255229398608208 0.03687744215130806 -0.7904897332191467 0.3329923450946808 0.0 0.0 0.0 0.0
0.036 0.06977895647287369 0.03889670968055725 -0.7135593295097351 0.47573235630989075 0.0 0.0 0.0 0.0
0.037 0.08626052737236023 0.03455231338739395 -0.6106514930725098 0.6013227105140686 0.0 0.0 0.0 0.0
0.038 0.09891070425510406 0.024344289675354958 -0.48569798469543457 0.7048740983009338 0.0 0.0 0.0 0.0
0.039 0.1067335307598114 0.009413735941052437 -0.3429054021835327 0.7840167284011841 0.0 0.0 0.0 0.0
0.04 0.10860617458820343 -0.006389481946825981 -0.1888793408870697 0.8326061964035034 0.0 0.0 0.0 0.0
0.041 0.1048334613442421 -0.022508641704916954 -0.027904320508241653 0.8522465825080872 0.0 0.0 0.0 0.0
0.042 0.09480871260166168 -0.03464942052960396 0.1330234408378601 0.8394797444343567 0.0 0.0 0.0 0.0
0.043 0.08093292266130447 -0.04176611453294754 0.2873064875602722 0.7971881031990051 0.0 0.0 0.0 0.0
0.044 0.06538701802492142 -0.044112104922533035 0.4317409098148346 0.7276193499565125 0.0 0.0 0.0 0.0
0.045 0.05000574514269829 -0.03982967883348465 0.5590919256210327 0.6317776441574097 0.0 0.0 0.0 0.0
0.046 0.03791771084070206 -0.030545594170689583 0.6662229895591736 0.5154454112052917 0.0 0.0 0.0 0.0
0.047 0.030506597831845284 -0.017997777089476585 0.7496842741966248 0.381186306476593 0.0 0.0 0.0 0.0
0.048 0.02867806702852249 -0.00369840394705534 0.8064672946929932 0.23451203107833862 0.0 0.0 0.0 0.0
0.049 0.03228536248207092 0.010542943142354488 0.8356100916862488 0.0792996734380722 0.0 0.0 0.0 0.0
0.05 0.04069755971431732 0.021569058299064636 0.8350048661231995 -0.07815088331699371 0.0 0.0 0.0 0.0
0.051 0.053516749292612076 0.02861548587679863 0.8061058521270752 -0.2333630919456482 0.0 0.0 0.0 0.0
0.052 0.06775350123643875 0.03140385076403618 0.7472890019416809 -0.3803609609603882 0.0 0.0 0.0 0.0
0.053 0.08183646947145462 0.02798612415790558 0.6622313261032104 -0.5136972069740295 0.0 0.0 0.0 0.0
0.054 0.09385324269533157 0.01941143348813057 0.5531886219978333 -0.6280046105384827 0.0 0.0 0.0 0.0
0.055 0.10175684839487076 0.00697858352214098 0.4243849813938141 -0.7206195592880249 0.0 0.0 0.0 0.0
0.056 0.10312937945127487 -0.007818399928510189 0.2807336449623108 -0.7869462966918945 0.0 0.0 0.0 0.0
0.057 0.09929108619689941 -0.02248675562441349 0.12693214416503906 -0.8238945603370667 0.0 0.0 0.0 0.0
0.058 0.08982882648706436 -0.03395640105009079 -0.030774567276239395 -0.8312962651252747 0.0 0.0 0.0 0.0
0.059 0.07656464725732803 -0.04095758870244026 -0.18589811027050018 -0.8089677095413208 0.0 0.0 0.0 0.0
0.06 0.0611119270324707 -0.04306311532855034 -0.3332761824131012 -0.7580812573432922 0.0 0.0 0.0 0.0
0.061 0.046072062104940414 -0.039060235023498535 -0.46850746870040894 -0.6812953948974609 0.0 0.0 0.0 0.0
0.062 0.034036073833703995 -0.029997605830430984 -0.5864039063453674 -0.5802736878395081 0.0 0.0 0.0 0.0
0.063 0.026135064661502838 -0.01697022095322609 -0.6838175058364868 -0.4605989158153534 0.0 0.0 0.0 0.0
0.064 0.023891404271125793 -0.0020228130742907524 -0.7577062249183655 -0.3248099088668823 0.0 0.0 0.0 0.0
0.065 0.02764778770506382 0.012684587389230728 -0.804627537727356 -0.17829009890556335 0.0 0.0 0.0 0.0
0.066 0.035883575677871704 0.0251693706959486 -0.8235418796539307 -0.024670666083693504 0.0 0.0 0.0 0.0
0.067 0.04851894825696945 0.03394446521997452 -0.8138051629066467 0.130315899848938 0.0 0.0 0.0 0.0
0.068 0.06380529701709747 0.037433404475450516 -0.7749832272529602 0.280125230550766 0.0 0.0 0.0 0.0
0.069 0.08007169514894485 0.03576777130365372 -0.7084166407585144 0.4216627776622772 0.0 0.0 0.0 0.0
0.07 0.09346950054168701 0.02833033911883831 -0.6160247325897217 0.5471188426017761 0.0 0.0 0.0 0.0
0.071 0.10369021445512772 0.015192992985248566 -0.5016717910766602 0.6524480581283569 0.0 0.0 0.0 0.0
0.072 0.10833202302455902 0.00040960684418678284 -0.3689703345298767 0.734788715839386 0.0 0.0 0.0 0.0
0.073 0.10648854821920395 -0.0148817989975214 -0.22336609661579132 0.7900620698928833 0.0 0.0 0.0 0.0
0.074 0.09964144229888916 -0.029524361714720726 -0.07024981826543808 0.8168641328811646 0.0 0.0 0.0 0.0
0.075 0.08795890212059021 -0.04011712595820427 0.08495059609413147 0.8135619759559631 0.0 0.0 0.0 0.0
0.076 0.07402807474136353 -0.04594847559928894 0.2353743612766266 0.7815732359886169 0.0 0.0 0.0 0.0
0.077 0.05853613093495369 -0.04624497517943382 0.3767295181751251 0.7222438454627991 0.0 0.0 0.0 0.0
0.078 0.043707650154829025 -0.04043057560920715 0.5041701793670654 0.6382169723510742 0.0 0.0 0.0 0.0
0.079 0.0327264666557312 -0.030761266127228737 0.6136655211448669 0.532347559928894 0.0 0.0 0.0 0.0
0.08 0.02705731987953186 -0.018749333918094635 0.7011641263961792 0.408374547958374 0.0 0.0 0.0 0.0
0.081 0.02514505200088024 -0.005848221480846405 0.7649274468421936 0.27056559920310974 0.0 0.0 0.0 0.0
0.082 0.028324687853455544 0.007108145393431187 0.8017760515213013 0.12369328737258911 0.0 0.0 0.0 0.0
0.083 0.03593704476952553 0.017177827656269073 0.8109008073806763 -0.02853262983262539 0.0 0.0 0.0 0.0
0.084 0.04663633182644844 0.023566491901874542 0.7913493514060974 -0.17994467914104462 0.0 0.0 0.0 0.0
0.085 0.058523546904325485 0.025247130542993546 0.7437976598739624 -0.3256351947784424 0.0 0.0 0.0 0.0
0.086 0.0701175108551979 0.02244679443538189 0.6689498424530029 -0.45989906787872314 0.0 0.0 0.0 0.0
0.087 0.07857665419578552 0.014265947975218296 0.5701068043708801 -0.577819287776947 0.0 0.0 0.0 0.0
0.088 0.08342684805393219 0.004854309372603893 0.4517878293991089 -0.6742579936981201 0.0 0.0 0.0 0.0
0.089 0.08478180319070816 -0.006223457865417004 0.3158152401447296 -0.7452141642570496 0.0 0.0 0.0 0.0
0.09 0.07904350012540817 -0.01646016351878643 0.16981260478496552 -0.7922571897506714 0.0 0.0 0.0 0.0
0.091 0.0702458843588829 -0.023985864594578743 0.018165726214647293 -0.8082418441772461 0.0 0.0 0.0 0.0
0.092 0.05813123658299446 -0.027251431718468666 -0.1328614503145218 -0.7965202927589417 0.0 0.0 0.0 0.0
0.093 0.046152710914611816 -0.02559526450932026 -0.2792928218841553 -0.7565937638282776 0.0 0.0 0.0 0.0
0.094 0.035599805414676666 -0.019236939027905464 -0.41565993428230286 -0.6900368928909302 0.0 0.0 0.0 0.0
0.095 0.027588950470089912 -0.009003580547869205 -0.5361871123313904 -0.5999011993408203 0.0 0.0 0.0 0.0
0.096 0.024434903636574745 0.003940879367291927 -0.6377714276313782 -0.4894137680530548 0.0 0.0 0.0 0.0
0.097 0.02631819061934948 0.017325524240732193 -0.7186537384986877 -0.3610389530658722 0.0 0.0 0.0 0.0
0.098 0.03233100846409798 0.029838988557457924 -0.7728530168533325 -0.22027407586574554 0.0 0.0 0.0 0.0
0.099 0.04344459995627403 0.03986696898937225 -0.8012948632240295 -0.07166439294815063 0.0 0.0 0.0 0.0
0.1 0.05755941942334175 0.04529782757163048 -0.80140221118927 0.08036978542804718 0.0 0.0 0.0 0.0
0.101 0.07354271411895752 0.046209145337343216 -0.7723546624183655 0.22857481241226196 0.0 0.0 0.0 0.0
0.102 0.0882171019911766 0.041264355182647705 -0.7144637107849121 0.3697548508644104 0.0 0.0 0.0 0.0
0.103 0.09987042099237442 0.030823253095149994 -0.632395327091217 0.4983622431755066 0.0 0.0 0.0 0.0
0.104 0.10753919184207916 0.01725546270608902 -0.5263478755950928 0.6090125441551208 0.0 0.0 0.0 0.0
0.105 0.11064975708723068 0.0019060438498854637 -0.4020039439201355 0.6964865326881409 0.0 0.0 0.0 0.0
0.106 0.10713046044111252 -0.013526964001357555 -0.26292407512664795 0.7593065500259399 0.0 0.0 0.0 0.0
0.107 0.09873850643634796 -0.025834253057837486 -0.11536058783531189 0.7936398386955261 0.0 0.0 0.0 0.0
0.108 0.08629825711250305 -0.03479088097810745 0.035065658390522 0.7996836304664612 0.0 0.0 0.0 0.0
0.109 0.07123783975839615 -0.03887858986854553 0.1838860958814621 0.7771079540252686 0.0 0.0 0.0 0.0
0.11 0.056670352816581726 -0.037596672773361206 0.32530829310417175 0.7285919785499573 0.0 0.0 0.0 0.0
0.111 0.04516177624464035 -0.03136712685227394 0.4541087746620178 0.6547279357910156 0.0 0.0 0.0 0.0
0.112 0.035983819514513016 -0.022435715422034264 0.568516731262207 0.5581315755844116 0.0 0.0 0.0 0.0
0.113 0.031554508954286575 -0.011644627898931503 0.6616588234901428 0.4428215026855469 0.0 0.0 0.0 0.0
0.114 0.030593598261475563 0.00035128742456436157 0.7325611114501953 0.31082263588905334 0.0 0.0 0.0 0.0
0.115 0.034417491406202316 0.01051606796681881 0.7778581976890564 0.16877184808254242 0.0 0.0 0.0 0.0
0.116 0.04118640720844269 0.01874047890305519 0.7962797284126282 0.019248584285378456 0.0 0.0 0.0 0.0
0.117 0.05039612948894501 0.023281918838620186 0.7860434055328369 -0.13002948462963104 0.0 0.0 0.0 0.0
0.118 0.059555746614933014 0.023877955973148346 0.7476017475128174 -0.2756282091140747 0.0 0.0 0.0 0.0
0.119 0.06799902021884918 0.020141199231147766 0.6828661561012268 -0.41187000274658203 0.0 0.0 0.0 0.0
0.12 0.07415413856506348 0.014595399610698223 0.5930671095848083 -0.5325036644935608 0.0 0.0 0.0 0.0
0.121 0.07566098123788834 0.0063997674733400345 0.48273134231567383 -0.6339027285575867 0.0 0.0 0.0 0.0
0.122 0.07417763024568558 -0.0010517071932554245 0.3542551100254059 -0.7126442790031433 0.0 0.0 0.0 0.0
0.123 0.06852856278419495 -0.007518654689192772 0.21561023592948914 -0.7655494809150696 0.0 0.0 0.0 0.0
0.124 0.06097807735204697 -0.009721023961901665 0.06855329126119614 -0.7927879095077515 0.0 0.0 0.0 0.0
0.125 0.05169190093874931 -0.008251843973994255 -0.08167318999767303 -0.7906623482704163 0.0 0.0 0.0 0.0
0.126 0.04457642883062363 -0.0032906997948884964 -0.2284153401851654 -0.7616183757781982 0.0 0.0 0.0 0.0
0.127 0.03902707248926163 0.004993499256670475 -0.36631643772125244 -0.704703688621521 0.0 0.0 0.0 0.0
0.128 0.037045907229185104 0.015727732330560684 -0.4915332794189453 -0.6242740154266357 0.0 0.0 0.0 0.0
0.129 0.03955109417438507 0.027307437732815742 -0.6004234552383423 -0.5204718708992004 0.0 0.0 0.0 0.0
0.13 0.04637850448489189 0.03780415654182434 -0.6890068650245667 -0.39861974120140076 0.0 0.0 0.0 0.0
0.131 0.05659034103155136 0.04604124277830124 -0.7499530911445618 -0.2627468407154083 0.0 0.0 0.0 0.0
0.132 0.07134443521499634 0.051743414252996445 -0.7868627905845642 -0.11642230302095413 0.0 0.0 0.0 0.0
0.133 0.08685127645730972 0.05079125240445137 -0.7945963740348816 0.03352309763431549 0.0 0.0 0.0 0.0
0.134 0.10189793258905411 0.04527999833226204 -0.7738748788833618 0.18342313170433044 0.0 0.0 0.0 0.0
0.135 0.11431816965341568 0.03441139683127403 -0.7248957753181458 0.3263212740421295 0.0 0.0 0.0 0.0
0.136 0.12273814529180527 0.019719813019037247 -0.6505102515220642 0.4561937749385834 0.0 0.0 0.0 0.0
0.137 0.12542039155960083 0.00318867526948452 -0.5525374412536621 0.5695769190788269 0.0 0.0 0.0 0.0
0.138 0.12315578758716583 -0.01374890562146902 -0.4344575107097626 0.6630813479423523 0.0 0.0 0.0 0.0
0.139 0.11481205374002457 -0.02830212563276291 -0.30042600631713867 0.7308732867240906 0.0 0.0 0.0 0.0
0.14 0.10366985946893692 -0.039458978921175 -0.15997788310050964 0.7733462452888489 0.0 0.0 0.0 0.0
0.141 0.08551496267318726 -0.046835195273160934 0.008526243269443512 0.7677639722824097 0.0 0.0 0.0 0.0
0.142 0.07087697088718414 -0.04837430268526077 0.15166987478733063 0.7513848543167114 0.0 0.0 0.0 0.0
0.143 0.05649822950363159 -0.04447968304157257 0.289581298828125 0.7086989283561707 0.0 0.0 0.0 0.0
0.144 0.044451069086790085 -0.03666079789400101 0.41548463702201843 0.6411986947059631 0.0 0.0 0.0 0.0
0.145 0.03672454506158829 -0.02611275017261505 0.5276153683662415 0.5524080991744995 0.0 0.0 0.0 0.0
0.146 0.03337658941745758 -0.01459074392914772 0.6216118931770325 0.44412416219711304 0.0 0.0 0.0 0.0
0.147 0.03455784171819687 -0.00335143506526947 0.6931567192077637 0.32021909952163696 0.0 0.0 0.0 0.0
0.148 0.039262138307094574 0.005592280067503452 0.7405306100845337 0.18543842434883118 0.0 0.0 0.0 0.0
0.149 0.04679045081138611 0.011573173105716705 0.7621433138847351 0.04370657727122307 0.0 0.0 0.0 0.0
0.15 0.055102501064538956 0.013968098908662796 0.7576252222061157 -0.1000596284866333 0.0 0.0 0.0 0.0
0.151 0.06316158175468445 0.012125195004045963 0.7255863547325134 -0.2404690682888031 0.0 0.0 0.0 0.0
0.152 0.0695699155330658 0.008839881047606468 0.6670476198196411 -0.3731303811073303 0.0 0.0 0.0 0.0
0.153 0.07244344800710678 0.0017250627279281616 0.5851337313652039 -0.49061787128448486 0.0 0.0 0.0 0.0
0.154 0.07176637649536133 -0.005115007981657982 0.4821493923664093 -0.5920903086662292 0.0 0.0 0.0 0.0
0.155 0.06759927421808243 -0.011686117388308048 0.3612731993198395 -0.6719059944152832 0.0 0.0 0.0 0.0
0.156 0.0603557787835598 -0.015732290223240852 0.22902926802635193 -0.726935863494873 0.0 0.0 0.0 0.0
0.157 0.051229219883680344 -0.015901705250144005 0.088262178003788 -0.7552832961082458 0.0 0.0 0.0 0.0
0.158 0.04236770421266556 -0.013085764832794666 -0.05490753799676895 -0.758348286151886 0.0 0.0 0.0 0.0
0.159 0.0353190042078495 -0.005904129706323147 -0.194983571767807 -0.7337071895599365 0.0 0.0 0.0 0.0
0.16 0.030590344220399857 0.003585405647754669 -0.32803094387054443 -0.6835155487060547 0.0 0.0 0.0 0.0
0.161 0.029090605676174164 0.015187209472060204 -0.4494262933731079 -0.6101272106170654 0.0 0.0 0.0 0.0
0.162 0.032879557460546494 0.027936698868870735 -0.5549705028533936 -0.51642906665802 0.0 0.0 0.0 0.0
0.163 0.041801817715168 0.03956285119056702 -0.6430575251579285 -0.40444737672805786 0.0 0.0 0.0 0.0
0.164 0.05439845472574234 0.047182369977235794 -0.7078876495361328 -0.2763547897338867 0.0 0.0 0.0 0.0
0.165 0.06932477653026581 0.049900878220796585 -0.747468113899231 -0.13856332004070282 0.0 0.0 0.0 0.0
0.166 0.08393881469964981 0.04832267761230469 -0.7607038021087646 0.004789634607732296 0.0 0.0 0.0 0.0
0.167 0.09706246852874756 0.040470343083143234 -0.7466844916343689 0.14881233870983124 0.0 0.0 0.0 0.0
0.168 0.10720918327569962 0.029294246807694435 -0.7050939202308655 0.2861841022968292 0.0 0.0 0.0 0.0
0.169 0.11344153434038162 0.015168431214988232 -0.6375235915184021 0.41411855816841125 0.0 0.0 0.0 0.0
0.17 0.11391621828079224 -0.0009250789880752563 -0.5479537844657898 0.5261431932449341 0.0 0.0 0.0 0.0
0.171 0.10991490632295609 -0.015379872173070908 -0.4379304051399231 0.6189509630203247 0.0 0.0 0.0 0.0
0.172 0.10135593265295029 -0.027705850079655647 -0.3134063184261322 0.6891657114028931 0.0 0.0 0.0 0.0
0.173 0.08954738825559616 -0.035436902195215225 -0.1783839762210846 0.7349832653999329 0.0 0.0 0.0 0.0
0.174 0.07547247409820557 -0.03900941088795662 -0.03782374784350395 0.7539295554161072 0.0 0.0 0.0 0.0
0.175 0.06167270615696907 -0.03748322278261185 0.10406553000211716 0.7465372085571289 0.0 0.0 0.0 0.0
0.176 0.048847220838069916 -0.03169092908501625 0.24066421389579773 0.7133665680885315 0.0 0.0 0.0 0.0
0.177 0.04006100818514824 -0.022489456459879875 0.3694557845592499 0.655501127243042 0.0 0.0 0.0 0.0
0.178 0.03543902933597565 -0.0116219287738204 0.48488104343414307 0.5748326778411865 0.0 0.0 0.0 0.0
0.179 0.034972041845321655 -0.0002344110980629921 0.5840716361999512 0.474151074886322 0.0 0.0 0.0 0.0
0.18 0.03911188989877701 0.01018105074763298 0.6619424223899841 0.35702958703041077 0.0 0.0 0.0 0.0
0.181 0.04627698287367821 0.017682213336229324 0.7180225849151611 0.22701004147529602 0.0 0.0 0.0 0.0
0.182 0.055162180215120316 0.021622659638524055 0.7475835084915161 0.08861777186393738 0.0 0.0 0.0 0.0
0.183 0.06486146152019501 0.022251451388001442 0.7511646151542664 -0.052989453077316284 0.0 0.0 0.0 0.0
0.184 0.07336083799600601 0.01854695938527584 0.7276757955551147 -0.1932007074356079 0.0 0.0 0.0 0.0
0.185 0.0788358822464943 0.012151224538683891 0.6783403158187866 -0.32590216398239136 0.0 0.0 0.0 0.0
0.186 0.08118197321891785 0.003482821397483349 0.6050955653190613 -0.44812023639678955 0.0 0.0 0.0 0.0
0.187 0.07941015064716339 -0.0044656312093138695 0.5095927715301514 -0.5542939901351929 0.0 0.0 0.0 0.0
0.188 0.07400606572628021 -0.011296837590634823 0.395906537771225 -0.6393221020698547 0.0 0.0 0.0 0.0
0.189 0.06565387547016144 -0.014615895226597786 0.2687685191631317 -0.7020522356033325 0.0 0.0 0.0 0.0
0.19 0.05602481588721275 -0.014680551365017891 0.13164281845092773 -0.7397164106369019 0.0 0.0 0.0 0.0
0.191 0.047447722405195236 -0.01020838227123022 -0.00893006194382906 -0.7500425577163696 0.0 0.0 0.0 0.0
0.192 0.04092932865023613 -0.0026538409292697906 -0.14910157024860382 -0.7347630262374878 0.0 0.0 0.0 0.0
0.193 0.03744649887084961 0.00740195345133543 -0.28282392024993896 -0.6938338279724121 0.0 0.0 0.0 0.0
0.194 0.03864558786153793 0.018691565841436386 -0.40779295563697815 -0.6278964877128601 0.0 0.0 0.0 0.0
