!Created with skrf (http://scikit-rf.org).
# GHz S RI R 50.0 
!freq ReS11 ImS11 ReS21 ImS21 ReS12 ImS12 ReS22 ImS22
0.001 -0.6459230780601501 0.1481509804725647 0.000722191296517849 0.004163865931332111 0.0 0.0 0.0 0.0
0.002 -0.5987209677696228 0.2826382517814636 0.0029758838936686516 0.0077088093385100365 0.0 0.0 0.0 0.0
0.003 -0.5326651334762573 0.4062028229236603 0.006757443770766258 0.010142864659428596 0.0 0.0 0.0 0.0
0.004 -0.4458353519439697 0.5189419984817505 0.01105141919106245 0.01221896056085825 0.0 0.0 0.0 0.0
0.005 -0.33935415744781494 0.6146485209465027 0.016527950763702393 0.012464030645787716 0.0 0.0 0.0 0.0
0.006 -0.21449828147888184 0.6913554668426514 0.022442830726504326 0.011049476452171803 0.0 0.0 0.0 0.0
0.007 -0.0734722912311554 0.7455099821090698 0.0286466795951128 0.007889322936534882 0.0 0.0 0.0 0.0
0.008 0.08082795888185501 0.7726941108703613 0.03442566469311714 0.0024497825652360916 0.0 0.0 0.0 0.0
0.009 0.2410801351070404 0.7678841352462769 0.03939034417271614 -0.004908320493996143 0.0 0.0 0.0 0.0
0.01 0.4056362509727478 0.7281796932220459 0.0426858626306057 -0.014598282054066658 0.0 0.0 0.0 0.0
0.011 0.5607540011405945 0.6498546004295349 0.043896738439798355 -0.025941746309399605 0.0 0.0 0.0 0.0
0.012 0.70053631067276 0.5346392393112183 0.04228904843330383 -0.04008976370096207 0.0 0.0 0.0 0.0
0.013 0.81083744764328 0.3857380151748657 0.036673251539468765 -0.05356110632419586 0.0 0.0 0.0 0.0
0.014 0.8844686150550842 0.20958369970321655 0.02683834172785282 -0.0673346295952797 0.0 0.0 0.0 0.0
0.015 0.9121181964874268 0.019913209602236748 0.012828192673623562 -0.07936756312847137 0.0 0.0 0.0 0.0
0.016 0.8899216055870056 -0.17274542152881622 -0.005962913855910301 -0.08950977027416229 0.0 0.0 0.0 0.0
0.017 0.8203662633895874 -0.3526713252067566 -0.02947494387626648 -0.09621281176805496 0.0 0.0 0.0 0.0
0.018 0.7082589864730835 -0.5081117749214172 -0.05847764015197754 -0.0998423844575882 0.0 0.0 0.0 0.0
0.019 0.5585311651229858 -0.6283828020095825 -0.09814707189798355 -0.09889146685600281 0.0 0.0 0.0 0.0
0.02 0.3664795756340027 -0.7005242705345154 -0.1711694747209549 -0.0832664892077446 0.0 0.0 0.0 0.0
0.021 0.09790300577878952 -0.605175793170929 -0.3542288541793823 0.06700664013624191 0.0 0.0 0.0 0.0
0.022 0.3416992723941803 -0.6418531537055969 0.11444610357284546 0.172319233417511 0.0 0.0 0.0 0.0
0.023 0.10002101212739944 -0.7427523136138916 0.032839640974998474 0.021826261654496193 0.0 0.0 0.0 0.0
0.024 -0.07595948874950409 -0.7178006768226624 -0.009302129969000816 0.005249165929853916 0.0 0.0 0.0 0.0
0.025 -0.21752117574214935 -0.6591293215751648 -0.029134230688214302 0.008889689110219479 0.0 0.0 0.0 0.0
0.026 -0.33511337637901306 -0.5794951319694519 -0.039758093655109406 0.018908679485321045 0.0 0.0 0.0 0.0
0.027 -0.4307626485824585 -0.48274070024490356 -0.04354104772210121 0.03132426366209984 0.0 0.0 0.0 0.0
0.028 -0.5041476488113403 -0.37642747163772583 -0.04242260381579399 0.04600271210074425 0.0 0.0 0.0 0.0
0.029 -0.5583748817443848 -0.2610684931278229 -0.03663424029946327 0.058397289365530014 0.0 0.0 0.0 0.0
0.03 -0.5917325019836426 -0.1416299194097519 -0.027093064039945602 0.06945091485977173 0.0 0.0 0.0 0.0
0.031 -0.6044495105743408 -0.0182464811950922 -0.014891711995005608 0.07867243140935898 0.0 0.0 0.0 0.0
0.032 -0.5975056886672974 0.10593362897634506 9.059906005859375e-05 0.08551596850156784 0.0 0.0 0.0 0.0
0.033 -0.568832516670227 0.2273581475019455 0.01671420969069004 0.08907647430896759 0.0 0.0 0.0 0.0
0.034 -0.5194525718688965 0.3455289900302887 0.035105150192976 0.08917523175477982 0.0 0.0 0.0 0.0
0.035 -0.44771888852119446 0.45489633083343506 0.0541565977036953 0.08532910794019699 0.0 0.0 0.0 0.0
0.036 -0.35609251260757446 0.5529543161392212 0.0733196809887886 0.07759469002485275 0.0 0.0 0.0 0.0
0.037 -0.2446662187576294 0.6337976455688477 0.09152209013700485 0.06522398442029953 0.0 0.0 0.0 0.0
0.038 -0.11448179185390472 0.6943238973617554 0.10792512446641922 0.04861791059374809 0.0 0.0 0.0 0.0
0.039 0.03082338534295559 0.7299429178237915 0.12124185264110565 0.027528321370482445 0.0 0.0 0.0 0.0
0.04 0.18434098362922668 0.7321478128433228 0.13047616183757782 0.00293741375207901 0.0 0.0 0.0 0.0
0.041 0.34148070216178894 0.7009811401367188 0.13431388139724731 -0.02510465495288372 0.0 0.0 0.0 0.0
0.042 0.49188247323036194 0.632513165473938 0.1316806524991989 -0.054292429238557816 0.0 0.0 0.0 0.0
0.043 0.6259733438491821 0.529656171798706 0.12198185175657272 -0.08402734994888306 0.0 0.0 0.0 0.0
0.044 0.7328206896781921 0.39497002959251404 0.10522086173295975 -0.11167515069246292 0.0 0.0 0.0 0.0
0.045 0.8051810264587402 0.2368282824754715 0.08148153871297836 -0.13585549592971802 0.0 0.0 0.0 0.0
0.046 0.8373550176620483 0.06556972861289978 0.051889993250370026 -0.153965026140213 0.0 0.0 0.0 0.0
0.047 0.8261306881904602 -0.1056503877043724 0.01857123337686062 -0.16524635255336761 0.0 0.0 0.0 0.0
0.048 0.7759557962417603 -0.2668484151363373 -0.022085636854171753 -0.1701378971338272 0.0 0.0 0.0 0.0
0.049 0.69203120470047 -0.4070471525192261 -0.05780600383877754 -0.16415901482105255 0.0 0.0 0.0 0.0
0.05 0.5822276473045349 -0.5205316543579102 -0.09166663140058517 -0.15063990652561188 0.0 0.0 0.0 0.0
0.051 0.45562225580215454 -0.6038578152656555 -0.12156380712985992 -0.1305178850889206 0.0 0.0 0.0 0.0
0.052 0.3195110261440277 -0.6557406783103943 -0.14669428765773773 -0.10506818443536758 0.0 0.0 0.0 0.0
0.053 0.18083246052265167 -0.6787752509117126 -0.16670005023479462 -0.07558657228946686 0.0 0.0 0.0 0.0
0.054 0.04887650907039642 -0.6727108359336853 -0.17983518540859222 -0.04157271981239319 0.0 0.0 0.0 0.0
0.055 -0.07636963576078415 -0.6464125514030457 -0.1866174340248108 -0.007312767207622528 0.0 0.0 0.0 0.0
0.056 -0.19146275520324707 -0.5978363752365112 -0.18733593821525574 0.028748759999871254 0.0 0.0 0.0 0.0
0.057 -0.29445880651474 -0.5320409536361694 -0.18173852562904358 0.06462246924638748 0.0 0.0 0.0 0.0
0.058 -0.38135936856269836 -0.45159441232681274 -0.16946981847286224 0.09905970841646194 0.0 0.0 0.0 0.0
0.059 -0.45082640647888184 -0.35944274067878723 -0.15124249458312988 0.13148610293865204 0.0 0.0 0.0 0.0
0.06 -0.5057188272476196 -0.2578967213630676 -0.1266239881515503 0.1609092652797699 0.0 0.0 0.0 0.0
0.061 -0.5405367612838745 -0.14904244244098663 -0.09659047424793243 0.1860359013080597 0.0 0.0 0.0 0.0
0.062 -0.5583444237709045 -0.03558243066072464 -0.06153338402509689 0.20636552572250366 0.0 0.0 0.0 0.0
0.063 -0.5569576025009155 0.0802733302116394 -0.021934153512120247 0.22031302750110626 0.0 0.0 0.0 0.0
0.064 -0.5346747636795044 0.19703662395477295 0.021347282454371452 0.22706298530101776 0.0 0.0 0.0 0.0
0.065 -0.4913029372692108 0.3094009757041931 0.06624780595302582 0.2246972918510437 0.0 0.0 0.0 0.0
0.066 -0.42764461040496826 0.41545748710632324 0.11221658438444138 0.21446403861045837 0.0 0.0 0.0 0.0
0.067 -0.3416445553302765 0.5108681917190552 0.15736526250839233 0.19418965280056 0.0 0.0 0.0 0.0
0.068 -0.2364676296710968 0.5892594456672668 0.19927112758159637 0.1646336019039154 0.0 0.0 0.0 0.0
0.069 -0.11171887069940567 0.647602379322052 0.23560571670532227 0.12510906159877777 0.0 0.0 0.0 0.0
0.07 0.02687104418873787 0.680157482624054 0.2648504674434662 0.0765804573893547 0.0 0.0 0.0 0.0
0.071 0.17298418283462524 0.6814282536506653 0.2837645709514618 0.020298488438129425 0.0 0.0 0.0 0.0
0.072 0.32040584087371826 0.6475946307182312 0.28981760144233704 -0.04110158234834671 0.0 0.0 0.0 0.0
0.073 0.4598938524723053 0.5796504020690918 0.28179314732551575 -0.10503283888101578 0.0 0.0 0.0 0.0
0.074 0.5807231664657593 0.47894594073295593 0.2586914896965027 -0.16700319945812225 0.0 0.0 0.0 0.0
0.075 0.6747853755950928 0.3505948483943939 0.22061921656131744 -0.22344046831130981 0.0 0.0 0.0 0.0
0.076 0.7336114645004272 0.20418117940425873 0.17010462284088135 -0.27032744884490967 0.0 0.0 0.0 0.0
0.077 0.7550488710403442 0.04801261052489281 0.10934790223836899 -0.30485332012176514 0.0 0.0 0.0 0.0
0.078 0.7381484508514404 -0.10404214262962341 0.04193424433469772 -0.3253351151943207 0.0 0.0 0.0 0.0
0.079 0.6862101554870605 -0.24265888333320618 -0.028891554102301598 -0.3295273184776306 0.0 0.0 0.0 0.0
0.08 0.6059607863426208 -0.36130014061927795 -0.09926943480968475 -0.31729546189308167 0.0 0.0 0.0 0.0
0.081 0.5090506076812744 -0.44953474402427673 -0.16464874148368835 -0.28799015283584595 0.0 0.0 0.0 0.0
0.082 0.4085898697376251 -0.5172435641288757 -0.21523882448673248 -0.2475881725549698 0.0 0.0 0.0 0.0
0.083 0.2946467697620392 -0.5691353678703308 -0.2592219114303589 -0.20491556823253632 0.0 0.0 0.0 0.0
0.084 0.17391884326934814 -0.5930628776550293 -0.2975154519081116 -0.1537245661020279 0.0 0.0 0.0 0.0
0.085 0.054422035813331604 -0.5916628837585449 -0.3269656002521515 -0.09420698881149292 0.0 0.0 0.0 0.0
0.086 -0.0565505251288414 -0.5676445960998535 -0.3438361585140228 -0.029538853093981743 0.0 0.0 0.0 0.0
0.087 -0.1589590311050415 -0.5255241394042969 -0.3487450182437897 0.03874964267015457 0.0 0.0 0.0 0.0
0.088 -0.24794866144657135 -0.4674074947834015 -0.3405248820781708 0.10777227580547333 0.0 0.0 0.0 0.0
0.089 -0.3249547779560089 -0.396772176027298 -0.3202091157436371 0.17580567300319672 0.0 0.0 0.0 0.0
0.09 -0.3865642249584198 -0.31534266471862793 -0.2851566672325134 0.24004624783992767 0.0 0.0 0.0 0.0
0.091 -0.43379274010658264 -0.22595153748989105 -0.23767505586147308 0.29921215772628784 0.0 0.0 0.0 0.0
0.092 -0.46415048837661743 -0.129962757229805 -0.1777939796447754 0.34886690974235535 0.0 0.0 0.0 0.0
0.093 -0.47844791412353516 -0.02896314300596714 -0.10631024837493896 0.3868999183177948 0.0 0.0 0.0 0.0
0.094 -0.4748409390449524 0.07346165180206299 -0.02531415782868862 0.4113890826702118 0.0 0.0 0.0 0.0
0.095 -0.4517592191696167 0.17303186655044556 0.06230701506137848 0.4177616834640503 0.0 0.0 0.0 0.0
0.096 -0.41192570328712463 0.2677624821662903 0.15306560695171356 0.4044361710548401 0.0 0.0 0.0 0.0
0.097 -0.3553721606731415 0.35664689540863037 0.23813949525356293 0.37061190605163574 0.0 0.0 0.0 0.0
0.098 -0.2816528081893921 0.4352712631225586 0.315633624792099 0.32100939750671387 0.0 0.0 0.0 0.0
0.099 -0.1904296875 0.5006260275840759 0.38487571477890015 0.25517570972442627 0.0 0.0 0.0 0.0
0.1 -0.08227096498012543 0.5464135408401489 0.44267773628234863 0.172393798828125 0.0 0.0 0.0 0.0
0.101 0.03464971110224724 0.5674648284912109 0.48210692405700684 0.07528206706047058 0.0 0.0 0.0 0.0
0.102 0.1560150682926178 0.56104576587677 0.5004844069480896 -0.03363686427474022 0.0 0.0 0.0 0.0
0.103 0.2737525403499603 0.5254314541816711 0.49227938055992126 -0.14868010580539703 0.0 0.0 0.0 0.0
0.104 0.3807484209537506 0.4616965353488922 0.45564040541648865 -0.26192307472229004 0.0 0.0 0.0 0.0
0.105 0.4658527672290802 0.3759230375289917 0.39071205258369446 -0.3664674162864685 0.0 0.0 0.0 0.0
0.106 0.5271725058555603 0.27236708998680115 0.29989346861839294 -0.45408105850219727 0.0 0.0 0.0 0.0
0.107 0.5591908693313599 0.16355198621749878 0.18748995661735535 -0.5174883604049683 0.0 0.0 0.0 0.0
0.108 0.5625091195106506 0.05531782656908035 0.06066979840397835 -0.5516619086265564 0.0 0.0 0.0 0.0
0.109 0.5419761538505554 -0.040037237107753754 -0.07447249442338943 -0.549187183380127 0.0 0.0 0.0 0.0
0.11 0.5114097595214844 -0.11476422846317291 -0.19901733100414276 -0.5009804368019104 0.0 0.0 0.0 0.0
0.111 0.4881146252155304 -0.18720735609531403 -0.2808002233505249 -0.43015697598457336 0.0 0.0 0.0 0.0
0.112 0.4455181956291199 -0.2734375 -0.345468133687973 -0.3769851326942444 0.0 0.0 0.0 0.0
0.113 0.37048476934432983 -0.3443160057067871 -0.4237312376499176 -0.3152472674846649 0.0 0.0 0.0 0.0
0.114 0.2850157916545868 -0.3855319917201996 -0.4964284896850586 -0.22651879489421844 0.0 0.0 0.0 0.0
0.115 0.20075666904449463 -0.40421953797340393 -0.5469200015068054 -0.1129317656159401 0.0 0.0 0.0 0.0
0.116 0.12327589839696884 -0.40755799412727356 -0.5684282779693604 0.014375136233866215 0.0 0.0 0.0 0.0
0.117 0.05253414064645767 -0.39817285537719727 -0.557890772819519 0.14446589350700378 0.0 0.0 0.0 0.0
0.118 -0.012990185990929604 -0.38148239254951477 -0.5152037143707275 0.27170851826667786 0.0 0.0 0.0 0.0
0.119 -0.07040826231241226 -0.35752034187316895 -0.4408268630504608 0.3842332065105438 0.0 0.0 0.0 0.0
0.12 -0.12447267025709152 -0.3288183808326721 -0.3403500020503998 0.4738130569458008 0.0 0.0 0.0 0.0
0.121 -0.17861759662628174 -0.293393611907959 -0.22644998133182526 0.5337050557136536 0.0 0.0 0.0 0.0
0.122 -0.227281853556633 -0.24816758930683136 -0.10651810467243195 0.5713040232658386 0.0 0.0 0.0 0.0
0.123 -0.26755619049072266 -0.19388999044895172 0.022121643647551537 0.5851830840110779 0.0 0.0 0.0 0.0
0.124 -0.2977071702480316 -0.1349804848432541 0.15376867353916168 0.5696351528167725 0.0 0.0 0.0 0.0
0.125 -0.31857413053512573 -0.07030519843101501 0.2810608148574829 0.520977795124054 0.0 0.0 0.0 0.0
0.126 -0.3296944797039032 -0.002385997213423252 0.39307060837745667 0.44316062331199646 0.0 0.0 0.0 0.0
0.127 -0.3301386833190918 0.06868761777877808 0.48316556215286255 0.34165751934051514 0.0 0.0 0.0 0.0
0.128 -0.3167703151702881 0.14043933153152466 0.5473970770835876 0.22180400788784027 0.0 0.0 0.0 0.0
0.129 -0.2917858362197876 0.209906667470932 0.5815550088882446 0.09045417606830597 0.0 0.0 0.0 0.0
0.13 -0.25414708256721497 0.27625271677970886 0.5847529172897339 -0.04498501494526863 0.0 0.0 0.0 0.0
0.131 -0.2027372419834137 0.335775762796402 0.5563004612922668 -0.1757185012102127 0.0 0.0 0.0 0.0
0.132 -0.14112140238285065 0.3860597610473633 0.4997347593307495 -0.2997359335422516 0.0 0.0 0.0 0.0
0.133 -0.06952045857906342 0.4231863021850586 0.4162100553512573 -0.40821272134780884 0.0 0.0 0.0 0.0
0.134 0.008550731465220451 0.44921112060546875 0.3029360771179199 -0.4948340654373169 0.0 0.0 0.0 0.0
0.135 0.09284275025129318 0.4628179967403412 0.1717160940170288 -0.5471859574317932 0.0 0.0 0.0 0.0
0.136 0.18187831342220306 0.4607543647289276 0.033530283719301224 -0.563294529914856 0.0 0.0 0.0 0.0
0.137 0.27305421233177185 0.4420595169067383 -0.10175883024930954 -0.5447247624397278 0.0 0.0 0.0 0.0
0.138 0.36167895793914795 0.4027572274208069 -0.22599804401397705 -0.4935862421989441 0.0 0.0 0.0 0.0
0.139 0.44356945157051086 0.3433070778846741 -0.3318948745727539 -0.41339677572250366 0.0 0.0 0.0 0.0
0.14 0.5144367814064026 0.2651185393333435 -0.41177141666412354 -0.30919381976127625 0.0 0.0 0.0 0.0
0.141 0.5624160766601562 0.16587424278259277 -0.45369935035705566 -0.18351951241493225 0.0 0.0 0.0 0.0
0.142 0.5964809656143188 0.05954767391085625 -0.4654144048690796 -0.0619717501103878 0.0 0.0 0.0 0.0
0.143 0.6058524250984192 -0.05552325025200844 -0.4439026713371277 0.05115922540426254 0.0 0.0 0.0 0.0
0.144 0.5873897671699524 -0.171571746468544 -0.3964075446128845 0.1474461555480957 0.0 0.0 0.0 0.0
0.145 0.5417942404747009 -0.28124159574508667 -0.33012309670448303 0.2217838168144226 0.0 0.0 0.0 0.0
0.146 0.47194087505340576 -0.3770308792591095 -0.2550281584262848 0.2722862958908081 0.0 0.0 0.0 0.0
0.147 0.3832201659679413 -0.4536040127277374 -0.1777673065662384 0.30160999298095703 0.0 0.0 0.0 0.0
0.148 0.2819918394088745 -0.5084471106529236 -0.1025421991944313 0.3118564188480377 0.0 0.0 0.0 0.0
0.149 0.17245933413505554 -0.5406899452209473 -0.03285912796854973 0.3054153025150299 0.0 0.0 0.0 0.0
0.15 0.061412449926137924 -0.5492174029350281 0.026919635012745857 0.286725252866745 0.0 0.0 0.0 0.0
0.151 -0.04851701110601425 -0.5362643599510193 0.07722321897745132 0.2587486803531647 0.0 0.0 0.0 0.0
0.152 -0.1519104689359665 -0.5025264620780945 0.11696452647447586 0.22603942453861237 0.0 0.0 0.0 0.0
0.153 -0.246253103017807 -0.4503898322582245 0.1482871025800705 0.1912689059972763 0.0 0.0 0.0 0.0
0.154 -0.3285943865776062 -0.3815133571624756 0.17381314933300018 0.15483756363391876 0.0 0.0 0.0 0.0
0.155 -0.3975341320037842 -0.29927346110343933 0.19328764081001282 0.1151006668806076 0.0 0.0 0.0 0.0
0.156 -0.44907867908477783 -0.20585575699806213 0.20489928126335144 0.073387511074543 0.0 0.0 0.0 0.0
0.157 -0.48485854268074036 -0.10354508459568024 0.20883575081825256 0.02967084012925625 0.0 0.0 0.0 0.0
0.158 -0.5013412833213806 0.005400193855166435 0.20323039591312408 -0.01280910987406969 0.0 0.0 0.0 0.0
0.159 -0.4970531463623047 0.11707645654678345 0.18964463472366333 -0.05170411989092827 0.0 0.0 0.0 0.0
0.16 -0.4714847207069397 0.22990399599075317 0.16823838651180267 -0.08673505485057831 0.0 0.0 0.0 0.0
0.161 -0.4228437840938568 0.3385026156902313 0.14066001772880554 -0.11523745208978653 0.0 0.0 0.0 0.0
0.162 -0.35233908891677856 0.43819159269332886 0.10839053988456726 -0.13650906085968018 0.0 0.0 0.0 0.0
0.163 -0.25919660925865173 0.5239901542663574 0.07316061854362488 -0.14997771382331848 0.0 0.0 0.0 0.0
0.164 -0.14630582928657532 0.590114414691925 0.036595288664102554 -0.15450967848300934 0.0 0.0 0.0 0.0
0.165 -0.019016770645976067 0.631140410900116 0.0013911500573158264 -0.150029718875885 0.0 0.0 0.0 0.0
0.166 0.11855418980121613 0.6438547968864441 -0.030690360814332962 -0.13740353286266327 0.0 0.0 0.0 0.0
0.167 0.2603541612625122 0.6234569549560547 -0.05753825977444649 -0.11714648455381393 0.0 0.0 0.0 0.0
0.168 0.39332589507102966 0.5706492066383362 -0.07509465515613556 -0.09180283546447754 0.0 0.0 0.0 0.0
0.169 0.5131573677062988 0.4855649471282959 -0.08344677090644836 -0.06538205593824387 0.0 0.0 0.0 0.0
0.17 0.6085725426673889 0.3764098286628723 -0.08497718721628189 -0.042476680129766464 0.0 0.0 0.0 0.0
0.171 0.6772661805152893 0.24648644030094147 -0.08221365511417389 -0.022134266793727875 0.0 0.0 0.0 0.0
0.172 0.7108972668647766 0.10582824051380157 -0.07555162161588669 -0.004268999211490154 0.0 0.0 0.0 0.0
0.173 0.7121424674987793 -0.035840313881635666 -0.06543368101119995 0.009628626517951488 0.0 0.0 0.0 0.0
0.174 0.6805148124694824 -0.17235277593135834 -0.053626831620931625 0.0188088770955801 0.0 0.0 0.0 0.0
0.175 0.6216667890548706 -0.29425719380378723 -0.04160633683204651 0.024282388389110565 0.0 0.0 0.0 0.0
0.176 0.5403326153755188 -0.3973044455051422 -0.029791828244924545 0.025695253163576126 0.0 0.0 0.0 0.0
0.177 0.4419960677623749 -0.47840017080307007 -0.020377134904265404 0.02292216569185257 0.0 0.0 0.0 0.0
0.178 0.3330013155937195 -0.5365480780601501 -0.012736537493765354 0.018891002982854843 0.0 0.0 0.0 0.0
0.179 0.21836529672145844 -0.5703051090240479 -0.008033176884055138 0.013463963754475117 0.0 0.0 0.0 0.0
0.18 0.10171587765216827 -0.5819652080535889 -0.005655035376548767 0.007558176293969154 0.0 0.0 0.0 0.0
0.181 -0.01335066370666027 -0.5720689296722412 -0.005576461553573608 0.002142653800547123 0.0 0.0 0.0 0.0
0.182 -0.12214101105928421 -0.5413620471954346 -0.007889495231211185 -0.0027324678376317024 0.0 0.0 0.0 0.0
0.183 -0.22223472595214844 -0.4915708899497986 -0.011981463991105556 -0.006506545469164848 0.0 0.0 0.0 0.0
0.184 -0.3107168972492218 -0.4248771071434021 -0.017433449625968933 -0.008511227555572987 0.0 0.0 0.0 0.0
0.185 -0.38760921359062195 -0.3434069752693176 -0.023821484297513962 -0.008552019484341145 0.0 0.0 0.0 0.0
0.186 -0.4469803273677826 -0.2498573660850525 -0.030695777386426926 -0.006463878788053989 0.0 0.0 0.0 0.0
0.187 -0.4888908863067627 -0.14539800584316254 -0.037673190236091614 -0.0019646184518933296 0.0 0.0 0.0 0.0
0.188 -0.5117761492729187 -0.0333256758749485 -0.04391098767518997 0.005305557511746883 0.0 0.0 0.0 0.0
0.189 -0.512241542339325 0.08275748044252396 -0.049271006137132645 0.01590612158179283 0.0 0.0 0.0 0.0
0.19 -0.49062299728393555 0.20026816427707672 -0.05172985419631004 0.02796109765768051 0.0 0.0 0.0 0.0
0.191 -0.44511878490448 0.3130296468734741 -0.05126434564590454 0.04177461937069893 0.0 0.0 0.0 0.0
0.192 -0.37569287419319153 0.41741472482681274 -0.04693937301635742 0.0566689558327198 0.0 0.0 0.0 0.0
0.193 -0.2838839888572693 0.5071006417274475 -0.03828153759241104 0.07146783918142319 0.0 0.0 0.0 0.0
0.194 -0.17264601588249207 0.5760125517845154 -0.025297759100794792 0.08529064804315567 0.0 0.0 0.0 0.0
