!Created with skrf (http://scikit-rf.org).
# GHz S RI R 50.0 
!freq ReS11 ImS11 ReS21 ImS21 ReS12 ImS12 ReS22 ImS22
0.001 -0.6439281702041626 0.14967940747737885 0.00018104538321495056 -0.0001041041687130928 0.0 0.0 0.0 0.0
0.002 -0.5971047282218933 0.28335878252983093 -5.917530506849289e-05 0.00013972539454698563 0.0 0.0 0.0 0.0
0.003 -0.5299471020698547 0.4092441499233246 0.0001264447346329689 -8.738785982131958e-05 0.0 0.0 0.0 0.0
0.004 -0.44190385937690735 0.5213106870651245 6.359070539474487e-06 3.5014934837818146e-05 0.0 0.0 0.0 0.0
0.005 -0.33444738388061523 0.6172431707382202 -9.220093488693237e-06 -6.323680281639099e-06 0.0 0.0 0.0 0.0
0.006 -0.20897670090198517 0.6933033466339111 2.2994354367256165e-05 -3.738515079021454e-05 0.0 0.0 0.0 0.0
0.007 -0.0676957443356514 0.7461461424827576 4.7927722334861755e-05 9.811483323574066e-06 0.0 0.0 0.0 0.0
0.008 0.08689986169338226 0.772259533405304 1.6119331121444702e-05 -5.33154234290123e-05 0.0 0.0 0.0 0.0
0.009 0.2502104938030243 0.7671328783035278 1.538265496492386e-05 -8.340086787939072e-05 0.0 0.0 0.0 0.0
0.01 0.4135487973690033 0.7252627611160278 -1.9649043679237366e-05 -6.52587041258812e-05 0.0 0.0 0.0 0.0
0.011 0.5685909986495972 0.646030843257904 2.470053732395172e-05 -9.755603969097137e-05 0.0 0.0 0.0 0.0
0.012 0.7082285284996033 0.5295767188072205 4.023127257823944e-05 -9.169336408376694e-05 0.0 0.0 0.0 0.0
0.013 0.8172369599342346 0.3794904053211212 0.00012084841728210449 -0.000212755985558033 0.0 0.0 0.0 0.0
0.014 0.8891546726226807 0.2045406550168991 5.394499748945236e-05 -0.0002947598695755005 0.0 0.0 0.0 0.0
0.015 0.9147017598152161 0.01441604271531105 1.7154961824417114e-05 -0.00047537125647068024 0.0 0.0 0.0 0.0
0.016 0.8950808644294739 -0.1764996498823166 -0.00012074876576662064 -0.0006302632391452789 0.0 0.0 0.0 0.0
0.017 0.8272373676300049 -0.3524557054042816 -0.00036785099655389786 -0.0007526297122240067 0.0 0.0 0.0 0.0
0.018 0.7222745418548584 -0.502708911895752 -0.0007299594581127167 -0.0007754955440759659 0.0 0.0 0.0 0.0
0.019 0.5897150039672852 -0.6207886338233948 -0.0008192863315343857 -0.0005010543391108513 0.0 0.0 0.0 0.0
0.02 0.4388982951641083 -0.702890932559967 -0.0011766115203499794 -0.0006129080429673195 0.0 0.0 0.0 0.0
0.021 0.2806393802165985 -0.7476530075073242 -0.0015176981687545776 -0.0005427207797765732 0.0 0.0 0.0 0.0
0.022 0.12378732115030289 -0.7583744525909424 -0.001859927549958229 -0.00028631463646888733 0.0 0.0 0.0 0.0
0.023 -0.025690928101539612 -0.7375897765159607 -0.0023110834881663322 2.4777837097644806e-05 0.0 0.0 0.0 0.0
0.024 -0.16217412054538727 -0.6899359822273254 -0.0026828115805983543 0.0006691468879580498 0.0 0.0 0.0 0.0
0.025 -0.2828717529773712 -0.6214284896850586 -0.0029238760471343994 0.001307941973209381 0.0 0.0 0.0 0.0
0.026 -0.38543418049812317 -0.5353963375091553 -0.0031030531972646713 0.0021082814782857895 0.0 0.0 0.0 0.0
0.027 -0.46956297755241394 -0.4353559613227844 -0.003060423769056797 0.0031161345541477203 0.0 0.0 0.0 0.0
0.028 -0.5344300270080566 -0.32426926493644714 -0.002804976888000965 0.004271864891052246 0.0 0.0 0.0 0.0
0.029 -0.5789262652397156 -0.20653341710567474 -0.002230278216302395 0.005483522079885006 0.0 0.0 0.0 0.0
0.03 -0.6026792526245117 -0.08425930142402649 -0.001396453008055687 0.006711333990097046 0.0 0.0 0.0 0.0
0.031 -0.6060205101966858 0.04049360007047653 -4.687625914812088e-05 0.008032589219510555 0.0 0.0 0.0 0.0
0.032 -0.5885595679283142 0.16585250198841095 0.0017550745978951454 0.00927006732672453 0.0 0.0 0.0 0.0
0.033 -0.549496591091156 0.28863683342933655 0.004388988949358463 0.010358395054936409 0.0 0.0 0.0 0.0
0.034 -0.48778286576271057 0.403269499540329 0.007441393099725246 0.010767168365418911 0.0 0.0 0.0 0.0
0.035 -0.4051731824874878 0.5090457797050476 0.010853844694793224 0.010255394503474236 0.0 0.0 0.0 0.0
0.036 -0.3010146915912628 0.6014490127563477 0.014316602610051632 0.009584955871105194 0.0 0.0 0.0 0.0
0.037 -0.1764836460351944 0.6744105815887451 0.019188791513442993 0.008019082248210907 0.0 0.0 0.0 0.0
0.038 -0.03411788120865822 0.7218935489654541 0.024719631299376488 0.004660872742533684 0.0 0.0 0.0 0.0
0.039 0.12124869227409363 0.739031195640564 0.030467530712485313 -0.0012909173965454102 0.0 0.0 0.0 0.0
0.04 0.2818220257759094 0.7208930850028992 0.03558376058936119 -0.009428679943084717 0.0 0.0 0.0 0.0
0.041 0.4420512616634369 0.6644817590713501 0.04027913883328438 -0.021276144310832024 0.0 0.0 0.0 0.0
0.042 0.5888566970825195 0.5672423243522644 0.04337908700108528 -0.03827542066574097 0.0 0.0 0.0 0.0
0.043 0.7115952968597412 0.42947918176651 0.04200082644820213 -0.06417839229106903 0.0 0.0 0.0 0.0
0.044 0.791254460811615 0.2549586892127991 0.029959287494421005 -0.10226751863956451 0.0 0.0 0.0 0.0
0.045 0.8091423511505127 0.05226810649037361 -0.013543396256864071 -0.15996743738651276 0.0 0.0 0.0 0.0
0.046 0.709755539894104 -0.13524875044822693 -0.17415684461593628 -0.20955099165439606 0.0 0.0 0.0 0.0
0.047 0.5973624587059021 -0.08686546236276627 -0.362765908241272 0.07287117838859558 0.0 0.0 0.0 0.0
0.048 0.7226508259773254 -0.18543434143066406 -0.10698135942220688 0.2265056073665619 0.0 0.0 0.0 0.0
0.049 0.683922529220581 -0.378933310508728 0.007185492664575577 0.16307640075683594 0.0 0.0 0.0 0.0
0.05 0.5739811062812805 -0.5211900472640991 0.04365493729710579 0.11018896847963333 0.0 0.0 0.0 0.0
0.051 0.4381617307662964 -0.6157353520393372 0.05576537176966667 0.073453888297081 0.0 0.0 0.0 0.0
0.052 0.29292911291122437 -0.67033851146698 0.058377571403980255 0.04773469641804695 0.0 0.0 0.0 0.0
0.053 0.1466909646987915 -0.689934253692627 0.056645169854164124 0.028039991855621338 0.0 0.0 0.0 0.0
0.054 0.006325731985270977 -0.6801213622093201 0.05237877368927002 0.012782677076756954 0.0 0.0 0.0 0.0
0.055 -0.1234973669052124 -0.6444367170333862 0.045762233436107635 0.002902839332818985 0.0 0.0 0.0 0.0
0.056 -0.2402396947145462 -0.5872921347618103 0.03950830549001694 -0.005051670596003532 0.0 0.0 0.0 0.0
0.057 -0.3419484496116638 -0.5121367573738098 0.03288428857922554 -0.01084637176245451 0.0 0.0 0.0 0.0
0.058 -0.42770466208457947 -0.4221671521663666 0.026006879284977913 -0.014394864439964294 0.0 0.0 0.0 0.0
0.059 -0.4944306015968323 -0.31982001662254333 0.01981385052204132 -0.015338776633143425 0.0 0.0 0.0 0.0
0.06 -0.5423832535743713 -0.20954281091690063 0.014714076183736324 -0.014155009761452675 0.0 0.0 0.0 0.0
0.061 -0.5715903639793396 -0.09074242413043976 0.011462301015853882 -0.011442848481237888 0.0 0.0 0.0 0.0
0.062 -0.5784679055213928 0.03155086934566498 0.012817587703466415 -0.009711344726383686 0.0 0.0 0.0 0.0
0.063 -0.565321683883667 0.15196548402309418 0.010160665027797222 -0.013506866060197353 0.0 0.0 0.0 0.0
0.064 -0.5315430164337158 0.27509042620658875 0.0054993778467178345 -0.01020406186580658 0.0 0.0 0.0 0.0
0.065 -0.47344470024108887 0.392333060503006 0.005504317581653595 -0.005174226127564907 0.0 0.0 0.0 0.0
0.066 -0.39067280292510986 0.4992649555206299 0.009173842146992683 -0.0010523246601223946 0.0 0.0 0.0 0.0
0.067 -0.2848656475543976 0.5905134081840515 0.01567436195909977 0.0015000738203525543 0.0 0.0 0.0 0.0
0.068 -0.15695323050022125 0.6612260937690735 0.02488119527697563 0.000715598464012146 0.0 0.0 0.0 0.0
0.069 -0.010601484216749668 0.7045166492462158 0.035622358322143555 -0.00458796601742506 0.0 0.0 0.0 0.0
0.07 0.14646397531032562 0.713144838809967 0.047304436564445496 -0.01606498844921589 0.0 0.0 0.0 0.0
0.071 0.30800047516822815 0.6834172606468201 0.057380471378564835 -0.03710354492068291 0.0 0.0 0.0 0.0
0.072 0.4609135687351227 0.6111269593238831 0.061707280576229095 -0.06758037954568863 0.0 0.0 0.0 0.0
0.073 0.5912712216377258 0.49643754959106445 0.05217829719185829 -0.10989188402891159 0.0 0.0 0.0 0.0
0.074 0.6825783252716064 0.3492300510406494 0.01728823408484459 -0.1608109474182129 0.0 0.0 0.0 0.0
0.075 0.720530092716217 0.1838703155517578 -0.06720446050167084 -0.2048337310552597 0.0 0.0 0.0 0.0
0.076 0.6997600197792053 0.0386025570333004 -0.19567130506038666 -0.1940518170595169 0.0 0.0 0.0 0.0
0.077 0.6564688682556152 -0.055347949266433716 -0.3168582618236542 -0.06931236386299133 0.0 0.0 0.0 0.0
0.078 0.6478797793388367 -0.12897950410842896 -0.30361926555633545 0.12165182083845139 0.0 0.0 0.0 0.0
0.079 0.6436075568199158 -0.24002104997634888 -0.17798352241516113 0.22610913217067719 0.0 0.0 0.0 0.0
0.08 0.5953787565231323 -0.3690529465675354 -0.058539409190416336 0.2299116849899292 0.0 0.0 0.0 0.0
0.081 0.5046229958534241 -0.4828909933567047 0.01596006564795971 0.19284386932849884 0.0 0.0 0.0 0.0
0.082 0.3855834901332855 -0.5686273574829102 0.052273109555244446 0.1459537148475647 0.0 0.0 0.0 0.0
0.083 0.25296229124069214 -0.617496907711029 0.059818509966135025 0.10712303966283798 0.0 0.0 0.0 0.0
0.084 0.11604417115449905 -0.6338408589363098 0.0494217574596405 0.08616922050714493 0.0 0.0 0.0 0.0
0.085 -0.0152609683573246 -0.6180925369262695 0.03608638793230057 0.09141375869512558 0.0 0.0 0.0 0.0
0.086 -0.13218683004379272 -0.5729746222496033 0.04453754797577858 0.12389235943555832 0.0 0.0 0.0 0.0
0.087 -0.22715544700622559 -0.5115506649017334 0.10262606292963028 0.1512250155210495 0.0 0.0 0.0 0.0
0.088 -0.30358460545539856 -0.4460519552230835 0.1849912703037262 0.11988499760627747 0.0 0.0 0.0 0.0
0.089 -0.37440967559814453 -0.371853232383728 0.22892452776432037 0.038028545677661896 0.0 0.0 0.0 0.0
0.09 -0.43613263964653015 -0.29114145040512085 0.2238122969865799 -0.04654545709490776 0.0 0.0 0.0 0.0
0.091 -0.48754119873046875 -0.19556012749671936 0.18800728023052216 -0.10706974565982819 0.0 0.0 0.0 0.0
0.092 -0.5212094187736511 -0.08818505704402924 0.14208436012268066 -0.14524807035923004 0.0 0.0 0.0 0.0
0.093 -0.533492922782898 0.02648897096514702 0.09706065058708191 -0.164356991648674 0.0 0.0 0.0 0.0
0.094 -0.5233834981918335 0.14601784944534302 0.05552024394273758 -0.17092542350292206 0.0 0.0 0.0 0.0
0.095 -0.4884435832500458 0.2619052827358246 0.02180873416364193 -0.16945354640483856 0.0 0.0 0.0 0.0
0.096 -0.42613086104393005 0.37070462107658386 -0.003200431354343891 -0.16585466265678406 0.0 0.0 0.0 0.0
0.097 -0.3443702757358551 0.4631540775299072 -0.02934955805540085 -0.16921527683734894 0.0 0.0 0.0 0.0
0.098 -0.24603866040706635 0.5358800292015076 -0.0607667975127697 -0.17269708216190338 0.0 0.0 0.0 0.0
0.099 -0.13583439588546753 0.5893083810806274 -0.10259193181991577 -0.17193882167339325 0.0 0.0 0.0 0.0
0.1 -0.018012359738349915 0.621171772480011 -0.15422466397285461 -0.15508930385112762 0.0 0.0 0.0 0.0
0.101 0.10644806176424026 0.6320084929466248 -0.20236273109912872 -0.11798110604286194 0.0 0.0 0.0 0.0
0.102 0.23343472182750702 0.6191321611404419 -0.24153052270412445 -0.06006445735692978 0.0 0.0 0.0 0.0
0.103 0.3613155782222748 0.5799811482429504 -0.2565429210662842 0.011168763041496277 0.0 0.0 0.0 0.0
0.104 0.4823819398880005 0.5083664655685425 -0.24777019023895264 0.08192397654056549 0.0 0.0 0.0 0.0
0.105 0.5833836793899536 0.4091987907886505 -0.2218523770570755 0.14979565143585205 0.0 0.0 0.0 0.0
0.106 0.6606069207191467 0.2886888384819031 -0.1725754737854004 0.21059034764766693 0.0 0.0 0.0 0.0
0.107 0.708935022354126 0.15282538533210754 -0.10457134246826172 0.25098323822021484 0.0 0.0 0.0 0.0
0.108 0.7231043577194214 0.008424032479524612 -0.030531249940395355 0.2657891511917114 0.0 0.0 0.0 0.0
0.109 0.7026543021202087 -0.13261769711971283 0.04054337367415428 0.259380966424942 0.0 0.0 0.0 0.0
0.11 0.6516081094741821 -0.2620406150817871 0.1052645891904831 0.23463883996009827 0.0 0.0 0.0 0.0
0.111 0.5766055583953857 -0.37339985370635986 0.1599336564540863 0.19445109367370605 0.0 0.0 0.0 0.0
0.112 0.48219212889671326 -0.46320757269859314 0.20019623637199402 0.14145028591156006 0.0 0.0 0.0 0.0
0.113 0.37493327260017395 -0.5306267738342285 0.2227182686328888 0.08202390372753143 0.0 0.0 0.0 0.0
0.114 0.26053714752197266 -0.574084997177124 0.22794413566589355 0.020880170166492462 0.0 0.0 0.0 0.0
0.115 0.14221547544002533 -0.5942772030830383 0.21570327877998352 -0.0369555838406086 0.0 0.0 0.0 0.0
0.116 0.02445787936449051 -0.5931488871574402 0.18888945877552032 -0.08488719165325165 0.0 0.0 0.0 0.0
0.117 -0.09007579833269119 -0.5702500939369202 0.1521359086036682 -0.11895055323839188 0.0 0.0 0.0 0.0
0.118 -0.19768495857715607 -0.5270028710365295 0.11428681761026382 -0.13667736947536469 0.0 0.0 0.0 0.0
0.119 -0.29436707496643066 -0.4625321626663208 0.08383363485336304 -0.14590369164943695 0.0 0.0 0.0 0.0
0.12 -0.37676742672920227 -0.38313496112823486 0.05577167496085167 -0.1564275473356247 0.0 0.0 0.0 0.0
0.121 -0.44031569361686707 -0.29212453961372375 0.02324621006846428 -0.16743698716163635 0.0 0.0 0.0 0.0
0.122 -0.49117201566696167 -0.1909402757883072 -0.016861798241734505 -0.16990026831626892 0.0 0.0 0.0 0.0
0.123 -0.5231969356536865 -0.0818992331624031 -0.05898920074105263 -0.15666623413562775 0.0 0.0 0.0 0.0
0.124 -0.5366678237915039 0.035516489297151566 -0.09148797392845154 -0.13124001026153564 0.0 0.0 0.0 0.0
0.125 -0.5265536308288574 0.15713442862033844 -0.11316319555044174 -0.10197874903678894 0.0 0.0 0.0 0.0
0.126 -0.4917497932910919 0.275627076625824 -0.12815964221954346 -0.07095776498317719 0.0 0.0 0.0 0.0
0.127 -0.43365558981895447 0.39053764939308167 -0.13463546335697174 -0.03681890293955803 0.0 0.0 0.0 0.0
0.128 -0.3502039313316345 0.49377143383026123 -0.1303568333387375 -0.005049613304436207 0.0 0.0 0.0 0.0
0.129 -0.2423103004693985 0.5797311663627625 -0.12044509500265121 0.021324431523680687 0.0 0.0 0.0 0.0
0.13 -0.11513470113277435 0.640652060508728 -0.10523203760385513 0.04365221783518791 0.0 0.0 0.0 0.0
0.131 0.02612227015197277 0.6742832064628601 -0.08773330599069595 0.05815604329109192 0.0 0.0 0.0 0.0
0.132 0.17549516260623932 0.6729283332824707 -0.07018068432807922 0.06860394030809402 0.0 0.0 0.0 0.0
0.133 0.3204699754714966 0.636942982673645 -0.05094924569129944 0.075171560049057 0.0 0.0 0.0 0.0
0.134 0.4564126431941986 0.5635992884635925 -0.033712901175022125 0.07347232848405838 0.0 0.0 0.0 0.0
0.135 0.569139301776886 0.461599200963974 -0.022908324375748634 0.06960857659578323 0.0 0.0 0.0 0.0
0.136 0.6549837589263916 0.33420997858047485 -0.015148047357797623 0.06626823544502258 0.0 0.0 0.0 0.0
0.137 0.703964352607727 0.19584646821022034 -0.010704628191888332 0.06818755716085434 0.0 0.0 0.0 0.0
0.138 0.7208808660507202 0.05412905663251877 -0.0014907792210578918 0.06938745081424713 0.0 0.0 0.0 0.0
0.139 0.7073535919189453 -0.08644111454486847 0.0060158660635352135 0.06849627941846848 0.0 0.0 0.0 0.0
0.14 0.6603202819824219 -0.21610060334205627 0.011255087330937386 0.06955822557210922 0.0 0.0 0.0 0.0
0.141 0.5792479515075684 -0.3374173641204834 0.021396296098828316 0.07374696433544159 0.0 0.0 0.0 0.0
0.142 0.48422831296920776 -0.4256405830383301 0.038141880184412 0.07814808934926987 0.0 0.0 0.0 0.0
0.143 0.37787511944770813 -0.4872280955314636 0.05810580402612686 0.07297078520059586 0.0 0.0 0.0 0.0
0.144 0.26537853479385376 -0.5239040851593018 0.07491447031497955 0.06410666555166245 0.0 0.0 0.0 0.0
0.145 0.1557902842760086 -0.5333953499794006 0.09318830817937851 0.04920568689703941 0.0 0.0 0.0 0.0
0.146 0.05351942405104637 -0.5212264657020569 0.10751140117645264 0.026504280045628548 0.0 0.0 0.0 0.0
0.147 -0.03716963902115822 -0.49154868721961975 0.1161462813615799 0.000613274984061718 0.0 0.0 0.0 0.0
0.148 -0.1093362420797348 -0.45106494426727295 0.11672356724739075 -0.03440968319773674 0.0 0.0 0.0 0.0
0.149 -0.16993239521980286 -0.418647438287735 0.09646767377853394 -0.0642814040184021 0.0 0.0 0.0 0.0
0.15 -0.24123692512512207 -0.3829684555530548 0.07366267591714859 -0.07742136716842651 0.0 0.0 0.0 0.0
0.151 -0.3117774426937103 -0.32847335934638977 0.055318765342235565 -0.08582660555839539 0.0 0.0 0.0 0.0
0.152 -0.37653183937072754 -0.25919514894485474 0.03621673583984375 -0.09288494288921356 0.0 0.0 0.0 0.0
0.153 -0.43064430356025696 -0.1736973077058792 0.01456792838871479 -0.09362678229808807 0.0 0.0 0.0 0.0
0.154 -0.4676487147808075 -0.07219236344099045 -0.0027334941551089287 -0.08593655377626419 0.0 0.0 0.0 0.0
0.155 -0.48195990920066833 0.040313493460416794 -0.010471749119460583 -0.07743524014949799 0.0 0.0 0.0 0.0
0.156 -0.47010934352874756 0.15460054576396942 -0.015040526166558266 -0.07401999831199646 0.0 0.0 0.0 0.0
0.157 -0.43446221947669983 0.2669582962989807 -0.02015683241188526 -0.07333487272262573 0.0 0.0 0.0 0.0
0.158 -0.3738917410373688 0.37118837237358093 -0.02404738962650299 -0.07734278589487076 0.0 0.0 0.0 0.0
0.159 -0.28860458731651306 0.4635331630706787 -0.03271166980266571 -0.08696796745061874 0.0 0.0 0.0 0.0
0.16 -0.18097184598445892 0.5343707799911499 -0.05394887179136276 -0.1008538082242012 0.0 0.0 0.0 0.0
0.161 -0.05817016586661339 0.5738474130630493 -0.0954173132777214 -0.10479147732257843 0.0 0.0 0.0 0.0
0.162 0.06361189484596252 0.583224356174469 -0.14414429664611816 -0.07847127318382263 0.0 0.0 0.0 0.0
0.163 0.1815776824951172 0.5731624960899353 -0.16568288207054138 -0.028575550764799118 0.0 0.0 0.0 0.0
0.164 0.30164477229118347 0.540730357170105 -0.16323718428611755 0.011667019687592983 0.0 0.0 0.0 0.0
0.165 0.41820529103279114 0.47776639461517334 -0.16320477426052094 0.03968784585595131 0.0 0.0 0.0 0.0
0.166 0.5132320523262024 0.380232572555542 -0.17117206752300262 0.07543713599443436 0.0 0.0 0.0 0.0
0.167 0.5723687410354614 0.2638457417488098 -0.17074735462665558 0.13146665692329407 0.0 0.0 0.0 0.0
0.168 0.596135139465332 0.1463039070367813 -0.14132289588451385 0.20115512609481812 0.0 0.0 0.0 0.0
0.169 0.5934121608734131 0.041478052735328674 -0.07146253436803818 0.26144886016845703 0.0 0.0 0.0 0.0
0.17 0.5760776400566101 -0.048501450568437576 0.028044255450367928 0.28579211235046387 0.0 0.0 0.0 0.0
0.171 0.5544241070747375 -0.12801958620548248 0.1335001289844513 0.2596605718135834 0.0 0.0 0.0 0.0
0.172 0.5295759439468384 -0.21023041009902954 0.21196843683719635 0.1877054125070572 0.0 0.0 0.0 0.0
0.173 0.49066752195358276 -0.29568782448768616 0.24647264182567596 0.09810267388820648 0.0 0.0 0.0 0.0
0.174 0.43105077743530273 -0.37869107723236084 0.2441348135471344 0.014608868397772312 0.0 0.0 0.0 0.0
0.175 0.3511752188205719 -0.44885575771331787 0.21752341091632843 -0.052667036652565 0.0 0.0 0.0 0.0
0.176 0.25514525175094604 -0.5019329786300659 0.17691171169281006 -0.10090994834899902 0.0 0.0 0.0 0.0
0.177 0.14830529689788818 -0.5316733121871948 0.13105137646198273 -0.1293906271457672 0.0 0.0 0.0 0.0
0.178 0.036862004548311234 -0.5377175807952881 0.08699934929609299 -0.142244353890419 0.0 0.0 0.0 0.0
0.179 -0.07146883755922318 -0.5208430290222168 0.048246558755636215 -0.14370976388454437 0.0 0.0 0.0 0.0
0.18 -0.17364154756069183 -0.48180606961250305 0.0153731694445014 -0.13807412981987 0.0 0.0 0.0 0.0
0.181 -0.2656744122505188 -0.42380157113075256 -0.011887443251907825 -0.12834306061267853 0.0 0.0 0.0 0.0
0.182 -0.3449052572250366 -0.3507339358329773 -0.0356488935649395 -0.11600560694932938 0.0 0.0 0.0 0.0
0.183 -0.40947362780570984 -0.26357561349868774 -0.05563010647892952 -0.0998799204826355 0.0 0.0 0.0 0.0
0.184 -0.4574701488018036 -0.16406144201755524 -0.07076968252658844 -0.08047705143690109 0.0 0.0 0.0 0.0
0.185 -0.48444825410842896 -0.055494386702775955 -0.08031535893678665 -0.059169694781303406 0.0 0.0 0.0 0.0
0.186 -0.49153345823287964 0.05812014266848564 -0.08420885354280472 -0.038153305649757385 0.0 0.0 0.0 0.0
0.187 -0.475310742855072 0.1733199805021286 -0.08203431218862534 -0.019903048872947693 0.0 0.0 0.0 0.0
0.188 -0.43561407923698425 0.286018967628479 -0.07814125716686249 -0.004503530450165272 0.0 0.0 0.0 0.0
0.189 -0.3723679482936859 0.3905356228351593 -0.07243476063013077 0.007740105502307415 0.0 0.0 0.0 0.0
0.19 -0.284412145614624 0.4827982187271118 -0.06564939022064209 0.018719183281064034 0.0 0.0 0.0 0.0
0.191 -0.17594073712825775 0.5561668872833252 -0.05769512429833412 0.026825083419680595 0.0 0.0 0.0 0.0
0.192 -0.050334230065345764 0.6026707291603088 -0.05068838596343994 0.032450247555971146 0.0 0.0 0.0 0.0
