!Created with skrf (http://scikit-rf.org).
# GHz S RI R 50.0 
!freq ReS11 ImS11 ReS21 ImS21 ReS12 ImS12 ReS22 ImS22
0.001 0.0504092313349247 0.01106081809848547 -2.9235146939754486e-05 -1.3451091945171356e-05 0.0 0.0 0.0 0.0
0.002 0.055943563580513 0.016623035073280334 -2.123415470123291e-07 -2.8965063393115997e-05 0.0 0.0 0.0 0.0
0.003 0.06145061179995537 0.02082010544836521 -1.9107013940811157e-05 -6.05359673500061e-07 0.0 0.0 0.0 0.0
0.004 0.06775230169296265 0.022757478058338165 1.5333294868469238e-05 -2.457760274410248e-06 0.0 0.0 0.0 0.0
0.005 0.0743015855550766 0.02391876094043255 -3.474391996860504e-05 3.9041973650455475e-05 0.0 0.0 0.0 0.0
0.006 0.0798233225941658 0.023614397272467613 1.2614764273166656e-05 -3.31830233335495e-06 0.0 0.0 0.0 0.0
0.007 0.08592797070741653 0.02187349833548069 -1.2801028788089752e-05 3.372505307197571e-05 0.0 0.0 0.0 0.0
0.008 0.09057729691267014 0.019393539056181908 -7.014721632003784e-06 2.4218112230300903e-05 0.0 0.0 0.0 0.0
0.009 0.09468753635883331 0.016174351796507835 -5.882233381271362e-06 7.820315659046173e-06 0.0 0.0 0.0 0.0
0.01 0.09834283590316772 0.011845123022794724 5.001388490200043e-05 -1.379009336233139e-05 0.0 0.0 0.0 0.0
0.011 0.10082988440990448 0.0067955851554870605 -1.2556090950965881e-05 -4.293769598007202e-05 0.0 0.0 0.0 0.0
0.012 0.10281839221715927 0.0014894939959049225 7.38808885216713e-05 -1.213420182466507e-05 0.0 0.0 0.0 0.0
0.013 0.10411366820335388 -0.003982589580118656 1.2503936886787415e-05 -8.550472557544708e-06 0.0 0.0 0.0 0.0
0.014 0.10334847122430801 -0.009186849929392338 6.897561252117157e-05 -1.6588717699050903e-05 0.0 0.0 0.0 0.0
0.015 0.10199394822120667 -0.014454380609095097 -3.335997462272644e-06 6.784684956073761e-06 0.0 0.0 0.0 0.0
0.016 0.09998491406440735 -0.02008030377328396 1.5692785382270813e-06 2.7573667466640472e-05 0.0 0.0 0.0 0.0
0.017 0.09686252474784851 -0.024075152352452278 3.085192292928696e-05 3.4188851714134216e-06 0.0 0.0 0.0 0.0
0.018 0.09239251166582108 -0.02856859751045704 -0.00012593436986207962 -2.2475607693195343e-05 0.0 0.0 0.0 0.0
0.019 0.08835604041814804 -0.03145092353224754 -4.4335611164569855e-05 5.366280674934387e-06 0.0 0.0 0.0 0.0
0.02 0.0829206109046936 -0.03421696275472641 1.0248273611068726e-05 8.28523188829422e-05 0.0 0.0 0.0 0.0
0.021 0.07764054089784622 -0.03592687100172043 5.060248076915741e-05 1.853611320257187e-05 0.0 0.0 0.0 0.0
0.022 0.0721500813961029 -0.036032408475875854 3.648735582828522e-05 -4.816334694623947e-05 0.0 0.0 0.0 0.0
0.023 0.06660201400518417 -0.03597346320748329 -1.394469290971756e-05 2.2472813725471497e-06 0.0 0.0 0.0 0.0
0.024 0.06082296371459961 -0.03454570099711418 -2.1673738956451416e-05 2.1587125957012177e-05 0.0 0.0 0.0 0.0
0.025 0.056254684925079346 -0.032106056809425354 1.3404525816440582e-05 1.0054558515548706e-05 0.0 0.0 0.0 0.0
0.026 0.05165410041809082 -0.029407095164060593 9.923242032527924e-06 5.358085036277771e-05 0.0 0.0 0.0 0.0
0.027 0.047558825463056564 -0.025087004527449608 -3.5657547414302826e-05 9.04873013496399e-06 0.0 0.0 0.0 0.0
0.028 0.04492154344916344 -0.020990220829844475 1.3596378266811371e-05 2.571381628513336e-06 0.0 0.0 0.0 0.0
0.029 0.04291856288909912 -0.0159560889005661 9.301118552684784e-06 -1.3635493814945221e-05 0.0 0.0 0.0 0.0
0.03 0.04134373366832733 -0.01132170483469963 6.50063157081604e-06 -1.0100193321704865e-05 0.0 0.0 0.0 0.0
0.031 0.04066796600818634 -0.005880915559828281 6.12400472164154e-05 8.04942101240158e-06 0.0 0.0 0.0 0.0
0.032 0.04147252067923546 -0.0014062952250242233 -1.4036893844604492e-05 3.09869647026062e-05 0.0 0.0 0.0 0.0
0.033 0.042833682149648666 0.0038684504106640816 2.850126475095749e-05 -2.821441739797592e-05 0.0 0.0 0.0 0.0
0.034 0.04534337297081947 0.007930201478302479 -5.439016968011856e-05 7.148832082748413e-06 0.0 0.0 0.0 0.0
0.035 0.04859142377972603 0.012003078125417233 2.138689160346985e-05 -3.864336758852005e-05 0.0 0.0 0.0 0.0
0.036 0.05221497267484665 0.014765570871531963 -2.5725923478603363e-05 1.4334917068481445e-05 0.0 0.0 0.0 0.0
0.037 0.05629441514611244 0.017192469909787178 -3.069080412387848e-05 3.75332310795784e-05 0.0 0.0 0.0 0.0
0.038 0.0604286789894104 0.018598459661006927 1.4863908290863037e-05 -4.951842129230499e-06 0.0 0.0 0.0 0.0
0.039 0.06504137814044952 0.019143080338835716 -1.2759119272232056e-07 -2.8827227652072906e-05 0.0 0.0 0.0 0.0
0.04 0.06945193558931351 0.01910223439335823 2.9383227229118347e-06 1.9756145775318146e-05 0.0 0.0 0.0 0.0
0.041 0.07397078722715378 0.01811552233994007 1.91517174243927e-05 -7.876195013523102e-06 0.0 0.0 0.0 0.0
0.042 0.07790711522102356 0.016554025933146477 -1.4867633581161499e-05 -5.915295332670212e-05 0.0 0.0 0.0 0.0
0.043 0.08172768354415894 0.014256205409765244 -5.852431058883667e-06 -2.5469809770584106e-05 0.0 0.0 0.0 0.0
0.044 0.08514926582574844 0.011119997128844261 2.1659769117832184e-05 2.8726644814014435e-05 0.0 0.0 0.0 0.0
0.045 0.08704138547182083 0.0072767967358231544 -2.3414380848407745e-05 5.260109901428223e-06 0.0 0.0 0.0 0.0
0.046 0.08860041946172714 0.0034534474834799767 8.228234946727753e-06 2.230517566204071e-05 0.0 0.0 0.0 0.0
0.047 0.08979354798793793 -0.0009034248068928719 3.2763928174972534e-06 1.2763775885105133e-05 0.0 0.0 0.0 0.0
0.048 0.08966642618179321 -0.0050825756043195724 9.680166840553284e-06 2.997554838657379e-05 0.0 0.0 0.0 0.0
0.049 0.08838309347629547 -0.009236890822649002 2.879370003938675e-05 3.1297095119953156e-05 0.0 0.0 0.0 0.0
0.05 0.08679255098104477 -0.012769949622452259 -1.4384277164936066e-05 -3.8081780076026917e-06 0.0 0.0 0.0 0.0
0.051 0.08420853316783905 -0.016781970858573914 2.2483058273792267e-05 6.2230974435806274e-06 0.0 0.0 0.0 0.0
0.052 0.08117572218179703 -0.01940510980784893 2.3152679204940796e-06 1.9334256649017334e-05 0.0 0.0 0.0 0.0
0.053 0.07763313502073288 -0.021984122693538666 1.4091841876506805e-05 4.5773573219776154e-05 0.0 0.0 0.0 0.0
0.054 0.07354713976383209 -0.02338925004005432 3.4514814615249634e-05 -2.5235116481781006e-05 0.0 0.0 0.0 0.0
0.055 0.06941118836402893 -0.024579968303442 5.9728510677814484e-05 1.3988465070724487e-06 0.0 0.0 0.0 0.0
0.056 0.06531300395727158 -0.02415497973561287 2.018176019191742e-06 -4.090368747711182e-06 0.0 0.0 0.0 0.0
0.057 0.06125759705901146 -0.023761728778481483 -2.6337802410125732e-06 -3.584194928407669e-05 0.0 0.0 0.0 0.0
0.058 0.05736003816127777 -0.022290105000138283 -7.764901965856552e-05 -0.00011918507516384125 0.0 0.0 0.0 0.0
0.059 0.05436612665653229 -0.020017357543110847 3.963988274335861e-05 -2.5998800992965698e-05 0.0 0.0 0.0 0.0
0.06 0.0511392317712307 -0.017100989818572998 1.230090856552124e-05 1.4433637261390686e-05 0.0 0.0 0.0 0.0
0.061 0.048410918563604355 -0.013781268149614334 5.5666081607341766e-05 -5.2900053560733795e-05 0.0 0.0 0.0 0.0
0.062 0.04729042202234268 -0.010468742810189724 5.025044083595276e-05 -5.647074431180954e-05 0.0 0.0 0.0 0.0
0.063 0.04618800804018974 -0.00679407175630331 -0.0001348555088043213 -0.00012446939945220947 0.0 0.0 0.0 0.0
0.064 0.04587535932660103 -0.002612091600894928 -0.00010308157652616501 4.249904304742813e-05 0.0 0.0 0.0 0.0
0.065 0.0461258627474308 0.001358088105916977 -5.101505666971207e-05 5.5355019867420197e-05 0.0 0.0 0.0 0.0
0.066 0.04768168553709984 0.004646173678338528 -3.597047179937363e-05 4.302710294723511e-05 0.0 0.0 0.0 0.0
0.067 0.04931280389428139 0.007700618356466293 -6.9141387939453125e-06 0.00011084694415330887 0.0 0.0 0.0 0.0
0.068 0.05205748975276947 0.010519679635763168 -8.48434865474701e-06 7.103290408849716e-05 0.0 0.0 0.0 0.0
0.069 0.055207230150699615 0.012763075530529022 1.0125339031219482e-05 8.095055818557739e-05 0.0 0.0 0.0 0.0
0.07 0.05813046917319298 0.014185376465320587 2.4034641683101654e-05 -7.287599146366119e-06 0.0 0.0 0.0 0.0
0.071 0.061830416321754456 0.01534960139542818 3.056228160858154e-05 6.431806832551956e-05 0.0 0.0 0.0 0.0
0.072 0.06516693532466888 0.015256091952323914 3.335438668727875e-05 3.8382597267627716e-05 0.0 0.0 0.0 0.0
0.073 0.06856533885002136 0.014653206802904606 6.227754056453705e-05 1.4606863260269165e-05 0.0 0.0 0.0 0.0
0.074 0.0713828057050705 0.01407663431018591 0.00015987548977136612 -6.699003279209137e-06 0.0 0.0 0.0 0.0
0.075 0.07430000603199005 0.012211035937070847 0.0002675289288163185 -0.00019803550094366074 0.0 0.0 0.0 0.0
0.076 0.07691795378923416 0.0098910266533494 8.398666977882385e-06 -0.0003446293994784355 0.0 0.0 0.0 0.0
0.077 0.07931270450353622 0.0073564620688557625 -0.00010838918387889862 -0.0001913728192448616 0.0 0.0 0.0 0.0
0.078 0.08024437725543976 0.0036583393812179565 -0.00014481879770755768 -6.688572466373444e-05 0.0 0.0 0.0 0.0
0.079 0.08107707649469376 0.0008360454812645912 -0.00012478046119213104 -2.4884939193725586e-06 0.0 0.0 0.0 0.0
0.08 0.08096817135810852 -0.002605804242193699 -0.00017874222248792648 -3.6191195249557495e-06 0.0 0.0 0.0 0.0
0.081 0.08060922473669052 -0.00584142841398716 -0.00015067961066961288 0.000121348537504673 0.0 0.0 0.0 0.0
0.082 0.07901397347450256 -0.008985579013824463 -8.757039904594421e-05 0.0001111319288611412 0.0 0.0 0.0 0.0
0.083 0.07715500146150589 -0.011883650906383991 -4.96692955493927e-05 0.00010964646935462952 0.0 0.0 0.0 0.0
0.084 0.07439709454774857 -0.014193408191204071 1.1947005987167358e-05 9.214412420988083e-05 0.0 0.0 0.0 0.0
0.085 0.07118518650531769 -0.016351992264389992 0.00013363081961870193 0.00013929419219493866 0.0 0.0 0.0 0.0
0.086 0.06792565435171127 -0.01748325303196907 0.00017580855637788773 9.290874004364014e-06 0.0 0.0 0.0 0.0
0.087 0.06476987153291702 -0.01794222928583622 0.0003289664164185524 -0.0002161795273423195 0.0 0.0 0.0 0.0
0.088 0.06034935638308525 -0.018238775432109833 6.459280848503113e-05 -0.0003782883286476135 0.0 0.0 0.0 0.0
0.089 0.05652427300810814 -0.01691105030477047 -0.00015427544713020325 -0.0002936543896794319 0.0 0.0 0.0 0.0
0.09 0.05283866077661514 -0.014693988487124443 -0.00032018497586250305 -0.00010034441947937012 0.0 0.0 0.0 0.0
0.091 0.049628015607595444 -0.012545024044811726 -0.0002918178215622902 6.743893027305603e-05 0.0 0.0 0.0 0.0
0.092 0.04767880588769913 -0.009209321811795235 -0.00020251702517271042 6.058625876903534e-05 0.0 0.0 0.0 0.0
0.093 0.04555124044418335 -0.006363997235894203 -0.00010470207780599594 0.0001237001270055771 0.0 0.0 0.0 0.0
0.094 0.044110264629125595 -0.0025325287133455276 -7.218495011329651e-05 0.00017943233251571655 0.0 0.0 0.0 0.0
0.095 0.04369613900780678 0.0010437378659844398 -9.107310324907303e-05 0.00018074456602334976 0.0 0.0 0.0 0.0
0.096 0.04328479245305061 0.00506350863724947 -3.541819751262665e-05 0.00016294699162244797 0.0 0.0 0.0 0.0
0.097 0.04440188780426979 0.008565752767026424 2.9251910746097565e-05 0.0002061687409877777 0.0 0.0 0.0 0.0
0.098 0.045354656875133514 0.012574131600558758 3.759749233722687e-05 0.0001716790720820427 0.0 0.0 0.0 0.0
0.099 0.04742411896586418 0.01586098037660122 5.956925451755524e-05 0.0001907898113131523 0.0 0.0 0.0 0.0
0.1 0.05042843520641327 0.018866674974560738 9.885802865028381e-05 0.00017314404249191284 0.0 0.0 0.0 0.0
0.101 0.053906284272670746 0.020709620788693428 0.00010375306010246277 0.00014600064605474472 0.0 0.0 0.0 0.0
0.102 0.05725773423910141 0.022828122600913048 0.000134381465613842 0.0001260116696357727 0.0 0.0 0.0 0.0
0.103 0.060413289815187454 0.023937882855534554 0.00021451245993375778 7.674191147089005e-05 0.0 0.0 0.0 0.0
0.104 0.06442804634571075 0.02464434877038002 0.00021482817828655243 2.8199516236782074e-05 0.0 0.0 0.0 0.0
0.105 0.0683557540178299 0.023643046617507935 0.00025781337171792984 -2.510659396648407e-05 0.0 0.0 0.0 0.0
0.106 0.0718790739774704 0.02292351797223091 0.0002978062257170677 -0.00011763256043195724 0.0 0.0 0.0 0.0
0.107 0.07544050365686417 0.02164067141711712 0.00023128464818000793 -0.00027409568428993225 0.0 0.0 0.0 0.0
0.108 0.07821894437074661 0.019359219819307327 2.3646280169487e-06 -0.00033058132976293564 0.0 0.0 0.0 0.0
0.109 0.08020536601543427 0.016754204407334328 -0.00012445542961359024 -0.00024935975670814514 0.0 0.0 0.0 0.0
0.11 0.08241742104291916 0.013552149757742882 -0.00022698380053043365 -7.565785199403763e-05 0.0 0.0 0.0 0.0
0.111 0.08371132612228394 0.010719319805502892 -0.00017410051077604294 -5.4317526519298553e-05 0.0 0.0 0.0 0.0
0.112 0.08366689085960388 0.006821015849709511 -8.571892976760864e-05 9.425915777683258e-06 0.0 0.0 0.0 0.0
0.113 0.08370500057935715 0.003300195559859276 -6.831809878349304e-05 2.420879900455475e-05 0.0 0.0 0.0 0.0
0.114 0.0826105922460556 0.00039107631891965866 -9.735114872455597e-05 8.934177458286285e-06 0.0 0.0 0.0 0.0
0.115 0.08106441795825958 -0.002055932767689228 -6.637256592512131e-05 7.117167115211487e-05 0.0 0.0 0.0 0.0
0.116 0.07916773110628128 -0.004935878328979015 -2.5306828320026398e-05 3.2553449273109436e-05 0.0 0.0 0.0 0.0
0.117 0.07694589346647263 -0.006428515538573265 2.3563392460346222e-05 2.403371036052704e-05 0.0 0.0 0.0 0.0
0.118 0.07379376888275146 -0.007504631765186787 -5.239620804786682e-06 2.876855432987213e-05 0.0 0.0 0.0 0.0
0.119 0.07075901329517365 -0.00859749224036932 4.5076943933963776e-05 6.507989019155502e-05 0.0 0.0 0.0 0.0
0.12 0.06731007248163223 -0.009236947633326054 -2.859160304069519e-07 -4.1862018406391144e-05 0.0 0.0 0.0 0.0
0.121 0.06403013318777084 -0.008081207051873207 -1.325272023677826e-05 -2.6938505470752716e-05 0.0 0.0 0.0 0.0
0.122 0.06093565747141838 -0.007076764479279518 1.2656673789024353e-06 -2.0650215446949005e-05 0.0 0.0 0.0 0.0
0.123 0.05803059786558151 -0.004668565467000008 3.4757889807224274e-05 4.532746970653534e-06 0.0 0.0 0.0 0.0
0.124 0.05592716485261917 -0.0023789526894688606 -4.793517291545868e-05 -2.3768283426761627e-05 0.0 0.0 0.0 0.0
0.125 0.05399755388498306 0.0006423359736800194 -3.326684236526489e-05 4.2868778109550476e-05 0.0 0.0 0.0 0.0
0.126 0.05328473448753357 0.003940126858651638 2.642907202243805e-05 2.3837201297283173e-05 0.0 0.0 0.0 0.0
0.127 0.053420305252075195 0.007781979627907276 -1.087132841348648e-05 -2.071727067232132e-05 0.0 0.0 0.0 0.0
0.128 0.05343352630734444 0.010908866301178932 3.0510127544403076e-06 -1.3873912394046783e-05 0.0 0.0 0.0 0.0
0.129 0.054889049381017685 0.014824535697698593 1.6670674085617065e-06 4.1931867599487305e-05 0.0 0.0 0.0 0.0
0.13 0.05710659921169281 0.017833886668086052 5.556270480155945e-06 6.567500531673431e-05 0.0 0.0 0.0 0.0
0.131 0.05912004038691521 0.02082880027592182 -1.4248304069042206e-05 7.692724466323853e-07 0.0 0.0 0.0 0.0
0.132 0.06269321590662003 0.023027531802654266 8.132308721542358e-06 6.550922989845276e-05 0.0 0.0 0.0 0.0
0.133 0.06645534932613373 0.025100214406847954 8.665956556797028e-06 4.116632044315338e-05 0.0 0.0 0.0 0.0
0.134 0.06999264657497406 0.02574034221470356 4.9641355872154236e-05 4.2185187339782715e-05 0.0 0.0 0.0 0.0
0.135 0.07455938309431076 0.02642582356929779 -1.0036863386631012e-05 5.395710468292236e-05 0.0 0.0 0.0 0.0
0.136 0.07804202288389206 0.02602776698768139 -1.5953555703163147e-05 7.314514368772507e-05 0.0 0.0 0.0 0.0
0.137 0.08210782706737518 0.02474689483642578 -2.4517998099327087e-05 4.6718865633010864e-05 0.0 0.0 0.0 0.0
0.138 0.08599837869405746 0.02265699952840805 6.632041186094284e-05 3.2708048820495605e-05 0.0 0.0 0.0 0.0
0.139 0.08940190821886063 0.019865509122610092 5.4193660616874695e-05 2.6706606149673462e-05 0.0 0.0 0.0 0.0
0.14 0.09243471920490265 0.01688195765018463 2.8927810490131378e-05 -1.891888678073883e-05 0.0 0.0 0.0 0.0
0.141 0.09286840260028839 0.012226894497871399 6.231386214494705e-05 2.7771107852458954e-05 0.0 0.0 0.0 0.0
0.142 0.09443596005439758 0.00788530707359314 9.064655750989914e-05 6.163492798805237e-06 0.0 0.0 0.0 0.0
0.143 0.09484181553125381 0.003584587015211582 6.0024671256542206e-05 -4.4522807002067566e-05 0.0 0.0 0.0 0.0
0.144 0.09460218250751495 -0.0006759287789463997 3.3294782042503357e-06 -1.9836239516735077e-05 0.0 0.0 0.0 0.0
0.145 0.09381493180990219 -0.005415431223809719 7.615424692630768e-05 -2.7492642402648926e-05 0.0 0.0 0.0 0.0
0.146 0.0918002650141716 -0.009261670522391796 2.5668181478977203e-05 -6.896629929542542e-05 0.0 0.0 0.0 0.0
0.147 0.089152030646801 -0.013565071858465672 5.643349140882492e-05 -7.504690438508987e-05 0.0 0.0 0.0 0.0
0.148 0.08624913543462753 -0.016227083280682564 2.6650726795196533e-05 -0.00011789053678512573 0.0 0.0 0.0 0.0
0.149 0.0825270414352417 -0.018777551129460335 -1.0837800800800323e-05 -0.00017509609460830688 0.0 0.0 0.0 0.0
0.15 0.07833891361951828 -0.020547743886709213 -6.12158328294754e-06 -0.00011783558875322342 0.0 0.0 0.0 0.0
0.151 0.07374779134988785 -0.02192891575396061 -0.00011390727013349533 -0.00016515981405973434 0.0 0.0 0.0 0.0
0.152 0.06933505833148956 -0.022023972123861313 -9.28826630115509e-05 -7.587764412164688e-05 0.0 0.0 0.0 0.0
0.153 0.06475082784891129 -0.021414687857031822 -0.00016543269157409668 -2.0794570446014404e-05 0.0 0.0 0.0 0.0
0.154 0.05999762564897537 -0.020114241167902946 -0.00015809852629899979 2.2991560399532318e-05 0.0 0.0 0.0 0.0
0.155 0.055656444281339645 -0.017760615795850754 -0.00018145330250263214 0.00012112502008676529 0.0 0.0 0.0 0.0
0.156 0.05250857397913933 -0.014835838228464127 -0.0001836474984884262 0.00013258960098028183 0.0 0.0 0.0 0.0
0.157 0.049539707601070404 -0.011394119821488857 -0.00011986494064331055 0.00014907680451869965 0.0 0.0 0.0 0.0
0.158 0.04730505868792534 -0.007254169322550297 -7.791072130203247e-05 0.0001959642395377159 0.0 0.0 0.0 0.0
0.159 0.04611220210790634 -0.0025341054424643517 -3.5402365028858185e-05 0.00023631472140550613 0.0 0.0 0.0 0.0
0.16 0.045033544301986694 0.001913635991513729 1.0381452739238739e-05 0.0002145618200302124 0.0 0.0 0.0 0.0
0.161 0.04565054923295975 0.006672301329672337 9.672623127698898e-05 0.00027486588805913925 0.0 0.0 0.0 0.0
0.162 0.046561259776353836 0.011098609305918217 0.00018129311501979828 0.0002986947074532509 0.0 0.0 0.0 0.0
0.163 0.04865194112062454 0.015468219295144081 0.00027256179600954056 0.0002889251336455345 0.0 0.0 0.0 0.0
0.164 0.05141754075884819 0.019545970484614372 0.0004571918398141861 0.00015822239220142365 0.0 0.0 0.0 0.0
0.165 0.05465993285179138 0.02295072190463543 0.0005750730633735657 -8.525606244802475e-05 0.0 0.0 0.0 0.0
0.166 0.05889708921313286 0.025688789784908295 0.0004635397344827652 -0.00037976447492837906 0.0 0.0 0.0 0.0
0.167 0.06382346898317337 0.02767167240381241 0.00018872693181037903 -0.0004523787647485733 0.0 0.0 0.0 0.0
0.168 0.06788922101259232 0.029152262955904007 -1.3578683137893677e-06 -0.0004021506756544113 0.0 0.0 0.0 0.0
0.169 0.07320822775363922 0.029097869992256165 -9.243562817573547e-05 -0.00034727901220321655 0.0 0.0 0.0 0.0
0.17 0.07789778709411621 0.028735872358083725 -0.00016785692423582077 -0.00026338081806898117 0.0 0.0 0.0 0.0
0.171 0.08263617008924484 0.026835614815354347 -0.00017387699335813522 -0.00024933088570833206 0.0 0.0 0.0 0.0
0.172 0.08681309968233109 0.024376165121793747 -0.00019790977239608765 -0.00019260216504335403 0.0 0.0 0.0 0.0
0.173 0.09035319834947586 0.02148621156811714 -0.00021240301430225372 -0.00016198307275772095 0.0 0.0 0.0 0.0
0.174 0.09287166595458984 0.017641929909586906 -0.0002431962639093399 -7.731746882200241e-05 0.0 0.0 0.0 0.0
0.175 0.0956980511546135 0.013338104821741581 -0.00026993080973625183 -9.051244705915451e-05 0.0 0.0 0.0 0.0
0.176 0.09646046161651611 0.008562346920371056 -0.00028467271476984024 2.7101486921310425e-06 0.0 0.0 0.0 0.0
0.177 0.09755022823810577 0.003925317898392677 -0.00029134470969438553 4.034489393234253e-05 0.0 0.0 0.0 0.0
0.178 0.09676039963960648 -0.0004638032987713814 -0.0002749292179942131 0.00013430416584014893 0.0 0.0 0.0 0.0
0.179 0.09526300430297852 -0.005296133458614349 -0.0002224678173661232 0.00018969550728797913 0.0 0.0 0.0 0.0
0.18 0.09328681975603104 -0.009210898540914059 -0.00019140075892210007 0.0002527749165892601 0.0 0.0 0.0 0.0
0.181 0.09052270650863647 -0.012135772965848446 -0.00015864800661802292 0.0003015045076608658 0.0 0.0 0.0 0.0
0.182 0.08727333694696426 -0.01527349092066288 -5.632080137729645e-05 0.0003036791458725929 0.0 0.0 0.0 0.0
