!Created with skrf (http://scikit-rf.org).
# GHz S RI R 50.0 
!freq ReS11 ImS11 ReS21 ImS21 ReS12 ImS12 ReS22 ImS22
0.001 0.9752950072288513 -0.2055736780166626 -2.158433198928833e-05 -3.280956298112869e-05 0.0 0.0 0.0 0.0
0.002 0.8986408114433289 -0.3928857147693634 -2.628657966852188e-05 1.2675300240516663e-05 0.0 0.0 0.0 0.0
0.003 0.7822703123092651 -0.5532006621360779 1.5463680028915405e-05 1.8444843590259552e-05 0.0 0.0 0.0 0.0
0.004 0.6386834383010864 -0.677250862121582 2.1284446120262146e-05 -3.984197974205017e-05 0.0 0.0 0.0 0.0
0.005 0.47563135623931885 -0.7618590593338013 1.2362375855445862e-05 2.4792738258838654e-05 0.0 0.0 0.0 0.0
0.006 0.30822983384132385 -0.8078516721725464 5.736947059631348e-07 -2.842862159013748e-05 0.0 0.0 0.0 0.0
0.007 0.14163142442703247 -0.8168579936027527 2.5685876607894897e-06 -2.2372230887413025e-05 0.0 0.0 0.0 0.0
0.008 -0.01341621857136488 -0.793720006942749 -3.291480243206024e-05 2.413615584373474e-05 0.0 0.0 0.0 0.0
0.009 -0.15564489364624023 -0.7449775338172913 2.013426274061203e-05 5.32250851392746e-06 0.0 0.0 0.0 0.0
0.01 -0.2800987958908081 -0.674351692199707 2.8084032237529755e-05 -7.345341145992279e-06 0.0 0.0 0.0 0.0
0.011 -0.38605350255966187 -0.5878092050552368 -5.214475095272064e-06 1.6843900084495544e-05 0.0 0.0 0.0 0.0
0.012 -0.47346097230911255 -0.4863709807395935 3.165006637573242e-05 4.8529356718063354e-05 0.0 0.0 0.0 0.0
0.013 -0.5411915183067322 -0.37725934386253357 -1.9762665033340454e-06 3.441236913204193e-06 0.0 0.0 0.0 0.0
0.014 -0.5889815092086792 -0.26089033484458923 1.2740492820739746e-06 -2.2669322788715363e-05 0.0 0.0 0.0 0.0
0.015 -0.616647481918335 -0.1407322883605957 -1.9618310034275055e-05 -2.0761974155902863e-05 0.0 0.0 0.0 0.0
0.016 -0.6273423433303833 -0.019453102722764015 1.9605271518230438e-05 4.399009048938751e-05 0.0 0.0 0.0 0.0
0.017 -0.6178544163703918 0.10184631496667862 2.345442771911621e-05 8.633360266685486e-07 0.0 0.0 0.0 0.0
0.018 -0.5900307297706604 0.2198159396648407 1.033395528793335e-05 -0.00011121667921543121 0.0 0.0 0.0 0.0
0.019 -0.5438423156738281 0.33523768186569214 -5.253218114376068e-05 -7.67875462770462e-05 0.0 0.0 0.0 0.0
0.02 -0.47810879349708557 0.4422057569026947 -0.00016821455210447311 -5.362555384635925e-06 0.0 0.0 0.0 0.0
0.021 -0.3934350907802582 0.540321409702301 5.762465298175812e-05 4.4998712837696075e-05 0.0 0.0 0.0 0.0
0.022 -0.29176202416419983 0.6234456300735474 -2.1643005311489105e-05 1.8213875591754913e-05 0.0 0.0 0.0 0.0
0.023 -0.17150753736495972 0.6905868649482727 3.753975033760071e-05 2.2212974727153778e-05 0.0 0.0 0.0 0.0
0.024 -0.03779911622405052 0.7348271608352661 2.5074928998947144e-05 5.4395757615566254e-05 0.0 0.0 0.0 0.0
0.025 0.10706442594528198 0.753322184085846 -2.5447458028793335e-05 -3.9674341678619385e-05 0.0 0.0 0.0 0.0
0.026 0.2594282031059265 0.7436461448669434 2.409517765045166e-05 -1.4512799680233002e-05 0.0 0.0 0.0 0.0
0.027 0.4106910526752472 0.7010051608085632 2.784654498100281e-07 5.153007805347443e-06 0.0 0.0 0.0 0.0
0.028 0.5532279014587402 0.6238877177238464 3.2070092856884e-05 -1.8890947103500366e-05 0.0 0.0 0.0 0.0
0.029 0.6797307133674622 0.5150564908981323 3.130640834569931e-05 -1.7483718693256378e-05 0.0 0.0 0.0 0.0
0.03 0.7797151803970337 0.37760594487190247 4.476122558116913e-05 -3.496091812849045e-05 0.0 0.0 0.0 0.0
0.031 0.8472924828529358 0.21911072731018066 -6.863847374916077e-06 -2.7788802981376648e-05 0.0 0.0 0.0 0.0
0.032 0.8750005960464478 0.047868043184280396 4.31230291724205e-05 -3.4349970519542694e-05 0.0 0.0 0.0 0.0
0.033 0.862315833568573 -0.12363279610872269 -5.214475095272064e-06 -1.6145408153533936e-05 0.0 0.0 0.0 0.0
0.034 0.8120128512382507 -0.28449857234954834 -4.352256655693054e-05 3.563240170478821e-06 0.0 0.0 0.0 0.0
0.035 0.7279258966445923 -0.4256197512149811 2.771615982055664e-06 2.2899359464645386e-05 0.0 0.0 0.0 0.0
0.036 0.6190853118896484 -0.5430386066436768 2.9014423489570618e-05 -4.250742495059967e-05 0.0 0.0 0.0 0.0
0.037 0.4921235740184784 -0.6303213834762573 -4.640035331249237e-05 -2.2164545953273773e-05 0.0 0.0 0.0 0.0
0.038 0.355526328086853 -0.6879171133041382 8.331984281539917e-05 -7.539056241512299e-06 0.0 0.0 0.0 0.0
0.039 0.21538542211055756 -0.7160054445266724 5.2228569984436035e-06 -2.09147110581398e-05 0.0 0.0 0.0 0.0
0.04 0.07968644052743912 -0.7174180150032043 -7.334165275096893e-06 -2.276245504617691e-05 0.0 0.0 0.0 0.0
0.041 -0.05086910352110863 -0.693611204624176 3.688037395477295e-07 2.1085143089294434e-06 0.0 0.0 0.0 0.0
0.042 -0.16994164884090424 -0.650416910648346 -2.7008354663848877e-05 -5.6723132729530334e-05 0.0 0.0 0.0 0.0
0.043 -0.277381032705307 -0.5882143974304199 -2.5935471057891846e-05 2.4458393454551697e-05 0.0 0.0 0.0 0.0
0.044 -0.369484543800354 -0.5119394659996033 -2.492126077413559e-05 -4.3019652366638184e-05 0.0 0.0 0.0 0.0
0.045 -0.44782623648643494 -0.4235572814941406 -2.8623268008232117e-05 -3.119930624961853e-06 0.0 0.0 0.0 0.0
0.046 -0.5090017318725586 -0.32562607526779175 7.719732820987701e-06 5.138106644153595e-06 0.0 0.0 0.0 0.0
0.047 -0.5538538098335266 -0.2202518880367279 -1.807417720556259e-05 3.4510158002376556e-05 0.0 0.0 0.0 0.0
0.048 -0.5815553665161133 -0.11025095731019974 5.7658180594444275e-06 7.379148155450821e-05 0.0 0.0 0.0 0.0
0.049 -0.5920659303665161 0.0036045359447598457 -1.0794028639793396e-06 1.28159299492836e-05 0.0 0.0 0.0 0.0
0.05 -0.5843599438667297 0.11932466179132462 2.4246983230113983e-05 1.4454126358032227e-05 0.0 0.0 0.0 0.0
0.051 -0.5584431290626526 0.23385556042194366 4.382804036140442e-06 4.763901233673096e-05 0.0 0.0 0.0 0.0
0.052 -0.51170814037323 0.34486183524131775 -4.452653229236603e-06 -4.246644675731659e-05 0.0 0.0 0.0 0.0
0.053 -0.44647541642189026 0.4487854242324829 1.4241784811019897e-05 1.673586666584015e-05 0.0 0.0 0.0 0.0
0.054 -0.3602718710899353 0.5434061288833618 1.8870458006858826e-05 1.821853220462799e-05 0.0 0.0 0.0 0.0
0.055 -0.25633537769317627 0.6221976280212402 1.3838522136211395e-05 5.870126187801361e-06 0.0 0.0 0.0 0.0
0.056 -0.13532264530658722 0.6834409832954407 1.7880462110042572e-05 2.7208589017391205e-05 0.0 0.0 0.0 0.0
0.057 -0.0001345006749033928 0.7209480404853821 7.044989615678787e-05 2.9715709388256073e-05 0.0 0.0 0.0 0.0
0.058 0.14547546207904816 0.7308856844902039 0.00019183289259672165 2.941116690635681e-06 0.0 0.0 0.0 0.0
0.059 0.2939257323741913 0.7098885178565979 1.4842487871646881e-05 -5.4962001740932465e-05 0.0 0.0 0.0 0.0
0.06 0.4387478530406952 0.6560495495796204 4.5062974095344543e-05 -0.00011742487549781799 0.0 0.0 0.0 0.0
0.061 0.5713343024253845 0.5688055753707886 8.17514955997467e-06 -9.324401617050171e-05 0.0 0.0 0.0 0.0
0.062 0.6825906038284302 0.45330649614334106 -0.00011408422142267227 -0.0002438453957438469 0.0 0.0 0.0 0.0
0.063 0.7649726867675781 0.3137281537055969 -0.00026112888008356094 -4.2341649532318115e-05 0.0 0.0 0.0 0.0
0.064 0.8138235211372375 0.15877389907836914 -0.00018009357154369354 0.0001472681760787964 0.0 0.0 0.0 0.0
0.065 0.8256108164787292 -0.0022081146016716957 -4.8228539526462555e-05 0.00012705102562904358 0.0 0.0 0.0 0.0
0.066 0.8014940619468689 -0.15826907753944397 3.184005618095398e-05 0.00013084709644317627 0.0 0.0 0.0 0.0
0.067 0.7435473203659058 -0.29990503191947937 7.309112697839737e-05 2.191402018070221e-05 0.0 0.0 0.0 0.0
0.068 0.6610780358314514 -0.4244568645954132 8.468888700008392e-05 4.478823393583298e-05 0.0 0.0 0.0 0.0
0.069 0.5571832656860352 -0.524787187576294 6.263796240091324e-05 3.88510525226593e-05 0.0 0.0 0.0 0.0
0.07 0.4395190179347992 -0.598385214805603 8.250400424003601e-05 -7.003545761108398e-07 0.0 0.0 0.0 0.0
0.071 0.3146626651287079 -0.6461592316627502 4.615914076566696e-05 1.694168895483017e-05 0.0 0.0 0.0 0.0
0.072 0.18745063245296478 -0.669508695602417 8.013471961021423e-05 -7.44163990020752e-05 0.0 0.0 0.0 0.0
0.073 0.06268984079360962 -0.66977459192276 9.254924952983856e-05 -0.00010895077139139175 0.0 0.0 0.0 0.0
0.074 -0.05535547435283661 -0.6486387848854065 0.00010276585817337036 -0.00015090405941009521 0.0 0.0 0.0 0.0
0.075 -0.16595475375652313 -0.6090837717056274 2.5875866413116455e-05 -0.0003239903599023819 0.0 0.0 0.0 0.0
0.076 -0.2658092975616455 -0.5530688762664795 -0.00022250041365623474 -0.00021755602210760117 0.0 0.0 0.0 0.0
0.077 -0.3541801869869232 -0.4830816686153412 -0.0002612229436635971 2.3865140974521637e-05 0.0 0.0 0.0 0.0
0.078 -0.42900335788726807 -0.4014074206352234 -0.00018297415226697922 0.00015337485820055008 0.0 0.0 0.0 0.0
0.079 -0.48956555128097534 -0.30906739830970764 -0.00010124314576387405 0.00017043109983205795 0.0 0.0 0.0 0.0
0.08 -0.5347824096679688 -0.2089744657278061 -2.737622708082199e-05 0.00012955255806446075 0.0 0.0 0.0 0.0
0.081 -0.5639201402664185 -0.10238555818796158 3.5542063415050507e-05 0.0001214984804391861 0.0 0.0 0.0 0.0
0.082 -0.5766957402229309 0.009313805028796196 9.991321712732315e-05 0.00019878894090652466 0.0 0.0 0.0 0.0
0.083 -0.5701467990875244 0.12320847809314728 0.00016571767628192902 0.0001818593591451645 0.0 0.0 0.0 0.0
0.084 -0.5444552898406982 0.23681017756462097 0.00021569430828094482 0.00019043777137994766 0.0 0.0 0.0 0.0
0.085 -0.4985620081424713 0.3469823896884918 0.00032418500632047653 5.200318992137909e-05 0.0 0.0 0.0 0.0
0.086 -0.43172377347946167 0.45027410984039307 0.0005720825865864754 -4.1835010051727295e-05 0.0 0.0 0.0 0.0
0.087 -0.3458758592605591 0.5421212911605835 0.0005721068009734154 -0.0004639560356736183 0.0 0.0 0.0 0.0
0.088 -0.24243997037410736 0.618328869342804 8.335523307323456e-05 -0.0009815413504838943 0.0 0.0 0.0 0.0
0.089 -0.12225618213415146 0.6779642701148987 -0.000545775517821312 -0.0005858410149812698 0.0 0.0 0.0 0.0
0.09 0.013124076649546623 0.7124549746513367 -0.0006885584443807602 -0.00029223691672086716 0.0 0.0 0.0 0.0
0.091 0.15821734070777893 0.7182312607765198 -0.0006096800789237022 -5.103647708892822e-07 0.0 0.0 0.0 0.0
0.092 0.3042481243610382 0.6913119554519653 -0.0004974305629730225 0.00016467925161123276 0.0 0.0 0.0 0.0
0.093 0.44361013174057007 0.6328343749046326 -0.0003886120393872261 0.0002033822238445282 0.0 0.0 0.0 0.0
0.094 0.5683456659317017 0.542309045791626 -0.0002535693347454071 0.0003035338595509529 0.0 0.0 0.0 0.0
0.095 0.6703252196311951 0.42527884244918823 -0.00018235575407743454 0.0003827102482318878 0.0 0.0 0.0 0.0
0.096 0.744003176689148 0.2877321243286133 -9.935162961483002e-05 0.0003863247111439705 0.0 0.0 0.0 0.0
0.097 0.7828599810600281 0.1396079808473587 -5.927868187427521e-06 0.00033332500606775284 0.0 0.0 0.0 0.0
0.098 0.7894258499145508 -0.012265605852007866 5.133636295795441e-05 0.0003830455243587494 0.0 0.0 0.0 0.0
0.099 0.762687623500824 -0.15750890970230103 0.00017735548317432404 0.0002550790086388588 0.0 0.0 0.0 0.0
0.1 0.7071635127067566 -0.29069384932518005 0.0002742242068052292 0.00028634071350097656 0.0 0.0 0.0 0.0
0.101 0.626219630241394 -0.40429919958114624 0.00025741197168827057 0.00025790557265281677 0.0 0.0 0.0 0.0
0.102 0.5290105938911438 -0.4974220097064972 0.0003916909918189049 0.00016616098582744598 0.0 0.0 0.0 0.0
0.103 0.41877517104148865 -0.5666832327842712 0.0004042088985443115 0.00012404192239046097 0.0 0.0 0.0 0.0
0.104 0.3013381361961365 -0.6132609248161316 0.00044474750757217407 -1.0815449059009552e-05 0.0 0.0 0.0 0.0
0.105 0.18164031207561493 -0.6361432075500488 0.0004823599010705948 -0.00017557479441165924 0.0 0.0 0.0 0.0
0.106 0.06303881853818893 -0.6391391158103943 0.00041853729635477066 -0.00037991534918546677 0.0 0.0 0.0 0.0
0.107 -0.05104770138859749 -0.6198351979255676 0.0002490673214197159 -0.0005880855023860931 0.0 0.0 0.0 0.0
0.108 -0.15768671035766602 -0.5843347907066345 -0.00021917838603258133 -0.0005491618067026138 0.0 0.0 0.0 0.0
0.109 -0.2554388642311096 -0.5316779613494873 -0.0003614109009504318 -0.00028438493609428406 0.0 0.0 0.0 0.0
0.11 -0.3433820605278015 -0.46557381749153137 -0.0003341231495141983 -0.00011287257075309753 0.0 0.0 0.0 0.0
0.111 -0.4186630845069885 -0.3856660723686218 -0.00022305268794298172 -1.6469508409500122e-05 0.0 0.0 0.0 0.0
0.112 -0.48015040159225464 -0.2947165071964264 -0.00015380792319774628 4.572514444589615e-05 0.0 0.0 0.0 0.0
0.113 -0.5269615650177002 -0.19456350803375244 -7.832329720258713e-05 2.8947368264198303e-05 0.0 0.0 0.0 0.0
0.114 -0.5564139485359192 -0.0871136263012886 -0.00010865740478038788 0.00011331681162118912 0.0 0.0 0.0 0.0
0.115 -0.5681214928627014 0.026005642488598824 -7.964298129081726e-05 0.00011419504880905151 0.0 0.0 0.0 0.0
0.116 -0.5602729320526123 0.14257244765758514 2.9993243515491486e-05 2.0838342607021332e-05 0.0 0.0 0.0 0.0
0.117 -0.5317896604537964 0.2575884759426117 2.622697502374649e-05 8.15587118268013e-05 0.0 0.0 0.0 0.0
0.118 -0.4818074703216553 0.367714524269104 -5.734153091907501e-06 4.369951784610748e-05 0.0 0.0 0.0 0.0
0.119 -0.41194647550582886 0.47052431106567383 3.233179450035095e-05 2.09808349609375e-05 0.0 0.0 0.0 0.0
0.12 -0.3203643262386322 0.5600921511650085 4.2283907532691956e-05 4.371814429759979e-05 0.0 0.0 0.0 0.0
0.121 -0.21033445000648499 0.6330327391624451 6.17271289229393e-05 -2.4774111807346344e-05 0.0 0.0 0.0 0.0
0.122 -0.08522346615791321 0.6844046711921692 -3.449432551860809e-05 -2.7623027563095093e-05 0.0 0.0 0.0 0.0
0.123 0.051988888531923294 0.709362804889679 -6.157625466585159e-05 1.1640600860118866e-05 0.0 0.0 0.0 0.0
0.124 0.1940615475177765 0.7053062319755554 -4.4208019971847534e-05 4.681386053562164e-05 0.0 0.0 0.0 0.0
0.125 0.335659384727478 0.6698786616325378 -6.156321614980698e-05 8.594244718551636e-06 0.0 0.0 0.0 0.0
0.126 0.46676158905029297 0.604005753993988 -9.236857295036316e-06 3.572646528482437e-05 0.0 0.0 0.0 0.0
0.127 0.5815271139144897 0.5089114308357239 3.39653342962265e-06 4.743877798318863e-05 0.0 0.0 0.0 0.0
0.128 0.670954167842865 0.39282697439193726 -7.199123501777649e-06 0.00010783877223730087 0.0 0.0 0.0 0.0
0.129 0.733707070350647 0.2598161995410919 -6.946735084056854e-06 6.042979657649994e-05 0.0 0.0 0.0 0.0
0.13 0.7649489641189575 0.11924166232347488 4.905927926301956e-05 5.969591438770294e-05 0.0 0.0 0.0 0.0
0.131 0.7658883929252625 -0.02105887047946453 -9.350478649139404e-06 4.208553582429886e-05 0.0 0.0 0.0 0.0
0.132 0.7389380931854248 -0.15616315603256226 4.293397068977356e-06 9.851530194282532e-05 0.0 0.0 0.0 0.0
0.133 0.6860012412071228 -0.27810168266296387 3.789365291595459e-05 2.6090070605278015e-05 0.0 0.0 0.0 0.0
0.134 0.6122217774391174 -0.3855343163013458 1.1088326573371887e-05 3.4992583096027374e-05 0.0 0.0 0.0 0.0
0.135 0.5235559344291687 -0.47386422753334045 8.544698357582092e-05 -1.9935891032218933e-05 0.0 0.0 0.0 0.0
0.136 0.42121627926826477 -0.5414879322052002 2.701394259929657e-05 2.089608460664749e-05 0.0 0.0 0.0 0.0
0.137 0.3122331500053406 -0.588614284992218 2.9579736292362213e-05 4.082266241312027e-05 0.0 0.0 0.0 0.0
0.138 0.19845005869865417 -0.6162240505218506 2.3436732590198517e-05 8.88388603925705e-06 0.0 0.0 0.0 0.0
0.139 0.08521866053342819 -0.6221926212310791 -1.4156103134155273e-06 7.709488272666931e-06 0.0 0.0 0.0 0.0
0.14 -0.02736305445432663 -0.6095193028450012 2.673175185918808e-05 -1.0287389159202576e-05 0.0 0.0 0.0 0.0
0.141 -0.15538780391216278 -0.5627766847610474 5.263742059469223e-05 -2.6487745344638824e-05 0.0 0.0 0.0 0.0
0.142 -0.25022000074386597 -0.5095325708389282 -2.0116567611694336e-06 -1.7219223082065582e-05 0.0 0.0 0.0 0.0
0.143 -0.33389735221862793 -0.44221678376197815 -1.600664108991623e-05 -4.431139677762985e-05 0.0 0.0 0.0 0.0
0.144 -0.4049694240093231 -0.36329782009124756 1.387670636177063e-07 -4.773028194904327e-06 0.0 0.0 0.0 0.0
0.145 -0.4618021845817566 -0.2734283208847046 6.46151602268219e-06 -1.4787539839744568e-05 0.0 0.0 0.0 0.0
0.146 -0.5039654970169067 -0.17526718974113464 -4.2924657464027405e-06 -2.1617859601974487e-05 0.0 0.0 0.0 0.0
0.147 -0.5295411944389343 -0.07029000669717789 3.119464963674545e-05 -4.091300070285797e-06 0.0 0.0 0.0 0.0
0.148 -0.5372634530067444 0.03832848742604256 5.267001688480377e-05 -4.812050610780716e-05 0.0 0.0 0.0 0.0
0.149 -0.5259398221969604 0.14871054887771606 5.833245813846588e-05 -5.4817646741867065e-06 0.0 0.0 0.0 0.0
0.15 -0.495623916387558 0.25746795535087585 3.614462912082672e-05 -9.0794637799263e-05 0.0 0.0 0.0 0.0
0.151 -0.44471475481987 0.3621847927570343 5.500577390193939e-05 -0.00013099052011966705 0.0 0.0 0.0 0.0
0.152 -0.37396958470344543 0.4577431380748749 8.939765393733978e-06 -0.00012023560702800751 0.0 0.0 0.0 0.0
0.153 -0.2845228612422943 0.5406355857849121 -3.218371421098709e-05 -0.00015200302004814148 0.0 0.0 0.0 0.0
0.154 -0.17717377841472626 0.6064939498901367 -0.00012518279254436493 -0.0001361975446343422 0.0 0.0 0.0 0.0
0.155 -0.05587465316057205 0.6516069173812866 -0.00013415515422821045 -9.159184992313385e-05 0.0 0.0 0.0 0.0
0.156 0.07582728564739227 0.6711154580116272 -0.00019463244825601578 -4.516821354627609e-05 0.0 0.0 0.0 0.0
0.157 0.2103438377380371 0.6622363924980164 -0.0002530813217163086 5.402602255344391e-06 0.0 0.0 0.0 0.0
0.158 0.34425783157348633 0.6249788999557495 -0.00029016565531492233 9.228941053152084e-05 0.0 0.0 0.0 0.0
0.159 0.4660789370536804 0.5576850771903992 -0.00027854088693857193 0.00016856659203767776 0.0 0.0 0.0 0.0
0.16 0.5719662308692932 0.4658397138118744 -0.00024336948990821838 0.0003013145178556442 0.0 0.0 0.0 0.0
0.161 0.6559521555900574 0.35245707631111145 -0.00012904126197099686 0.00043129734694957733 0.0 0.0 0.0 0.0
0.162 0.7107621431350708 0.2244613915681839 -5.303695797920227e-05 0.0006043501198291779 0.0 0.0 0.0 0.0
0.163 0.73769611120224 0.08853670209646225 0.0002155117690563202 0.0007014283910393715 0.0 0.0 0.0 0.0
0.164 0.7342581152915955 -0.047199830412864685 0.0006861547008156776 0.0006910953670740128 0.0 0.0 0.0 0.0
0.165 0.7031885981559753 -0.17576317489147186 0.0011259475722908974 0.00027034059166908264 0.0 0.0 0.0 0.0
0.166 0.6486561894416809 -0.29277515411376953 0.0010707946494221687 -0.0004797382280230522 0.0 0.0 0.0 0.0
0.167 0.5728755593299866 -0.39358392357826233 0.0006028721109032631 -0.0008160164579749107 0.0 0.0 0.0 0.0
0.168 0.482460618019104 -0.4747350215911865 0.00019463524222373962 -0.0008368026465177536 0.0 0.0 0.0 0.0
0.169 0.3795852065086365 -0.5367600917816162 -8.540507405996323e-05 -0.0007628444582223892 0.0 0.0 0.0 0.0
0.17 0.27167728543281555 -0.5763377547264099 -0.00025912467390298843 -0.0006004869937896729 0.0 0.0 0.0 0.0
0.171 0.16110317409038544 -0.5962845087051392 -0.00038730259984731674 -0.0004551038146018982 0.0 0.0 0.0 0.0
0.172 0.05099427327513695 -0.596832811832428 -0.0004446469247341156 -0.0003272406756877899 0.0 0.0 0.0 0.0
0.173 -0.055700551718473434 -0.5777676105499268 -0.0005074683576822281 -0.00019691325724124908 0.0 0.0 0.0 0.0
0.174 -0.15577641129493713 -0.5421494841575623 -0.0004937257617712021 -9.697303175926208e-05 0.0 0.0 0.0 0.0
0.175 -0.24786144495010376 -0.4910115599632263 -0.0005208328366279602 -1.4547258615493774e-06 0.0 0.0 0.0 0.0
0.176 -0.3295993506908417 -0.4255106449127197 -0.00044602155685424805 0.00011120457202196121 0.0 0.0 0.0 0.0
0.177 -0.3993777632713318 -0.34790951013565063 -0.0004428131505846977 0.0002346402034163475 0.0 0.0 0.0 0.0
0.178 -0.4560033977031708 -0.25905874371528625 -0.00035362131893634796 0.00031986087560653687 0.0 0.0 0.0 0.0
0.179 -0.4969431161880493 -0.16137945652008057 -0.00021020974963903427 0.0004304405301809311 0.0 0.0 0.0 0.0
0.18 -0.5210223197937012 -0.05711865425109863 -0.00017920229583978653 0.00046217162162065506 0.0 0.0 0.0 0.0
0.181 -0.5269011855125427 0.05220010504126549 -5.0788745284080505e-05 0.00042981747537851334 0.0 0.0 0.0 0.0
0.182 -0.5144336819648743 0.1626993715763092 7.300823926925659e-05 0.00040133483707904816 0.0 0.0 0.0 0.0
0.183 -0.48050805926322937 0.27165478467941284 0.00014693662524223328 0.00036418717354536057 0.0 0.0 0.0 0.0
0.184 -0.42624542117118835 0.37569689750671387 0.0001695547252893448 0.00030417926609516144 0.0 0.0 0.0 0.0
0.185 -0.3513108789920807 0.4698435366153717 0.0002466309815645218 0.0003110421821475029 0.0 0.0 0.0 0.0
